(1756294205.847797) can0 101#00DC050000 T
(1756294205.848635) can0 100#0100000000 T
(1756294205.857744) can0 101#00DC050000 T
(1756294205.858558) can0 100#0100000000 T
(1756294205.867880) can0 101#00DC050000 T
(1756294205.868732) can0 100#0100000000 T
(1756294205.878097) can0 101#00DC050000 T
(1756294205.878607) can0 100#0100000000 T
(1756294205.887874) can0 101#00DC050000 T
(1756294205.888733) can0 100#0100000000 T
(1756294205.897824) can0 101#00DC050000 T
(1756294205.898611) can0 100#0100000000 T
(1756294205.907914) can0 101#00DC050000 T
(1756294205.908645) can0 100#0100000000 T
(1756294205.910943) can0 200#00590E910E7B0E R
(1756294205.911841) can0 200#01920E00000000 R
(1756294205.912945) can0 201#2E2F000000000000 R
(1756294205.913761) can0 202#513A0000CD010000 R
(1756294205.917930) can0 101#00DC050000 T
(1756294205.918851) can0 100#0100000000 T
(1756294205.928062) can0 101#00DC050000 T
(1756294205.928990) can0 100#0100000000 T
(1756294205.937861) can0 101#00DC050000 T
(1756294205.938630) can0 100#0100000000 T
(1756294205.948123) can0 101#00DC050000 T
(1756294205.948743) can0 100#0100000000 T
(1756294205.958202) can0 101#00DC050000 T
(1756294205.958841) can0 100#0100000000 T
(1756294205.967950) can0 101#00DC050000 T
(1756294205.968976) can0 100#0100000000 T
(1756294205.978091) can0 101#00DC050000 T
(1756294205.978950) can0 100#0100000000 T
(1756294205.988083) can0 101#00DC050000 T
(1756294205.988825) can0 100#0100000000 T
(1756294205.997093) can0 211#0000000000000000 R
(1756294205.997832) can0 101#00DC050000 T
(1756294205.998705) can0 100#0100000000 T
(1756294206.006226) can0 210#0000000000000000 R
(1756294206.008179) can0 101#00DC050000 T
(1756294206.008566) can0 100#0100000000 T
(1756294206.017940) can0 101#00DC050000 T
(1756294206.019005) can0 100#0100000000 T
(1756294206.027120) can0 204#0000 R
(1756294206.027562) can0 203#481D R
(1756294206.028348) can0 101#00DC050000 T
(1756294206.029350) can0 100#0100000000 T
(1756294206.038078) can0 101#00DC050000 T
(1756294206.038983) can0 100#0100000000 T
(1756294206.048061) can0 101#00DC050000 T
(1756294206.048982) can0 100#0100000000 T
(1756294206.057963) can0 101#00DC050000 T
(1756294206.058898) can0 100#0100000000 T
(1756294206.067945) can0 101#00DC050000 T
(1756294206.068884) can0 100#0100000000 T
(1756294206.078053) can0 101#00DC050000 T
(1756294206.078984) can0 100#0100000000 T
(1756294206.087956) can0 101#00DC050000 T
(1756294206.088710) can0 100#0100000000 T
(1756294206.098064) can0 101#00DC050000 T
(1756294206.098779) can0 100#0100000000 T
(1756294206.108098) can0 101#00DC050000 T
(1756294206.108645) can0 100#0100000000 T
(1756294206.114330) can0 200#00500EB60E910E R
(1756294206.114672) can0 200#01720E00000000 R
(1756294206.115677) can0 201#732F000000000000 R
(1756294206.116711) can0 202#633A0000A5010000 R
(1756294206.117908) can0 101#00DC050000 T
(1756294206.118764) can0 100#0100000000 T
(1756294206.127764) can0 101#00DC050000 T
(1756294206.128541) can0 100#0100000000 T
(1756294206.138106) can0 101#00DC050000 T
(1756294206.139006) can0 100#0100000000 T
(1756294206.148090) can0 101#00DC050000 T
(1756294206.148894) can0 100#0100000000 T
(1756294206.158201) can0 101#00DC050000 T
(1756294206.158705) can0 100#0100000000 T
(1756294206.168003) can0 101#00DC050000 T
(1756294206.169004) can0 100#0100000000 T
(1756294206.177922) can0 101#00DC050000 T
(1756294206.178626) can0 100#0100000000 T
(1756294206.187830) can0 101#00DC050000 T
(1756294206.188565) can0 100#0100000000 T
(1756294206.196991) can0 211#0000000000000000 R
(1756294206.198017) can0 101#00DC050000 T
(1756294206.198843) can0 100#0100000000 T
(1756294206.206171) can0 210#0000000000000000 R
(1756294206.207772) can0 101#00DC050000 T
(1756294206.208942) can0 100#0100000000 T
(1756294206.218071) can0 101#00DC050000 T
(1756294206.218638) can0 100#0100000000 T
(1756294206.226827) can0 204#0000 R
(1756294206.227497) can0 203#201D R
(1756294206.228178) can0 101#00DC050000 T
(1756294206.229070) can0 100#0100000000 T
(1756294206.238132) can0 101#00DC050000 T
(1756294206.238751) can0 100#0100000000 T
(1756294206.248095) can0 101#00DC050000 T
(1756294206.248780) can0 100#0100000000 T
(1756294206.257825) can0 101#00DC050000 T
(1756294206.258593) can0 100#0100000000 T
(1756294206.267740) can0 101#00DC050000 T
(1756294206.268536) can0 100#0100000000 T
(1756294206.278114) can0 101#00DC050000 T
(1756294206.278818) can0 100#0100000000 T
(1756294206.288056) can0 101#00DC050000 T
(1756294206.288832) can0 100#0100000000 T
(1756294206.297934) can0 101#00DC050000 T
(1756294206.298554) can0 100#0100000000 T
(1756294206.308068) can0 101#00DC050000 T
(1756294206.308827) can0 100#0100000000 T
(1756294206.316155) can0 200#00500E7F0E8E0E R
(1756294206.316937) can0 200#01A30E00000000 R
(1756294206.318068) can0 201#012F000000000000 R
(1756294206.318750) can0 101#00DC050000 T
(1756294206.319715) can0 202#2C3A0000A5010000 R
(1756294206.320547) can0 100#0100000000 T
(1756294206.328073) can0 101#00DC050000 T
(1756294206.328788) can0 100#0100000000 T
(1756294206.337908) can0 101#00DC050000 T
(1756294206.338776) can0 100#0100000000 T
(1756294206.348093) can0 101#00DC050000 T
(1756294206.349023) can0 100#0100000000 T
(1756294206.358210) can0 101#00DC050000 T
(1756294206.359101) can0 100#0100000000 T
(1756294206.368070) can0 101#00DC050000 T
(1756294206.368962) can0 100#0100000000 T
(1756294206.378039) can0 101#00DC050000 T
(1756294206.378993) can0 100#0100000000 T
(1756294206.388124) can0 101#00DC050000 T
(1756294206.388988) can0 100#0100000000 T
(1756294206.396840) can0 211#0000000000000000 R
(1756294206.397939) can0 101#00DC050000 T
(1756294206.398796) can0 100#0100000000 T
(1756294206.406515) can0 210#0000000000000000 R
(1756294206.408100) can0 101#00DC050000 T
(1756294206.408715) can0 100#0100000000 T
(1756294206.417894) can0 101#00DC050000 T
(1756294206.418803) can0 100#0100000000 T
(1756294206.426992) can0 204#0000 R
(1756294206.427523) can0 203#D71C R
(1756294206.428292) can0 101#00DC050000 T
(1756294206.429105) can0 100#0100000000 T
(1756294206.437769) can0 101#00DC050000 T
(1756294206.438633) can0 100#0100000000 T
(1756294206.447972) can0 101#00DC050000 T
(1756294206.448805) can0 100#0100000000 T
(1756294206.457768) can0 101#00DC050000 T
(1756294206.458592) can0 100#0100000000 T
(1756294206.467845) can0 101#00DC050000 T
(1756294206.468716) can0 100#0100000000 T
(1756294206.478036) can0 101#00DC050000 T
(1756294206.478714) can0 100#0100000000 T
(1756294206.488011) can0 101#00DC050000 T
(1756294206.488822) can0 100#0100000000 T
(1756294206.497968) can0 101#00DC050000 T
(1756294206.498666) can0 100#0100000000 T
(1756294206.508090) can0 101#00DC050000 T
(1756294206.508795) can0 100#0100000000 T
(1756294206.517599) can0 200#00590E7F0E850E R
(1756294206.518357) can0 101#00DC050000 T
(1756294206.519209) can0 200#019A0E00000000 R
(1756294206.520011) can0 100#0100000000 T
(1756294206.521023) can0 201#512F000000000000 R
(1756294206.521923) can0 202#353A0000A5010000 R
(1756294206.527920) can0 101#00DC050000 T
(1756294206.528695) can0 100#0100000000 T
(1756294206.538127) can0 101#00DC050000 T
(1756294206.538990) can0 100#0100000000 T
(1756294206.547943) can0 101#00DC050000 T
(1756294206.548845) can0 100#0100000000 T
(1756294206.558132) can0 101#00DC050000 T
(1756294206.558979) can0 100#0100000000 T
(1756294206.567874) can0 101#00DC050000 T
(1756294206.568805) can0 100#0100000000 T
(1756294206.577907) can0 101#00DC050000 T
(1756294206.578712) can0 100#0100000000 T
(1756294206.587997) can0 101#00DC050000 T
(1756294206.588911) can0 100#0100000000 T
(1756294206.596812) can0 211#0000000000000000 R
(1756294206.598156) can0 101#00DC050000 T
(1756294206.598865) can0 100#0100000000 T
(1756294206.606120) can0 210#0000000000000000 R
(1756294206.607931) can0 101#00DC050000 T
(1756294206.608636) can0 100#0100000000 T
(1756294206.618105) can0 101#00DC050000 T
(1756294206.618927) can0 100#0100000000 T
(1756294206.626699) can0 204#0000 R
(1756294206.627309) can0 203#C01C R
(1756294206.628179) can0 101#00DC050000 T
(1756294206.628838) can0 100#0100000000 T
(1756294206.638116) can0 101#00DC050000 T
(1756294206.638697) can0 100#0100000000 T
(1756294206.648102) can0 101#00DC050000 T
(1756294206.648773) can0 100#0100000000 T
(1756294206.658109) can0 101#00DC050000 T
(1756294206.658934) can0 100#0100000000 T
(1756294206.667909) can0 101#00DC050000 T
(1756294206.668788) can0 100#0100000000 T
(1756294206.677948) can0 101#00DC050000 T
(1756294206.678760) can0 100#0100000000 T
(1756294206.688254) can0 101#00DC050000 T
(1756294206.688857) can0 100#0100000000 T
(1756294206.697904) can0 101#00DC050000 T
(1756294206.698648) can0 100#0100000000 T
(1756294206.708064) can0 101#00DC050000 T
(1756294206.708945) can0 100#0100000000 T
(1756294206.718034) can0 101#00DC050000 T
(1756294206.718810) can0 100#0100000000 T
(1756294206.719716) can0 200#00620EA40E700E R
(1756294206.720796) can0 200#018A0E00000000 R
(1756294206.721741) can0 201#292F000000000000 R
(1756294206.722477) can0 202#633A0000A5010000 R
(1756294206.728125) can0 101#00DC050000 T
(1756294206.728768) can0 100#0100000000 T
(1756294206.737905) can0 101#00DC050000 T
(1756294206.738797) can0 100#0100000000 T
(1756294206.748017) can0 101#00DC050000 T
(1756294206.748883) can0 100#0100000000 T
(1756294206.757981) can0 101#00DC050000 T
(1756294206.758889) can0 100#0100000000 T
(1756294206.768098) can0 101#00DC050000 T
(1756294206.768892) can0 100#0100000000 T
(1756294206.777821) can0 101#00DC050000 T
(1756294206.778736) can0 100#0100000000 T
(1756294206.787903) can0 101#00DC050000 T
(1756294206.788710) can0 100#0100000000 T
(1756294206.796760) can0 211#0000000000000000 R
(1756294206.797728) can0 101#00DC050000 T
(1756294206.798612) can0 100#0100000000 T
(1756294206.805831) can0 210#0000000000000000 R
(1756294206.807657) can0 101#00DC050000 T
(1756294206.808460) can0 100#0100000000 T
(1756294206.817788) can0 101#00DC050000 T
(1756294206.818681) can0 100#0100000000 T
(1756294206.826639) can0 204#0000 R
(1756294206.827309) can0 203#061D R
(1756294206.827877) can0 101#00DC050000 T
(1756294206.828782) can0 100#0100000000 T
(1756294206.837859) can0 101#00DC050000 T
(1756294206.838584) can0 100#0100000000 T
(1756294206.848085) can0 101#00DC050000 T
(1756294206.848669) can0 100#0100000000 T
(1756294206.857905) can0 101#00DC050000 T
(1756294206.858510) can0 100#0100000000 T
(1756294206.868062) can0 101#00DC050000 T
(1756294206.868765) can0 100#0100000000 T
(1756294206.877891) can0 101#00DC050000 T
(1756294206.878844) can0 100#0100000000 T
(1756294206.888144) can0 101#00DC050000 T
(1756294206.888847) can0 100#0100000000 T
(1756294206.897982) can0 101#00DC050000 T
(1756294206.898734) can0 100#0100000000 T
(1756294206.908063) can0 101#00DC050000 T
(1756294206.908688) can0 100#0100000000 T
(1756294206.918054) can0 101#00DC050000 T
(1756294206.918757) can0 100#0100000000 T
(1756294206.922960) can0 200#00590E910E730E R
(1756294206.923466) can0 200#019A0E00000000 R
(1756294206.924738) can0 201#732F000000000000 R
(1756294206.925384) can0 202#473A0000A5010000 R
(1756294206.927920) can0 101#00DC050000 T
(1756294206.928862) can0 100#0100000000 T
(1756294206.937805) can0 101#00DC050000 T
(1756294206.938706) can0 100#0100000000 T
(1756294206.948094) can0 101#00DC050000 T
(1756294206.948991) can0 100#0100000000 T
(1756294206.958064) can0 101#00DC050000 T
(1756294206.958655) can0 100#0100000000 T
(1756294206.968111) can0 101#00DC050000 T
(1756294206.968989) can0 100#0100000000 T
(1756294206.978072) can0 101#00DC050000 T
(1756294206.978864) can0 100#0100000000 T
(1756294206.987889) can0 101#00DC050000 T
(1756294206.988744) can0 100#0100000000 T
(1756294206.996638) can0 211#0000000000000000 R
(1756294206.997811) can0 101#00DC050000 T
(1756294206.998872) can0 100#0100000000 T
(1756294207.005957) can0 210#0000000000000000 R
(1756294207.007831) can0 101#00DC050000 T
(1756294207.008539) can0 100#0100000000 T
(1756294207.018022) can0 101#00DC050000 T
(1756294207.018697) can0 100#0100000000 T
(1756294207.026521) can0 204#0000 R
(1756294207.027133) can0 203#481D R
(1756294207.028063) can0 101#00DC050000 T
(1756294207.028572) can0 100#0100000000 T
(1756294207.038081) can0 101#00DC050000 T
(1756294207.039018) can0 100#0100000000 T
(1756294207.047903) can0 101#00DC050000 T
(1756294207.048695) can0 100#0100000000 T
(1756294207.058115) can0 101#00DC050000 T
(1756294207.058527) can0 100#0100000000 T
(1756294207.067932) can0 101#00DC050000 T
(1756294207.068818) can0 100#0100000000 T
(1756294207.078075) can0 101#00DC050000 T
(1756294207.078908) can0 100#0100000000 T
(1756294207.087899) can0 101#00DC050000 T
(1756294207.088831) can0 100#0100000000 T
(1756294207.098111) can0 101#00DC050000 T
(1756294207.098982) can0 100#0100000000 T
(1756294207.107959) can0 101#00DC050000 T
(1756294207.108849) can0 100#0100000000 T
(1756294207.117983) can0 101#00DC050000 T
(1756294207.118890) can0 100#0100000000 T
(1756294207.125069) can0 200#00620E910E830E R
(1756294207.125990) can0 200#01810E00000000 R
(1756294207.126791) can0 201#6D2F000000000000 R
(1756294207.127953) can0 202#5A3A0000A5010000 R
(1756294207.128646) can0 101#00DC050000 T
(1756294207.129485) can0 100#0100000000 T
(1756294207.138110) can0 101#00DC050000 T
(1756294207.138919) can0 100#0100000000 T
(1756294207.148118) can0 101#00DC050000 T
(1756294207.148584) can0 100#0100000000 T
(1756294207.158123) can0 101#00DC050000 T
(1756294207.158765) can0 100#0100000000 T
(1756294207.168049) can0 101#00DC050000 T
(1756294207.168953) can0 100#0100000000 T
(1756294207.177763) can0 101#00DC050000 T
(1756294207.178554) can0 100#0100000000 T
(1756294207.187846) can0 101#00DC050000 T
(1756294207.188549) can0 100#0100000000 T
(1756294207.196557) can0 211#0000000000000000 R
(1756294207.197860) can0 101#00DC050000 T
(1756294207.198787) can0 100#0100000000 T
(1756294207.205882) can0 210#0000000000000000 R
(1756294207.207915) can0 101#00DC050000 T
(1756294207.208713) can0 100#0100000000 T
(1756294207.217921) can0 101#00DC050000 T
(1756294207.218898) can0 100#0100000000 T
(1756294207.226441) can0 204#0000 R
(1756294207.227083) can0 203#201D R
(1756294207.227851) can0 101#00DC050000 T
(1756294207.228613) can0 100#0100000000 T
(1756294207.237921) can0 101#00DC050000 T
(1756294207.238656) can0 100#0100000000 T
(1756294207.248060) can0 101#00DC050000 T
(1756294207.248725) can0 100#0100000000 T
(1756294207.257866) can0 101#00DC050000 T
(1756294207.258741) can0 100#0100000000 T
(1756294207.268450) can0 101#00DC050000 T
(1756294207.268847) can0 100#0100000000 T
(1756294207.278098) can0 101#00DC050000 T
(1756294207.278625) can0 100#0100000000 T
(1756294207.288117) can0 101#00DC050000 T
(1756294207.288791) can0 100#0100000000 T
(1756294207.297936) can0 101#00DC050000 T
(1756294207.298872) can0 100#0100000000 T
(1756294207.307937) can0 101#00DC050000 T
(1756294207.308808) can0 100#0100000000 T
(1756294207.318131) can0 101#00DC050000 T
(1756294207.319014) can0 100#0100000000 T
(1756294207.326143) can0 200#00590E910E7B0E R
(1756294207.326979) can0 200#01920E00000000 R
(1756294207.327763) can0 101#00DC050000 T
(1756294207.328822) can0 201#182F000000000000 R
(1756294207.329480) can0 100#0100000000 T
(1756294207.330423) can0 202#513A0000CD010000 R
(1756294207.337837) can0 101#00DC050000 T
(1756294207.338780) can0 100#0100000000 T
(1756294207.347748) can0 101#00DC050000 T
(1756294207.348864) can0 100#0100000000 T
(1756294207.358139) can0 101#00DC050000 T
(1756294207.359007) can0 100#0100000000 T
(1756294207.368116) can0 101#00DC050000 T
(1756294207.368642) can0 100#0100000000 T
(1756294207.378128) can0 101#00DC050000 T
(1756294207.378967) can0 100#0100000000 T
(1756294207.388136) can0 101#00DC050000 T
(1756294207.388993) can0 100#0100000000 T
(1756294207.396439) can0 211#0000000000000000 R
(1756294207.397719) can0 101#00DC050000 T
(1756294207.398497) can0 100#0100000000 T
(1756294207.405781) can0 210#0000000000000000 R
(1756294207.407634) can0 101#00DC050000 T
(1756294207.408545) can0 100#0100000000 T
(1756294207.417746) can0 101#00DC050000 T
(1756294207.418502) can0 100#0100000000 T
(1756294207.426608) can0 204#0000 R
(1756294207.427236) can0 203#D71C R
(1756294207.427947) can0 101#00DC050000 T
(1756294207.428742) can0 100#0100000000 T
(1756294207.437841) can0 101#00DC050000 T
(1756294207.438488) can0 100#0100000000 T
(1756294207.447741) can0 101#00DC050000 T
(1756294207.448480) can0 100#0100000000 T
(1756294207.457864) can0 101#00DC050000 T
(1756294207.458782) can0 100#0100000000 T
(1756294207.468109) can0 101#00DC050000 T
(1756294207.469009) can0 100#0100000000 T
(1756294207.477968) can0 101#00DC050000 T
(1756294207.478803) can0 100#0100000000 T
(1756294207.488075) can0 101#00DC050000 T
(1756294207.488935) can0 100#0100000000 T
(1756294207.497887) can0 101#00DC050000 T
(1756294207.498834) can0 100#0100000000 T
(1756294207.508086) can0 101#00DC050000 T
(1756294207.508984) can0 100#0100000000 T
(1756294207.518052) can0 101#00DC050000 T
(1756294207.518824) can0 100#0100000000 T
(1756294207.527096) can0 200#00500E7F0E8E0E R
(1756294207.528403) can0 200#01AC0E00000000 R
(1756294207.528660) can0 101#00DC050000 T
(1756294207.529766) can0 201#182F000000000000 R
(1756294207.530513) can0 100#0100000000 T
(1756294207.531735) can0 202#2C3A0000CD010000 R
(1756294207.537961) can0 101#00DC050000 T
(1756294207.538846) can0 100#0100000000 T
(1756294207.548013) can0 101#00DC050000 T
(1756294207.548659) can0 100#0100000000 T
(1756294207.558022) can0 101#00DC050000 T
(1756294207.558903) can0 100#0100000000 T
(1756294207.568113) can0 101#00DC050000 T
(1756294207.568580) can0 100#0100000000 T
(1756294207.577966) can0 101#00DC050000 T
(1756294207.578803) can0 100#0100000000 T
(1756294207.587982) can0 101#00DC050000 T
(1756294207.588893) can0 100#0100000000 T
(1756294207.596389) can0 211#0000000000000000 R
(1756294207.598049) can0 101#00DC050000 T
(1756294207.598865) can0 100#0100000000 T
(1756294207.605904) can0 210#0000000000000000 R
(1756294207.608079) can0 101#00DC050000 T
(1756294207.608966) can0 100#0100000000 T
(1756294207.618069) can0 101#00DC050000 T
(1756294207.618963) can0 100#0100000000 T
(1756294207.626161) can0 204#0000 R
(1756294207.626736) can0 203#C01C R
(1756294207.627815) can0 101#00DC050000 T
(1756294207.628876) can0 100#0100000000 T
(1756294207.638090) can0 101#00DC050000 T
(1756294207.639020) can0 100#0100000000 T
(1756294207.647987) can0 101#00DC050000 T
(1756294207.648887) can0 100#0100000000 T
(1756294207.657953) can0 101#00DC050000 T
(1756294207.658895) can0 100#0100000000 T
(1756294207.667956) can0 101#00DC050000 T
(1756294207.668658) can0 100#0100000000 T
(1756294207.677977) can0 101#00DC050000 T
(1756294207.678858) can0 100#0100000000 T
(1756294207.688100) can0 101#00DC050000 T
(1756294207.688663) can0 100#0100000000 T
(1756294207.697873) can0 101#00DC050000 T
(1756294207.698649) can0 100#0100000000 T
(1756294207.708110) can0 101#00DC050000 T
(1756294207.708991) can0 100#0100000000 T
(1756294207.718027) can0 101#00DC050000 T
(1756294207.718977) can0 100#0100000000 T
(1756294207.728100) can0 101#00DC050000 T
(1756294207.728665) can0 100#0100000000 T
(1756294207.730135) can0 200#00620E9A0E7A0E R
(1756294207.731149) can0 200#01810E00000000 R
(1756294207.732226) can0 201#6D2F000000000000 R
(1756294207.732971) can0 202#5A3A0000A5010000 R
(1756294207.738112) can0 101#00DC050000 T
(1756294207.739015) can0 100#0100000000 T
(1756294207.747935) can0 101#00DC050000 T
(1756294207.748906) can0 100#0100000000 T
(1756294207.758142) can0 101#00DC050000 T
(1756294207.758983) can0 100#0100000000 T
(1756294207.767840) can0 101#00DC050000 T
(1756294207.768707) can0 100#0100000000 T
(1756294207.777989) can0 101#00DC050000 T
(1756294207.778894) can0 100#0100000000 T
(1756294207.787891) can0 101#00DC050000 T
(1756294207.788864) can0 100#0100000000 T
(1756294207.796205) can0 211#0000000000000000 R
(1756294207.797839) can0 101#00DC050000 T
(1756294207.798631) can0 100#0100000000 T
(1756294207.805482) can0 210#0000000000000000 R
(1756294207.807605) can0 101#00DC050000 T
(1756294207.808396) can0 100#0100000000 T
(1756294207.817928) can0 101#00DC050000 T
(1756294207.818581) can0 100#0100000000 T
(1756294207.826213) can0 204#0000 R
(1756294207.826752) can0 203#061D R
(1756294207.827911) can0 101#00DC050000 T
(1756294207.828832) can0 100#0100000000 T
(1756294207.838120) can0 101#00DC050000 T
(1756294207.838659) can0 100#0100000000 T
(1756294207.848102) can0 101#00DC050000 T
(1756294207.848965) can0 100#0100000000 T
(1756294207.857891) can0 101#00DC050000 T
(1756294207.858810) can0 100#0100000000 T
(1756294207.868083) can0 101#00DC050000 T
(1756294207.868788) can0 100#0100000000 T
(1756294207.878128) can0 101#00DC050000 T
(1756294207.878786) can0 100#0100000000 T
(1756294207.888141) can0 101#00DC050000 T
(1756294207.888780) can0 100#0100000000 T
(1756294207.898098) can0 101#00DC050000 T
(1756294207.898825) can0 100#0100000000 T
(1756294207.908001) can0 101#00DC050000 T
(1756294207.908795) can0 100#0100000000 T
(1756294207.918125) can0 101#00DC050000 T
(1756294207.918982) can0 100#0100000000 T
(1756294207.928075) can0 101#00DC050000 T
(1756294207.928813) can0 100#0100000000 T
(1756294207.932476) can0 200#00620E910E7A0E R
(1756294207.933259) can0 200#018A0E00000000 R
(1756294207.934333) can0 201#842F000000000000 R
(1756294207.935276) can0 202#5A3A0000CD010000 R
(1756294207.937943) can0 101#00DC050000 T
(1756294207.938587) can0 100#0100000000 T
(1756294207.948101) can0 101#00DC050000 T
(1756294207.948668) can0 100#0100000000 T
(1756294207.958102) can0 101#00DC050000 T
(1756294207.958676) can0 100#0100000000 T
(1756294207.968482) can0 101#00DC050000 T
(1756294207.968768) can0 100#0100000000 T
(1756294207.977815) can0 101#00DC050000 T
(1756294207.978700) can0 100#0100000000 T
(1756294207.988093) can0 101#00DC050000 T
(1756294207.988763) can0 100#0100000000 T
(1756294207.996133) can0 211#0000000000000000 R
(1756294207.997933) can0 101#00DC050000 T
(1756294207.998633) can0 100#0100000000 T
(1756294208.005393) can0 210#0000000000000000 R
(1756294208.007755) can0 101#00DC050000 T
(1756294208.008599) can0 100#0100000000 T
(1756294208.018102) can0 101#00DC050000 T
(1756294208.018645) can0 100#0100000000 T
(1756294208.026157) can0 204#0000 R
(1756294208.026559) can0 203#481D R
(1756294208.028118) can0 101#00DC050000 T
(1756294208.028553) can0 100#0100000000 T
(1756294208.037962) can0 101#00DC050000 T
(1756294208.038742) can0 100#0100000000 T
(1756294208.047929) can0 101#00DC050000 T
(1756294208.048869) can0 100#0100000000 T
(1756294208.058084) can0 101#00DC050000 T
(1756294208.058747) can0 100#0100000000 T
(1756294208.067971) can0 101#00DC050000 T
(1756294208.068723) can0 100#0100000000 T
(1756294208.078478) can0 101#00DC050000 T
(1756294208.078777) can0 100#0100000000 T
(1756294208.088121) can0 101#00DC050000 T
(1756294208.088993) can0 100#0100000000 T
(1756294208.098107) can0 101#00DC050000 T
(1756294208.098994) can0 100#0100000000 T
(1756294208.108036) can0 101#00DC050000 T
(1756294208.108940) can0 100#0100000000 T
(1756294208.118133) can0 101#00DC050000 T
(1756294208.118711) can0 100#0100000000 T
(1756294208.128035) can0 101#00DC050000 T
(1756294208.128964) can0 100#0100000000 T
(1756294208.134252) can0 200#00590EAD0E910E R
(1756294208.134913) can0 200#01720E00000000 R
(1756294208.135907) can0 201#8F2F000000000000 R
(1756294208.136740) can0 202#6C3A0000A5010000 R
(1756294208.138025) can0 101#00DC050000 T
(1756294208.138884) can0 100#0100000000 T
(1756294208.148098) can0 101#00DC050000 T
(1756294208.148767) can0 100#0100000000 T
(1756294208.158102) can0 101#00DC050000 T
(1756294208.159028) can0 100#0100000000 T
(1756294208.168067) can0 101#00DC050000 T
(1756294208.168992) can0 100#0100000000 T
(1756294208.177797) can0 101#00DC050000 T
(1756294208.178738) can0 100#0100000000 T
(1756294208.188096) can0 101#00DC050000 T
(1756294208.188929) can0 100#0100000000 T
(1756294208.196524) can0 211#0000000000000000 R
(1756294208.198142) can0 101#00DC050000 T
(1756294208.199016) can0 100#0100000000 T
(1756294208.205323) can0 210#0000000000000000 R
(1756294208.208099) can0 101#00DC050000 T
(1756294208.208891) can0 100#0100000000 T
(1756294208.218100) can0 101#00DC050000 T
(1756294208.218967) can0 100#0100000000 T
(1756294208.226100) can0 204#0000 R
(1756294208.226540) can0 203#201D R
(1756294208.228097) can0 101#00DC050000 T
(1756294208.228921) can0 100#0100000000 T
(1756294208.238080) can0 101#00DC050000 T
(1756294208.238769) can0 100#0100000000 T
(1756294208.247989) can0 101#00DC050000 T
(1756294208.248905) can0 100#0100000000 T
(1756294208.258224) can0 101#00DC050000 T
(1756294208.258681) can0 100#0100000000 T
(1756294208.267850) can0 101#00DC050000 T
(1756294208.268633) can0 100#0100000000 T
(1756294208.278107) can0 101#00DC050000 T
(1756294208.278955) can0 100#0100000000 T
(1756294208.288005) can0 101#00DC050000 T
(1756294208.288929) can0 100#0100000000 T
(1756294208.298098) can0 101#00DC050000 T
(1756294208.298927) can0 100#0100000000 T
(1756294208.307726) can0 101#00DC050000 T
(1756294208.308561) can0 100#0100000000 T
(1756294208.318112) can0 101#00DC050000 T
(1756294208.318765) can0 100#0100000000 T
(1756294208.327864) can0 101#00DC050000 T
(1756294208.328706) can0 100#0100000000 T
(1756294208.336983) can0 200#00500EB60E890E R
(1756294208.337782) can0 200#01710E00000000 R
(1756294208.338624) can0 101#00DC050000 T
(1756294208.339611) can0 201#2E2F000000000000 R
(1756294208.340283) can0 100#0100000000 T
(1756294208.341221) can0 202#633A0000CD010000 R
(1756294208.347768) can0 101#00DC050000 T
(1756294208.348667) can0 100#0100000000 T
(1756294208.358097) can0 101#00DC050000 T
(1756294208.358890) can0 100#0100000000 T
(1756294208.368127) can0 101#00DC050000 T
(1756294208.368683) can0 100#0100000000 T
(1756294208.378093) can0 101#00DC050000 T
(1756294208.378675) can0 100#0100000000 T
(1756294208.387807) can0 101#00DC050000 T
(1756294208.388762) can0 100#0100000000 T
(1756294208.395990) can0 211#0000000000000000 R
(1756294208.397877) can0 101#00DC050000 T
(1756294208.398793) can0 100#0100000000 T
(1756294208.405234) can0 210#0000000000000000 R
(1756294208.407939) can0 101#00DC050000 T
(1756294208.408845) can0 100#0100000000 T
(1756294208.418033) can0 101#00DC050000 T
(1756294208.418922) can0 100#0100000000 T
(1756294208.426542) can0 204#0000 R
(1756294208.426859) can0 203#D71C R
(1756294208.428096) can0 101#00DC050000 T
(1756294208.429010) can0 100#0100000000 T
(1756294208.437921) can0 101#00DC050000 T
(1756294208.438819) can0 100#0100000000 T
(1756294208.447891) can0 101#00DC050000 T
(1756294208.448559) can0 100#0100000000 T
(1756294208.457698) can0 101#00DC050000 T
(1756294208.458678) can0 100#0100000000 T
(1756294208.468463) can0 101#00DC050000 T
(1756294208.468830) can0 100#0100000000 T
(1756294208.478092) can0 101#00DC050000 T
(1756294208.478779) can0 100#0100000000 T
(1756294208.488095) can0 101#00DC050000 T
(1756294208.488901) can0 100#0100000000 T
(1756294208.498002) can0 101#00DC050000 T
(1756294208.498760) can0 100#0100000000 T
(1756294208.507923) can0 101#00DC050000 T
(1756294208.508825) can0 100#0100000000 T
(1756294208.518064) can0 101#00DC050000 T
(1756294208.519027) can0 100#0100000000 T
(1756294208.527936) can0 101#00DC050000 T
(1756294208.528814) can0 100#0100000000 T
(1756294208.538096) can0 101#00DC050000 T
(1756294208.538767) can0 100#0100000000 T
(1756294208.540403) can0 200#00620E910E830E R
(1756294208.540825) can0 200#01810E00000000 R
(1756294208.542138) can0 201#232F000000000000 R
(1756294208.542828) can0 202#5A3A0000CD010000 R
(1756294208.547817) can0 101#00DC050000 T
(1756294208.548723) can0 100#0100000000 T
(1756294208.558222) can0 101#00DC050000 T
(1756294208.558722) can0 100#0100000000 T
(1756294208.567911) can0 101#00DC050000 T
(1756294208.568774) can0 100#0100000000 T
(1756294208.578121) can0 101#00DC050000 T
(1756294208.578789) can0 100#0100000000 T
(1756294208.587870) can0 101#00DC050000 T
(1756294208.588778) can0 100#0100000000 T
(1756294208.596072) can0 211#0000000000000000 R
(1756294208.598279) can0 101#00DC050000 T
(1756294208.598527) can0 100#0100000000 T
(1756294208.605240) can0 210#0000000000000000 R
(1756294208.607837) can0 101#00DC050000 T
(1756294208.608782) can0 100#0100000000 T
(1756294208.618439) can0 101#00DC050000 T
(1756294208.618807) can0 100#0100000000 T
(1756294208.626098) can0 204#0000 R
(1756294208.626309) can0 203#BD1C R
(1756294208.628048) can0 101#00DC050000 T
(1756294208.628597) can0 100#0100000000 T
(1756294208.637855) can0 101#00DC050000 T
(1756294208.638688) can0 100#0100000000 T
(1756294208.647776) can0 101#00DC050000 T
(1756294208.648577) can0 100#0100000000 T
(1756294208.657939) can0 101#00DC050000 T
(1756294208.658600) can0 100#0100000000 T
(1756294208.668134) can0 101#00DC050000 T
(1756294208.669006) can0 100#0100000000 T
(1756294208.678050) can0 101#00DC050000 T
(1756294208.678695) can0 100#0100000000 T
(1756294208.688130) can0 101#00DC050000 T
(1756294208.688758) can0 100#0100000000 T
(1756294208.697900) can0 101#00DC050000 T
(1756294208.698651) can0 100#0100000000 T
(1756294208.708097) can0 101#00DC050000 T
(1756294208.708623) can0 100#0100000000 T
(1756294208.718097) can0 101#00DC050000 T
(1756294208.718798) can0 100#0100000000 T
(1756294208.728025) can0 101#00DC050000 T
(1756294208.728930) can0 100#0100000000 T
(1756294208.738044) can0 101#00DC050000 T
(1756294208.738980) can0 100#0100000000 T
(1756294208.741873) can0 200#00590EAD0E780E R
(1756294208.742528) can0 200#01820E00000000 R
(1756294208.743730) can0 201#732F000000000000 R
(1756294208.744688) can0 202#633A0000A5010000 R
(1756294208.747930) can0 101#00DC050000 T
(1756294208.748813) can0 100#0100000000 T
(1756294208.758112) can0 101#00DC050000 T
(1756294208.758787) can0 100#0100000000 T
(1756294208.767941) can0 101#00DC050000 T
(1756294208.768684) can0 100#0100000000 T
(1756294208.777921) can0 101#00DC050000 T
(1756294208.778813) can0 100#0100000000 T
(1756294208.787717) can0 101#00DC050000 T
(1756294208.788664) can0 100#0100000000 T
(1756294208.796261) can0 211#0000000000000000 R
(1756294208.797930) can0 101#00DC050000 T
(1756294208.798805) can0 100#0100000000 T
(1756294208.805055) can0 210#0000000000000000 R
(1756294208.807809) can0 101#00DC050000 T
(1756294208.808544) can0 100#0100000000 T
(1756294208.818099) can0 101#00DC050000 T
(1756294208.818546) can0 100#0100000000 T
(1756294208.825787) can0 204#0000 R
(1756294208.826263) can0 203#061D R
(1756294208.827865) can0 101#00DC050000 T
(1756294208.828826) can0 100#0100000000 T
(1756294208.837865) can0 101#00DC050000 T
(1756294208.838597) can0 100#0100000000 T
(1756294208.847955) can0 101#00DC050000 T
(1756294208.848866) can0 100#0100000000 T
(1756294208.857868) can0 101#00DC050000 T
(1756294208.858686) can0 100#0100000000 T
(1756294208.867750) can0 101#00DC050000 T
(1756294208.868606) can0 100#0100000000 T
(1756294208.877923) can0 101#00DC050000 T
(1756294208.878855) can0 100#0100000000 T
(1756294208.887975) can0 101#00DC050000 T
(1756294208.888575) can0 100#0100000000 T
(1756294208.898099) can0 101#00DC050000 T
(1756294208.898572) can0 100#0100000000 T
(1756294208.907762) can0 101#00DC050000 T
(1756294208.908540) can0 100#0100000000 T
(1756294208.918070) can0 101#00DC050000 T
(1756294208.918965) can0 100#0100000000 T
(1756294208.928006) can0 101#00DC050000 T
(1756294208.928917) can0 100#0100000000 T
(1756294208.937911) can0 101#00DC050000 T
(1756294208.938644) can0 100#0100000000 T
(1756294208.943285) can0 200#00620E910E830E R
(1756294208.944126) can0 200#01810E00000000 R
(1756294208.945191) can0 201#232F000000000000 R
(1756294208.946203) can0 202#5A3A0000A5010000 R
(1756294208.947683) can0 101#00DC050000 T
(1756294208.948458) can0 100#0100000000 T
(1756294208.957818) can0 101#00DC050000 T
(1756294208.958619) can0 100#0100000000 T
(1756294208.968107) can0 101#00DC050000 T
(1756294208.969040) can0 100#0100000000 T
(1756294208.977986) can0 101#00DC050000 T
(1756294208.978766) can0 100#0100000000 T
(1756294208.987886) can0 101#00DC050000 T
(1756294208.988584) can0 100#0100000000 T
(1756294208.995753) can0 211#0000000000000000 R
(1756294208.997803) can0 101#00DC050000 T
(1756294208.998608) can0 100#0100000000 T
(1756294209.004988) can0 210#0000000000000000 R
(1756294209.007813) can0 101#00DC050000 T
(1756294209.008564) can0 100#0100000000 T
(1756294209.017868) can0 101#00DC050000 T
(1756294209.018656) can0 100#0100000000 T
(1756294209.025748) can0 204#0000 R
(1756294209.026130) can0 203#481D R
(1756294209.028129) can0 101#00DC050000 T
(1756294209.028559) can0 100#0100000000 T
(1756294209.038118) can0 101#00DC050000 T
(1756294209.038991) can0 100#0100000000 T
(1756294209.047940) can0 101#00DC050000 T
(1756294209.048876) can0 100#0100000000 T
(1756294209.057950) can0 101#00DC050000 T
(1756294209.058767) can0 100#0100000000 T
(1756294209.067942) can0 101#00DC050000 T
(1756294209.068994) can0 100#0100000000 T
(1756294209.078128) can0 101#00DC050000 T
(1756294209.078967) can0 100#0100000000 T
(1756294209.087802) can0 101#00DC050000 T
(1756294209.088711) can0 100#0100000000 T
(1756294209.097941) can0 101#00DC050000 T
(1756294209.098967) can0 100#0100000000 T
(1756294209.108042) can0 101#00DC050000 T
(1756294209.108897) can0 100#0100000000 T
(1756294209.118074) can0 101#00DC050000 T
(1756294209.118722) can0 100#0100000000 T
(1756294209.128037) can0 101#00DC050000 T
(1756294209.128989) can0 100#0100000000 T
(1756294209.137932) can0 101#00DC050000 T
(1756294209.138696) can0 100#0100000000 T
(1756294209.144856) can0 200#00590E880E840E R
(1756294209.145306) can0 200#01A40E00000000 R
(1756294209.146208) can0 201#292F000000000000 R
(1756294209.147292) can0 202#473A0000A5010000 R
(1756294209.147994) can0 101#00DC050000 T
(1756294209.148862) can0 100#0100000000 T
(1756294209.158081) can0 101#00DC050000 T
(1756294209.159015) can0 100#0100000000 T
(1756294209.168115) can0 101#00DC050000 T
(1756294209.168676) can0 100#0100000000 T
(1756294209.178069) can0 101#00DC050000 T
(1756294209.179162) can0 100#0100000000 T
(1756294209.188019) can0 101#00DC050000 T
(1756294209.188932) can0 100#0100000000 T
(1756294209.195698) can0 211#0000000000000000 R
(1756294209.197810) can0 101#00DC050000 T
(1756294209.198790) can0 100#0100000000 T
(1756294209.204936) can0 210#0000000000000000 R
(1756294209.208110) can0 101#00DC050000 T
(1756294209.208656) can0 100#0100000000 T
(1756294209.218209) can0 101#00DC050000 T
(1756294209.218814) can0 100#0100000000 T
(1756294209.226148) can0 204#0000 R
(1756294209.226329) can0 203#201D R
(1756294209.228006) can0 101#00DC050000 T
(1756294209.228920) can0 100#0100000000 T
(1756294209.238069) can0 101#00DC050000 T
(1756294209.238982) can0 100#0100000000 T
(1756294209.248495) can0 101#00DC050000 T
(1756294209.248821) can0 100#0100000000 T
(1756294209.257943) can0 101#00DC050000 T
(1756294209.258898) can0 100#0100000000 T
(1756294209.268112) can0 101#00DC050000 T
(1756294209.269026) can0 100#0100000000 T
(1756294209.278176) can0 101#00DC050000 T
(1756294209.278754) can0 100#0100000000 T
(1756294209.288107) can0 101#00DC050000 T
(1756294209.288764) can0 100#0100000000 T
(1756294209.298024) can0 101#00DC050000 T
(1756294209.298799) can0 100#0100000000 T
(1756294209.308140) can0 101#00DC050000 T
(1756294209.308515) can0 100#0100000000 T
(1756294209.317903) can0 101#00DC050000 T
(1756294209.318830) can0 100#0100000000 T
(1756294209.328121) can0 101#00DC050000 T
(1756294209.328773) can0 100#0100000000 T
(1756294209.338094) can0 101#00DC050000 T
(1756294209.338771) can0 100#0100000000 T
(1756294209.346202) can0 200#00620E910E7A0E R
(1756294209.347203) can0 200#018A0E00000000 R
(1756294209.347907) can0 101#00DC050000 T
(1756294209.348941) can0 201#6D2F000000000000 R
(1756294209.349881) can0 100#0100000000 T
(1756294209.350644) can0 202#5A3A0000A5010000 R
(1756294209.357849) can0 101#00DC050000 T
(1756294209.358716) can0 100#0100000000 T
(1756294209.367965) can0 101#00DC050000 T
(1756294209.368910) can0 100#0100000000 T
(1756294209.378134) can0 101#00DC050000 T
(1756294209.378995) can0 100#0100000000 T
(1756294209.387972) can0 101#00DC050000 T
(1756294209.388936) can0 100#0100000000 T
(1756294209.395610) can0 211#0000000000000000 R
(1756294209.397847) can0 101#00DC050000 T
(1756294209.398575) can0 100#0100000000 T
(1756294209.404893) can0 210#0000000000000000 R
(1756294209.407831) can0 101#00DC050000 T
(1756294209.408561) can0 100#0100000000 T
(1756294209.417852) can0 101#00DC050000 T
(1756294209.418646) can0 100#0100000000 T
(1756294209.425862) can0 204#0000 R
(1756294209.425981) can0 203#971C R
(1756294209.427955) can0 101#00DC050000 T
(1756294209.428866) can0 100#0100000000 T
(1756294209.438121) can0 101#00DC050000 T
(1756294209.438938) can0 100#0100000000 T
(1756294209.448256) can0 101#00DC050000 T
(1756294209.448807) can0 100#0100000000 T
(1756294209.457818) can0 101#00DC050000 T
(1756294209.458833) can0 100#0100000000 T
(1756294209.467848) can0 101#00DC050000 T
(1756294209.468515) can0 100#0100000000 T
(1756294209.478428) can0 101#00DC050000 T
(1756294209.478821) can0 100#0100000000 T
(1756294209.488120) can0 101#00DC050000 T
(1756294209.488971) can0 100#0100000000 T
(1756294209.497865) can0 101#00DC050000 T
(1756294209.498797) can0 100#0100000000 T
(1756294209.507745) can0 101#00DC050000 T
(1756294209.508884) can0 100#0100000000 T
(1756294209.518157) can0 101#00DC050000 T
(1756294209.519007) can0 100#0100000000 T
(1756294209.527893) can0 101#00DC050000 T
(1756294209.528691) can0 100#0100000000 T
(1756294209.538165) can0 101#00DC050000 T
(1756294209.539011) can0 100#0100000000 T
(1756294209.547146) can0 200#00590E880E7C0E R
(1756294209.547966) can0 101#00DC050000 T
(1756294209.548806) can0 200#01AC0E00000000 R
(1756294209.549650) can0 100#0100000000 T
(1756294209.550608) can0 201#122F000000000000 R
(1756294209.551545) can0 202#473A0000A5010000 R
(1756294209.558115) can0 101#00DC050000 T
(1756294209.558568) can0 100#0100000000 T
(1756294209.568131) can0 101#00DC050000 T
(1756294209.569030) can0 100#0100000000 T
(1756294209.577909) can0 101#00DC050000 T
(1756294209.578787) can0 100#0100000000 T
(1756294209.588108) can0 101#00DC050000 T
(1756294209.588992) can0 100#0100000000 T
(1756294209.595545) can0 211#0000000000000000 R
(1756294209.597880) can0 101#00DC050000 T
(1756294209.598774) can0 100#0100000000 T
(1756294209.605017) can0 210#0000000000000000 R
(1756294209.607825) can0 101#00DC050000 T
(1756294209.608842) can0 100#0100000000 T
(1756294209.618123) can0 101#00DC050000 T
(1756294209.619016) can0 100#0100000000 T
(1756294209.625400) can0 204#0000 R
(1756294209.625828) can0 203#C01C R
(1756294209.627890) can0 101#00DC050000 T
(1756294209.628736) can0 100#0100000000 T
(1756294209.637829) can0 101#00DC050000 T
(1756294209.638682) can0 100#0100000000 T
(1756294209.647728) can0 101#00DC050000 T
(1756294209.648941) can0 100#0100000000 T
(1756294209.657919) can0 101#00DC050000 T
(1756294209.658772) can0 100#0100000000 T
(1756294209.667886) can0 101#00DC050000 T
(1756294209.668562) can0 100#0100000000 T
(1756294209.678013) can0 101#00DC050000 T
(1756294209.678889) can0 100#0100000000 T
(1756294209.688102) can0 101#00DC050000 T
(1756294209.688804) can0 100#0100000000 T
(1756294209.697888) can0 101#00DC050000 T
(1756294209.698826) can0 100#0100000000 T
(1756294209.707872) can0 101#00DC050000 T
(1756294209.708666) can0 100#0100000000 T
(1756294209.718011) can0 101#00DC050000 T
(1756294209.718825) can0 100#0100000000 T
(1756294209.728058) can0 101#00DC050000 T
(1756294209.728960) can0 100#0100000000 T
(1756294209.738099) can0 101#00DC050000 T
(1756294209.739034) can0 100#0100000000 T
(1756294209.748099) can0 101#00DC050000 T
(1756294209.748994) can0 200#00620EA40E780E R
(1756294209.749663) can0 100#0100000000 T
(1756294209.750743) can0 200#01820E00000000 R
(1756294209.751408) can0 201#8F2F000000000000 R
(1756294209.752484) can0 202#633A0000A5010000 R
(1756294209.758321) can0 101#00DC050000 T
(1756294209.758594) can0 100#0100000000 T
(1756294209.768232) can0 101#00DC050000 T
(1756294209.768776) can0 100#0100000000 T
(1756294209.777772) can0 101#00DC050000 T
(1756294209.778645) can0 100#0100000000 T
(1756294209.787958) can0 101#00DC050000 T
(1756294209.788868) can0 100#0100000000 T
(1756294209.795533) can0 211#0000000000000000 R
(1756294209.797986) can0 101#00DC050000 T
(1756294209.798868) can0 100#0100000000 T
(1756294209.804873) can0 210#0000000000000000 R
(1756294209.807866) can0 101#00DC050000 T
(1756294209.808826) can0 100#0100000000 T
(1756294209.817903) can0 101#00DC050000 T
(1756294209.818825) can0 100#0100000000 T
(1756294209.825269) can0 204#0000 R
(1756294209.825931) can0 203#061D R
(1756294209.827940) can0 101#00DC050000 T
(1756294209.828603) can0 100#0100000000 T
(1756294209.838152) can0 101#00DC050000 T
(1756294209.838660) can0 100#0100000000 T
(1756294209.847772) can0 101#00DC050000 T
(1756294209.848617) can0 100#0100000000 T
(1756294209.857980) can0 101#00DC050000 T
(1756294209.858585) can0 100#0100000000 T
(1756294209.868000) can0 101#00DC050000 T
(1756294209.868701) can0 100#0100000000 T
(1756294209.877871) can0 101#00DC050000 T
(1756294209.878691) can0 100#0100000000 T
(1756294209.887821) can0 101#00DC050000 T
(1756294209.888707) can0 100#0100000000 T
(1756294209.898091) can0 101#00DC050000 T
(1756294209.898802) can0 100#0100000000 T
(1756294209.907853) can0 101#00DC050000 T
(1756294209.908460) can0 100#0100000000 T
(1756294209.917942) can0 101#00DC050000 T
(1756294209.918911) can0 100#0100000000 T
(1756294209.928077) can0 101#00DC050000 T
(1756294209.928787) can0 100#0100000000 T
(1756294209.937888) can0 101#00DC050000 T
(1756294209.938923) can0 100#0100000000 T
(1756294209.948096) can0 101#00DC050000 T
(1756294209.948858) can0 100#0100000000 T
(1756294209.950051) can0 200#00590E7F0E850E R
(1756294209.950983) can0 200#01A30E00000000 R
(1756294209.951911) can0 201#6D2F000000000000 R
(1756294209.952891) can0 202#353A0000A5010000 R
(1756294209.957982) can0 101#00DC050000 T
(1756294209.958789) can0 100#0100000000 T
(1756294209.968095) can0 101#00DC050000 T
(1756294209.968889) can0 100#0100000000 T
(1756294209.977937) can0 101#00DC050000 T
(1756294209.978606) can0 100#0100000000 T
(1756294209.988062) can0 101#00DC050000 T
(1756294209.988970) can0 100#0100000000 T
(1756294209.995404) can0 211#0000000000000000 R
(1756294209.997942) can0 101#00DC050000 T
(1756294209.998898) can0 100#0100000000 T
(1756294210.004620) can0 210#0000000000000000 R
(1756294210.007959) can0 101#00DC050000 T
(1756294210.008984) can0 100#0100000000 T
(1756294210.018105) can0 101#00DC050000 T
(1756294210.018809) can0 100#0100000000 T
(1756294210.025363) can0 204#0000 R
(1756294210.025669) can0 203#481D R
(1756294210.027957) can0 101#00DC050000 T
(1756294210.028669) can0 100#0100000000 T
(1756294210.038055) can0 101#00DC050000 T
(1756294210.038959) can0 100#0100000000 T
(1756294210.048094) can0 101#00DC050000 T
(1756294210.048799) can0 100#0100000000 T
(1756294210.057770) can0 101#00DC050000 T
(1756294210.058540) can0 100#0100000000 T
(1756294210.067908) can0 101#00DC050000 T
(1756294210.068826) can0 100#0100000000 T
(1756294210.078014) can0 101#00DC050000 T
(1756294210.078733) can0 100#0100000000 T
(1756294210.088331) can0 101#00DC050000 T
(1756294210.088835) can0 100#0100000000 T
(1756294210.097998) can0 101#00DC050000 T
(1756294210.098881) can0 100#0100000000 T
(1756294210.108060) can0 101#00DC050000 T
(1756294210.108770) can0 100#0100000000 T
(1756294210.117905) can0 101#00DC050000 T
(1756294210.118607) can0 100#0100000000 T
(1756294210.128457) can0 101#00DC050000 T
(1756294210.128749) can0 100#0100000000 T
(1756294210.138089) can0 101#00DC050000 T
(1756294210.138988) can0 100#0100000000 T
(1756294210.148134) can0 101#00DC050000 T
(1756294210.148984) can0 100#0100000000 T
(1756294210.152017) can0 200#00500EB60E9B0E R
(1756294210.153189) can0 200#01680E00000000 R
(1756294210.153810) can0 201#8F2F000000000000 R
(1756294210.154776) can0 202#633A0000A5010000 R
(1756294210.157858) can0 101#00DC050000 T
(1756294210.158803) can0 100#0100000000 T
(1756294210.168074) can0 101#00DC050000 T
(1756294210.168932) can0 100#0100000000 T
(1756294210.177885) can0 101#00DC050000 T
(1756294210.178878) can0 100#0100000000 T
(1756294210.188057) can0 101#00DC050000 T
(1756294210.188958) can0 100#0100000000 T
(1756294210.195227) can0 211#0000000000000000 R
(1756294210.197925) can0 101#00DC050000 T
(1756294210.198831) can0 100#0100000000 T
(1756294210.204757) can0 210#0000000000000000 R
(1756294210.207928) can0 101#00DC050000 T
(1756294210.208874) can0 100#0100000000 T
(1756294210.218006) can0 101#00DC050000 T
(1756294210.218892) can0 100#0100000000 T
(1756294210.225802) can0 204#0000 R
(1756294210.226008) can0 203#201D R
(1756294210.228038) can0 101#00DC050000 T
(1756294210.228934) can0 100#0100000000 T
(1756294210.237977) can0 101#00DC050000 T
(1756294210.238901) can0 100#0100000000 T
(1756294210.248096) can0 101#00DC050000 T
(1756294210.248989) can0 100#0100000000 T
(1756294210.258078) can0 101#00DC050000 T
(1756294210.258783) can0 100#0100000000 T
(1756294210.268031) can0 101#00DC050000 T
(1756294210.268933) can0 100#0100000000 T
(1756294210.277963) can0 101#00DC050000 T
(1756294210.278851) can0 100#0100000000 T
(1756294210.288120) can0 101#00DC050000 T
(1756294210.288668) can0 100#0100000000 T
(1756294210.297891) can0 101#00DC050000 T
(1756294210.298818) can0 100#0100000000 T
(1756294210.307836) can0 101#00DC050000 T
(1756294210.308780) can0 100#0100000000 T
(1756294210.318118) can0 101#00DC050000 T
(1756294210.318913) can0 100#0100000000 T
(1756294210.328472) can0 101#00DC050000 T
(1756294210.328742) can0 100#0100000000 T
(1756294210.337707) can0 101#00DC050000 T
(1756294210.338590) can0 100#0100000000 T
(1756294210.348111) can0 101#00DC050000 T
(1756294210.348742) can0 100#0100000000 T
(1756294210.354113) can0 200#00470E9A0E9D0E R
(1756294210.354994) can0 200#019E0E00000000 R
(1756294210.356066) can0 201#5C2F000000000000 R
(1756294210.356957) can0 202#473A00007D010000 R
(1756294210.357745) can0 101#00DC050000 T
(1756294210.358810) can0 100#0100000000 T
(1756294210.368075) can0 101#00DC050000 T
(1756294210.368968) can0 100#0100000000 T
(1756294210.377843) can0 101#00DC050000 T
(1756294210.378609) can0 100#0100000000 T
(1756294210.388025) can0 101#00DC050000 T
(1756294210.388777) can0 100#0100000000 T
(1756294210.395155) can0 211#0000000000000000 R
(1756294210.397946) can0 101#00DC050000 T
(1756294210.398679) can0 100#0100000000 T
(1756294210.404364) can0 210#0000000000000000 R
(1756294210.407992) can0 101#00DC050000 T
(1756294210.408903) can0 100#0100000000 T
(1756294210.417893) can0 101#00DC050000 T
(1756294210.418807) can0 100#0100000000 T
(1756294210.424974) can0 204#0000 R
(1756294210.425578) can0 203#971C R
(1756294210.427698) can0 101#00DC050000 T
(1756294210.428643) can0 100#0100000000 T
(1756294210.437758) can0 101#00DC050000 T
(1756294210.438568) can0 100#0100000000 T
(1756294210.447781) can0 101#00DC050000 T
(1756294210.448648) can0 100#0100000000 T
(1756294210.457890) can0 101#00DC050000 T
(1756294210.458784) can0 100#0100000000 T
(1756294210.468428) can0 101#00DC050000 T
(1756294210.468857) can0 100#0100000000 T
(1756294210.478074) can0 101#00DC050000 T
(1756294210.478767) can0 100#0100000000 T
(1756294210.488094) can0 101#00DC050000 T
(1756294210.488973) can0 100#0100000000 T
(1756294210.498107) can0 101#00DC050000 T
(1756294210.498991) can0 100#0100000000 T
(1756294210.507918) can0 101#00DC050000 T
(1756294210.508809) can0 100#0100000000 T
(1756294210.517949) can0 101#00DC050000 T
(1756294210.518822) can0 100#0100000000 T
(1756294210.528113) can0 101#00DC050000 T
(1756294210.528907) can0 100#0100000000 T
(1756294210.538046) can0 101#00DC050000 T
(1756294210.538918) can0 100#0100000000 T
(1756294210.548102) can0 101#00DC050000 T
(1756294210.548610) can0 100#0100000000 T
(1756294210.556052) can0 200#00470E9A0E950E R
(1756294210.556537) can0 200#01A60E00000000 R
(1756294210.557625) can0 201#5C2F000000000000 R
(1756294210.558711) can0 101#00DC050000 T
(1756294210.559593) can0 202#473A00007D010000 R
(1756294210.560127) can0 100#0100000000 T
(1756294210.568123) can0 101#00DC050000 T
(1756294210.569011) can0 100#0100000000 T
(1756294210.577946) can0 101#00DC050000 T
(1756294210.578818) can0 100#0100000000 T
(1756294210.587892) can0 101#00DC050000 T
(1756294210.588789) can0 100#0100000000 T
(1756294210.595195) can0 211#0000000000000000 R
(1756294210.598020) can0 101#00DC050000 T
(1756294210.598945) can0 100#0100000000 T
(1756294210.604360) can0 210#0000000000000000 R
(1756294210.607770) can0 101#00DC050000 T
(1756294210.608709) can0 100#0100000000 T
(1756294210.618132) can0 101#00DC050000 T
(1756294210.618690) can0 100#0100000000 T
(1756294210.625038) can0 204#0000 R
(1756294210.625595) can0 203#BD1C R
(1756294210.627908) can0 101#00DC050000 T
(1756294210.628810) can0 100#0100000000 T
(1756294210.637837) can0 101#00DC050000 T
(1756294210.638754) can0 100#0100000000 T
(1756294210.648067) can0 101#00DC050000 T
(1756294210.649012) can0 100#0100000000 T
(1756294210.657730) can0 101#00DC050000 T
(1756294210.658516) can0 100#0100000000 T
(1756294210.667844) can0 101#00DC050000 T
(1756294210.668829) can0 100#0100000000 T
(1756294210.678154) can0 101#00DC050000 T
(1756294210.678526) can0 100#0100000000 T
(1756294210.687968) can0 101#00DC050000 T
(1756294210.689144) can0 100#0100000000 T
(1756294210.697976) can0 101#00DC050000 T
(1756294210.698922) can0 100#0100000000 T
(1756294210.707809) can0 101#00DC050000 T
(1756294210.708740) can0 100#0100000000 T
(1756294210.717867) can0 101#00DC050000 T
(1756294210.718885) can0 100#0100000000 T
(1756294210.727768) can0 101#00DC050000 T
(1756294210.728758) can0 100#0100000000 T
(1756294210.738154) can0 101#00DC050000 T
(1756294210.738926) can0 100#0100000000 T
(1756294210.748108) can0 101#00DC050000 T
(1756294210.748948) can0 100#0100000000 T
(1756294210.757825) can0 101#00DC050000 T
(1756294210.758716) can0 200#00590EAD0E890E R
(1756294210.759753) can0 100#0100000000 T
(1756294210.760276) can0 200#01710E00000000 R
(1756294210.761308) can0 201#8F2F000000000000 R
(1756294210.762164) can0 202#633A0000A5010000 R
(1756294210.767940) can0 101#00DC050000 T
(1756294210.768836) can0 100#0100000000 T
(1756294210.777940) can0 101#00DC050000 T
(1756294210.779100) can0 100#0100000000 T
(1756294210.787874) can0 101#00DC050000 T
(1756294210.788815) can0 100#0100000000 T
(1756294210.795074) can0 211#0000000000000000 R
(1756294210.797797) can0 101#00DC050000 T
(1756294210.798597) can0 100#0100000000 T
(1756294210.804326) can0 210#0000000000000000 R
(1756294210.807866) can0 101#00DC050000 T
(1756294210.808769) can0 100#0100000000 T
(1756294210.818123) can0 101#00DC050000 T
(1756294210.818684) can0 100#0100000000 T
(1756294210.824977) can0 204#0000 R
(1756294210.825404) can0 203#061D R
(1756294210.827906) can0 101#00DC050000 T
(1756294210.828783) can0 100#0100000000 T
(1756294210.838109) can0 101#00DC050000 T
(1756294210.838773) can0 100#0100000000 T
(1756294210.847841) can0 101#00DC050000 T
(1756294210.848779) can0 100#0100000000 T
(1756294210.857957) can0 101#00DC050000 T
(1756294210.858596) can0 100#0100000000 T
(1756294210.867898) can0 101#00DC050000 T
(1756294210.868800) can0 100#0100000000 T
(1756294210.877982) can0 101#00DC050000 T
(1756294210.878857) can0 100#0100000000 T
(1756294210.888064) can0 101#00DC050000 T
(1756294210.888729) can0 100#0100000000 T
(1756294210.898097) can0 101#00DC050000 T
(1756294210.898741) can0 100#0100000000 T
(1756294210.908082) can0 101#00DC050000 T
(1756294210.908961) can0 100#0100000000 T
(1756294210.917910) can0 101#00DC050000 T
(1756294210.918600) can0 100#0100000000 T
(1756294210.927991) can0 101#00DC050000 T
(1756294210.928754) can0 100#0100000000 T
(1756294210.937969) can0 101#00DC050000 T
(1756294210.938703) can0 100#0100000000 T
(1756294210.947912) can0 101#00DC050000 T
(1756294210.948812) can0 100#0100000000 T
(1756294210.958250) can0 101#00DC050000 T
(1756294210.958661) can0 100#0100000000 T
(1756294210.961180) can0 200#00500E7F0E960E R
(1756294210.962352) can0 200#01A40E00000000 R
(1756294210.963032) can0 201#062F000000000000 R
(1756294210.964110) can0 202#353A0000A5010000 R
(1756294210.968122) can0 101#00DC050000 T
(1756294210.968980) can0 100#0100000000 T
(1756294210.978075) can0 101#00DC050000 T
(1756294210.978939) can0 100#0100000000 T
(1756294210.988062) can0 101#00DC050000 T
(1756294210.988957) can0 100#0100000000 T
(1756294210.994940) can0 211#0000000000000000 R
(1756294210.997922) can0 101#00DC050000 T
(1756294210.998819) can0 100#0100000000 T
(1756294211.004200) can0 210#0000000000000000 R
(1756294211.007914) can0 101#00DC050000 T
(1756294211.009005) can0 100#0100000000 T
(1756294211.018045) can0 101#00DC050000 T
(1756294211.018914) can0 100#0100000000 T
(1756294211.025164) can0 204#0000 R
(1756294211.025390) can0 203#481D R
(1756294211.027942) can0 101#00DC050000 T
(1756294211.028604) can0 100#0100000000 T
(1756294211.038101) can0 101#00DC050000 T
(1756294211.038977) can0 100#0100000000 T
(1756294211.048094) can0 101#00DC050000 T
(1756294211.048985) can0 100#0100000000 T
(1756294211.058098) can0 101#00DC050000 T
(1756294211.058546) can0 100#0100000000 T
(1756294211.068021) can0 101#00DC050000 T
(1756294211.068935) can0 100#0100000000 T
(1756294211.078016) can0 101#00DC050000 T
(1756294211.078835) can0 100#0100000000 T
(1756294211.088129) can0 101#00DC050000 T
(1756294211.088753) can0 100#0100000000 T
(1756294211.098119) can0 101#00DC050000 T
(1756294211.098792) can0 100#0100000000 T
(1756294211.108121) can0 101#00DC050000 T
(1756294211.108721) can0 100#0100000000 T
(1756294211.117897) can0 101#00DC050000 T
(1756294211.118547) can0 100#0100000000 T
(1756294211.128267) can0 101#00DC050000 T
(1756294211.128678) can0 100#0100000000 T
(1756294211.138046) can0 101#00DC050000 T
(1756294211.139017) can0 100#0100000000 T
(1756294211.148059) can0 101#00DC050000 T
(1756294211.148770) can0 100#0100000000 T
(1756294211.158103) can0 101#00DC050000 T
(1756294211.158752) can0 100#0100000000 T
(1756294211.162861) can0 200#00590EAD0E780E R
(1756294211.163428) can0 200#01820E00000000 R
(1756294211.164434) can0 201#732F000000000000 R
(1756294211.165416) can0 202#633A0000A5010000 R
(1756294211.168296) can0 101#00DC050000 T
(1756294211.168663) can0 100#0100000000 T
(1756294211.178104) can0 101#00DC050000 T
(1756294211.178639) can0 100#0100000000 T
(1756294211.188095) can0 101#00DC050000 T
(1756294211.188969) can0 100#0100000000 T
(1756294211.194919) can0 211#0000000000000000 R
(1756294211.197958) can0 101#00DC050000 T
(1756294211.198904) can0 100#0100000000 T
(1756294211.204110) can0 210#0000000000000000 R
(1756294211.207934) can0 101#00DC050000 T
(1756294211.208618) can0 100#0100000000 T
(1756294211.217864) can0 101#00DC050000 T
(1756294211.218663) can0 100#0100000000 T
(1756294211.225899) can0 204#0000 R
(1756294211.226045) can0 203#201D R
(1756294211.227855) can0 101#00DC050000 T
(1756294211.228691) can0 100#0100000000 T
(1756294211.237994) can0 101#00DC050000 T
(1756294211.238937) can0 100#0100000000 T
(1756294211.247938) can0 101#00DC050000 T
(1756294211.248898) can0 100#0100000000 T
(1756294211.257684) can0 101#00DC050000 T
(1756294211.258450) can0 100#0100000000 T
(1756294211.267844) can0 101#00DC050000 T
(1756294211.268816) can0 100#0100000000 T
(1756294211.278108) can0 101#00DC050000 T
(1756294211.278926) can0 100#0100000000 T
(1756294211.288231) can0 101#00DC050000 T
(1756294211.288737) can0 100#0100000000 T
(1756294211.298160) can0 101#00DC050000 T
(1756294211.299016) can0 100#0100000000 T
(1756294211.308041) can0 101#00DC050000 T
(1756294211.308520) can0 100#0100000000 T
(1756294211.318098) can0 101#00DC050000 T
(1756294211.318698) can0 100#0100000000 T
(1756294211.328120) can0 101#00DC050000 T
(1756294211.328760) can0 100#0100000000 T
(1756294211.337694) can0 101#00DC050000 T
(1756294211.338560) can0 100#0100000000 T
(1756294211.347907) can0 101#00DC050000 T
(1756294211.348799) can0 100#0100000000 T
(1756294211.357857) can0 101#00DC050000 T
(1756294211.358663) can0 100#0100000000 T
(1756294211.364734) can0 200#00470E9A0E950E R
(1756294211.365218) can0 200#019D0E00000000 R
(1756294211.366209) can0 201#782F000000000000 R
(1756294211.367208) can0 202#473A0000A5010000 R
(1756294211.368152) can0 101#00DC050000 T
(1756294211.369007) can0 100#0100000000 T
(1756294211.378135) can0 101#00DC050000 T
(1756294211.378652) can0 100#0100000000 T
(1756294211.388018) can0 101#00DC050000 T
(1756294211.388740) can0 100#0100000000 T
(1756294211.394806) can0 211#0000000000000000 R
(1756294211.397850) can0 101#00DC050000 T
(1756294211.398603) can0 100#0100000000 T
(1756294211.403974) can0 210#0000000000000000 R
(1756294211.407997) can0 101#00DC050000 T
(1756294211.408623) can0 100#0100000000 T
(1756294211.417930) can0 101#00DC050000 T
(1756294211.418505) can0 100#0100000000 T
(1756294211.424672) can0 204#0000 R
(1756294211.425120) can0 203#971C R
(1756294211.427738) can0 101#00DC050000 T
(1756294211.428629) can0 100#0100000000 T
(1756294211.437946) can0 101#00DC050000 T
(1756294211.438725) can0 100#0100000000 T
(1756294211.447772) can0 101#00DC050000 T
(1756294211.448596) can0 100#0100000000 T
(1756294211.458024) can0 101#00DC050000 T
(1756294211.458712) can0 100#0100000000 T
(1756294211.468075) can0 101#00DC050000 T
(1756294211.468788) can0 100#0100000000 T
(1756294211.478070) can0 101#00DC050000 T
(1756294211.478767) can0 100#0100000000 T
(1756294211.488020) can0 101#00DC050000 T
(1756294211.489072) can0 100#0100000000 T
(1756294211.498062) can0 101#00DC050000 T
(1756294211.498954) can0 100#0100000000 T
(1756294211.508225) can0 101#00DC050000 T
(1756294211.508788) can0 100#0100000000 T
(1756294211.518125) can0 101#00DC050000 T
(1756294211.518792) can0 100#0100000000 T
(1756294211.527840) can0 101#00DC050000 T
(1756294211.528906) can0 100#0100000000 T
(1756294211.538132) can0 101#00DC050000 T
(1756294211.539009) can0 100#0100000000 T
(1756294211.548102) can0 101#00DC050000 T
(1756294211.549038) can0 100#0100000000 T
(1756294211.557877) can0 101#00DC050000 T
(1756294211.558907) can0 100#0100000000 T
(1756294211.566565) can0 200#00620EA40E700E R
(1756294211.567542) can0 200#018A0E00000000 R
(1756294211.568256) can0 101#00DC050000 T
(1756294211.569204) can0 201#732F000000000000 R
(1756294211.570174) can0 100#0100000000 T
(1756294211.570895) can0 202#633A0000A5010000 R
(1756294211.578093) can0 101#00DC050000 T
(1756294211.578714) can0 100#0100000000 T
(1756294211.588087) can0 101#00DC050000 T
(1756294211.588784) can0 100#0100000000 T
(1756294211.594692) can0 211#0000000000000000 R
(1756294211.598108) can0 101#00DC050000 T
(1756294211.598888) can0 100#0100000000 T
(1756294211.603925) can0 210#0000000000000000 R
(1756294211.607995) can0 101#00DC050000 T
(1756294211.608837) can0 100#0100000000 T
(1756294211.617948) can0 101#00DC050000 T
(1756294211.618851) can0 100#0100000000 T
(1756294211.624545) can0 204#0000 R
(1756294211.625110) can0 203#C01C R
(1756294211.628035) can0 101#00DC050000 T
(1756294211.628629) can0 100#0100000000 T
(1756294211.637718) can0 101#00DC050000 T
(1756294211.638587) can0 100#0100000000 T
(1756294211.648319) can0 101#00DC050000 T
(1756294211.648804) can0 100#0100000000 T
(1756294211.658051) can0 101#00DC050000 T
(1756294211.658973) can0 100#0100000000 T
(1756294211.667924) can0 101#00DC050000 T
(1756294211.668643) can0 100#0100000000 T
(1756294211.678072) can0 101#00DC050000 T
(1756294211.678588) can0 100#0100000000 T
(1756294211.688104) can0 101#00DC050000 T
(1756294211.688780) can0 100#0100000000 T
(1756294211.698076) can0 101#00DC050000 T
(1756294211.698985) can0 100#0100000000 T
(1756294211.708149) can0 101#00DC050000 T
(1756294211.708984) can0 100#0100000000 T
(1756294211.717955) can0 101#00DC050000 T
(1756294211.719025) can0 100#0100000000 T
(1756294211.728108) can0 101#00DC050000 T
(1756294211.728753) can0 100#0100000000 T
(1756294211.737959) can0 101#00DC050000 T
(1756294211.738988) can0 100#0100000000 T
(1756294211.748412) can0 101#00DC050000 T
(1756294211.748828) can0 100#0100000000 T
(1756294211.758094) can0 101#00DC050000 T
(1756294211.758565) can0 100#0100000000 T
(1756294211.768131) can0 101#00DC050000 T
(1756294211.768967) can0 100#0100000000 T
(1756294211.769858) can0 200#00590E910E730E R
(1756294211.770891) can0 200#019A0E00000000 R
(1756294211.771540) can0 201#732F000000000000 R
(1756294211.772744) can0 202#473A0000A5010000 R
(1756294211.778127) can0 101#00DC050000 T
(1756294211.778912) can0 100#0100000000 T
(1756294211.787851) can0 101#00DC050000 T
(1756294211.788771) can0 100#0100000000 T
(1756294211.794627) can0 211#0000000000000000 R
(1756294211.797919) can0 101#00DC050000 T
(1756294211.798839) can0 100#0100000000 T
(1756294211.803795) can0 210#0000000000000000 R
(1756294211.808063) can0 101#00DC050000 T
(1756294211.808969) can0 100#0100000000 T
(1756294211.818096) can0 101#00DC050000 T
(1756294211.818776) can0 100#0100000000 T
(1756294211.824403) can0 204#0000 R
(1756294211.824928) can0 203#061D R
(1756294211.827705) can0 101#00DC050000 T
(1756294211.828694) can0 100#0100000000 T
(1756294211.838049) can0 101#00DC050000 T
(1756294211.838945) can0 100#0100000000 T
(1756294211.848109) can0 101#00DC050000 T
(1756294211.848789) can0 100#0100000000 T
(1756294211.858045) can0 101#00DC050000 T
(1756294211.858630) can0 100#0100000000 T
(1756294211.867903) can0 101#00DC050000 T
(1756294211.868860) can0 100#0100000000 T
(1756294211.878033) can0 101#00DC050000 T
(1756294211.878707) can0 100#0100000000 T
(1756294211.888035) can0 101#00DC050000 T
(1756294211.888718) can0 100#0100000000 T
(1756294211.897924) can0 101#00DC050000 T
(1756294211.898597) can0 100#0100000000 T
(1756294211.908086) can0 101#00DC050000 T
(1756294211.908652) can0 100#0100000000 T
(1756294211.918005) can0 101#00DC050000 T
(1756294211.918709) can0 100#0100000000 T
(1756294211.928075) can0 101#00DC050000 T
(1756294211.928804) can0 100#0100000000 T
(1756294211.938064) can0 101#00DC050000 T
(1756294211.938597) can0 100#0100000000 T
(1756294211.948111) can0 101#00DC050000 T
(1756294211.948889) can0 100#0100000000 T
(1756294211.957957) can0 101#00DC050000 T
(1756294211.958720) can0 100#0100000000 T
(1756294211.968066) can0 101#00DC050000 T
(1756294211.968846) can0 100#0100000000 T
(1756294211.971014) can0 200#00470E880E960E R
(1756294211.971784) can0 200#01AE0E00000000 R
(1756294211.972749) can0 201#672F000000000000 R
(1756294211.973580) can0 202#2C3A0000A5010000 R
(1756294211.977914) can0 101#00DC050000 T
(1756294211.978615) can0 100#0100000000 T
(1756294211.987933) can0 101#00DC050000 T
(1756294211.988540) can0 100#0100000000 T
(1756294211.994525) can0 211#0000000000000000 R
(1756294211.997878) can0 101#00DC050000 T
(1756294211.998646) can0 100#0100000000 T
(1756294212.003840) can0 210#0000000000000000 R
(1756294212.008110) can0 101#00DC050000 T
(1756294212.008988) can0 100#0100000000 T
(1756294212.018103) can0 101#00DC050000 T
(1756294212.018665) can0 100#0100000000 T
(1756294212.024929) can0 204#0000 R
(1756294212.025381) can0 203#481D R
(1756294212.027839) can0 101#00DC050000 T
(1756294212.028701) can0 100#0100000000 T
(1756294212.037953) can0 101#00DC050000 T
(1756294212.038668) can0 100#0100000000 T
(1756294212.048063) can0 101#00DC050000 T
(1756294212.048730) can0 100#0100000000 T
(1756294212.058114) can0 101#00DC050000 T
(1756294212.058800) can0 100#0100000000 T
(1756294212.067902) can0 101#00DC050000 T
(1756294212.068672) can0 100#0100000000 T
(1756294212.077992) can0 101#00DC050000 T
(1756294212.078839) can0 100#0100000000 T
(1756294212.088108) can0 101#00DC050000 T
(1756294212.088784) can0 100#0100000000 T
(1756294212.097947) can0 101#00DC050000 T
(1756294212.098688) can0 100#0100000000 T
(1756294212.108143) can0 101#00DC050000 T
(1756294212.108970) can0 100#0100000000 T
(1756294212.117824) can0 101#00DC050000 T
(1756294212.118661) can0 100#0100000000 T
(1756294212.128159) can0 101#00DC050000 T
(1756294212.128662) can0 100#0100000000 T
(1756294212.138093) can0 101#00DC050000 T
(1756294212.139043) can0 100#0100000000 T
(1756294212.148015) can0 101#00DC050000 T
(1756294212.149101) can0 100#0100000000 T
(1756294212.158070) can0 101#00DC050000 T
(1756294212.158830) can0 100#0100000000 T
(1756294212.168076) can0 101#00DC050000 T
(1756294212.168869) can0 100#0100000000 T
(1756294212.172219) can0 200#00470E760EA00E R
(1756294212.172950) can0 200#01AC0E00000000 R
(1756294212.174344) can0 201#122F000000000000 R
(1756294212.174888) can0 202#233A0000A5010000 R
(1756294212.177990) can0 101#00DC050000 T
(1756294212.178883) can0 100#0100000000 T
(1756294212.188036) can0 101#00DC050000 T
(1756294212.188934) can0 100#0100000000 T
(1756294212.194449) can0 211#0000000000000000 R
(1756294212.197958) can0 101#00DC050000 T
(1756294212.198911) can0 100#0100000000 T
(1756294212.203733) can0 210#0000000000000000 R
(1756294212.208058) can0 101#00DC050000 T
(1756294212.208903) can0 100#0100000000 T
(1756294212.217837) can0 101#00DC050000 T
(1756294212.218732) can0 100#0100000000 T
(1756294212.224332) can0 204#0000 R
(1756294212.224854) can0 203#D71C R
(1756294212.227940) can0 101#00DC050000 T
(1756294212.228663) can0 100#0100000000 T
(1756294212.238009) can0 101#00DC050000 T
(1756294212.238741) can0 100#0100000000 T
(1756294212.247972) can0 101#00DC050000 T
(1756294212.248806) can0 100#0100000000 T
(1756294212.257918) can0 101#00DC050000 T
(1756294212.258812) can0 100#0100000000 T
(1756294212.268077) can0 101#00DC050000 T
(1756294212.268774) can0 100#0100000000 T
(1756294212.278010) can0 101#00DC050000 T
(1756294212.278960) can0 100#0100000000 T
(1756294212.287882) can0 101#00DC050000 T
(1756294212.288732) can0 100#0100000000 T
(1756294212.298098) can0 101#00DC050000 T
(1756294212.299018) can0 100#0100000000 T
(1756294212.308082) can0 101#00DC050000 T
(1756294212.308924) can0 100#0100000000 T
(1756294212.318124) can0 101#00DC050000 T
(1756294212.319013) can0 100#0100000000 T
(1756294212.328251) can0 101#00DC050000 T
(1756294212.328698) can0 100#0100000000 T
(1756294212.338197) can0 101#00DC050000 T
(1756294212.339004) can0 100#0100000000 T
(1756294212.348101) can0 101#00DC050000 T
(1756294212.348789) can0 100#0100000000 T
(1756294212.357811) can0 101#00DC050000 T
(1756294212.358738) can0 100#0100000000 T
(1756294212.368110) can0 101#00DC050000 T
(1756294212.368777) can0 100#0100000000 T
(1756294212.373860) can0 200#00590E880E8C0E R
(1756294212.374725) can0 200#019C0E00000000 R
(1756294212.375794) can0 201#182F000000000000 R
(1756294212.376747) can0 202#513A0000CD010000 R
(1756294212.377864) can0 101#00DC050000 T
(1756294212.378811) can0 100#0100000000 T
(1756294212.388073) can0 101#00DC050000 T
(1756294212.388982) can0 100#0100000000 T
(1756294212.394361) can0 211#0000000000000000 R
(1756294212.398025) can0 101#00DC050000 T
(1756294212.398703) can0 100#0100000000 T
(1756294212.403596) can0 210#0000000000000000 R
(1756294212.407859) can0 101#00DC050000 T
(1756294212.408752) can0 100#0100000000 T
(1756294212.417890) can0 101#00DC050000 T
(1756294212.418640) can0 100#0100000000 T
(1756294212.424116) can0 204#0000 R
(1756294212.424786) can0 203#971C R
(1756294212.427812) can0 101#00DC050000 T
(1756294212.428750) can0 100#0100000000 T
(1756294212.438089) can0 101#00DC050000 T
(1756294212.438727) can0 100#0100000000 T
(1756294212.447949) can0 101#00DC050000 T
(1756294212.448687) can0 100#0100000000 T
(1756294212.457808) can0 101#00DC050000 T
(1756294212.458606) can0 100#0100000000 T
(1756294212.467826) can0 101#00DC050000 T
(1756294212.468803) can0 100#0100000000 T
(1756294212.478055) can0 101#00DC050000 T
(1756294212.478956) can0 100#0100000000 T
(1756294212.488062) can0 101#00DC050000 T
(1756294212.488958) can0 100#0100000000 T
(1756294212.498108) can0 101#00DC050000 T
(1756294212.498614) can0 100#0100000000 T
(1756294212.508080) can0 101#00DC050000 T
(1756294212.509007) can0 100#0100000000 T
(1756294212.518120) can0 101#00DC050000 T
(1756294212.518989) can0 100#0100000000 T
(1756294212.527797) can0 101#00DC050000 T
(1756294212.528693) can0 100#0100000000 T
(1756294212.538527) can0 101#00DC050000 T
(1756294212.538802) can0 100#0100000000 T
(1756294212.547968) can0 101#00DC050000 T
(1756294212.548799) can0 100#0100000000 T
(1756294212.558081) can0 101#00DC050000 T
(1756294212.558980) can0 100#0100000000 T
(1756294212.567919) can0 101#00DC050000 T
(1756294212.568839) can0 100#0100000000 T
(1756294212.576673) can0 200#00500E7F0E8E0E R
(1756294212.577601) can0 200#01AC0E00000000 R
(1756294212.578348) can0 101#00DC050000 T
(1756294212.579280) can0 201#672F000000000000 R
(1756294212.580041) can0 100#0100000000 T
(1756294212.581020) can0 202#353A0000A5010000 R
(1756294212.588081) can0 101#00DC050000 T
(1756294212.588768) can0 100#0100000000 T
(1756294212.594456) can0 211#0000000000000000 R
(1756294212.598148) can0 101#00DC050000 T
(1756294212.598970) can0 100#0100000000 T
(1756294212.603469) can0 210#0000000000000000 R
(1756294212.607956) can0 101#00DC050000 T
(1756294212.608661) can0 100#0100000000 T
(1756294212.617995) can0 101#00DC050000 T
(1756294212.618871) can0 100#0100000000 T
(1756294212.624046) can0 204#0000 R
(1756294212.624671) can0 203#C01C R
(1756294212.628023) can0 101#00DC050000 T
(1756294212.628690) can0 100#0100000000 T
(1756294212.637891) can0 101#00DC050000 T
(1756294212.638775) can0 100#0100000000 T
(1756294212.648113) can0 101#00DC050000 T
(1756294212.649014) can0 100#0100000000 T
(1756294212.658137) can0 101#00DC050000 T
(1756294212.658673) can0 100#0100000000 T
(1756294212.667991) can0 101#00DC050000 T
(1756294212.668878) can0 100#0100000000 T
(1756294212.678128) can0 101#00DC050000 T
(1756294212.678795) can0 100#0100000000 T
(1756294212.687904) can0 101#00DC050000 T
(1756294212.688828) can0 100#0100000000 T
(1756294212.698127) can0 101#00DC050000 T
(1756294212.698985) can0 100#0100000000 T
(1756294212.708147) can0 101#00DC050000 T
(1756294212.708690) can0 100#0100000000 T
(1756294212.718092) can0 101#00DC050000 T
(1756294212.718780) can0 100#0100000000 T
(1756294212.728089) can0 101#00DC050000 T
(1756294212.728774) can0 100#0100000000 T
(1756294212.738117) can0 101#00DC050000 T
(1756294212.738989) can0 100#0100000000 T
(1756294212.748149) can0 101#00DC050000 T
(1756294212.748605) can0 100#0100000000 T
(1756294212.758120) can0 101#00DC050000 T
(1756294212.758994) can0 100#0100000000 T
(1756294212.768003) can0 101#00DC050000 T
(1756294212.768763) can0 100#0100000000 T
(1756294212.777943) can0 101#00DC050000 T
(1756294212.778907) can0 200#00500E7F0E960E R
(1756294212.779870) can0 100#0100000000 T
(1756294212.780878) can0 200#01AE0E00000000 R
(1756294212.781820) can0 201#6D2F000000000000 R
(1756294212.782727) can0 202#353A0000A5010000 R
(1756294212.787752) can0 101#00DC050000 T
(1756294212.788477) can0 100#0100000000 T
(1756294212.794056) can0 211#0000000000000000 R
(1756294212.797770) can0 101#00DC050000 T
(1756294212.798526) can0 100#0100000000 T
(1756294212.803274) can0 210#0000000000000000 R
(1756294212.807712) can0 101#00DC050000 T
(1756294212.808493) can0 100#0100000000 T
(1756294212.817871) can0 101#00DC050000 T
(1756294212.818767) can0 100#0100000000 T
(1756294212.823954) can0 204#0000 R
(1756294212.824620) can0 203#061D R
(1756294212.827742) can0 101#00DC050000 T
(1756294212.828616) can0 100#0100000000 T
(1756294212.838082) can0 101#00DC050000 T
(1756294212.838862) can0 100#0100000000 T
(1756294212.847978) can0 101#00DC050000 T
(1756294212.848943) can0 100#0100000000 T
(1756294212.857995) can0 101#00DC050000 T
(1756294212.858825) can0 100#0100000000 T
(1756294212.868110) can0 101#00DC050000 T
(1756294212.869038) can0 100#0100000000 T
(1756294212.878007) can0 101#00DC050000 T
(1756294212.878883) can0 100#0100000000 T
(1756294212.888423) can0 101#00DC050000 T
(1756294212.888770) can0 100#0100000000 T
(1756294212.898109) can0 101#00DC050000 T
(1756294212.898737) can0 100#0100000000 T
(1756294212.908100) can0 101#00DC050000 T
(1756294212.908691) can0 100#0100000000 T
(1756294212.918058) can0 101#00DC050000 T
(1756294212.918818) can0 100#0100000000 T
(1756294212.928087) can0 101#00DC050000 T
(1756294212.929009) can0 100#0100000000 T
(1756294212.937880) can0 101#00DC050000 T
(1756294212.938739) can0 100#0100000000 T
(1756294212.947763) can0 101#00DC050000 T
(1756294212.948594) can0 100#0100000000 T
(1756294212.957910) can0 101#00DC050000 T
(1756294212.958859) can0 100#0100000000 T
(1756294212.967924) can0 101#00DC050000 T
(1756294212.968802) can0 100#0100000000 T
(1756294212.977886) can0 101#00DC050000 T
(1756294212.978771) can0 100#0100000000 T
(1756294212.980137) can0 200#00500E880E8D0E R
(1756294212.980948) can0 200#01A40E00000000 R
(1756294212.982024) can0 201#672F000000000000 R
(1756294212.983031) can0 202#353A00007D010000 R
(1756294212.988232) can0 101#00DC050000 T
(1756294212.988544) can0 100#0100000000 T
(1756294212.994406) can0 211#0000000000000000 R
(1756294212.998109) can0 101#00DC050000 T
(1756294212.998620) can0 100#0100000000 T
(1756294213.003396) can0 210#0000000000000000 R
(1756294213.007763) can0 101#00DC050000 T
(1756294213.008522) can0 100#0100000000 T
(1756294213.017934) can0 101#00DC050000 T
(1756294213.018641) can0 100#0100000000 T
(1756294213.024702) can0 204#0000 R
(1756294213.025130) can0 203#481D R
(1756294213.028197) can0 101#00DC050000 T
(1756294213.028565) can0 100#0100000000 T
(1756294213.038094) can0 101#00DC050000 T
(1756294213.038765) can0 100#0100000000 T
(1756294213.048082) can0 101#00DC050000 T
(1756294213.048806) can0 100#0100000000 T
(1756294213.057923) can0 101#00DC050000 T
(1756294213.058703) can0 100#0100000000 T
(1756294213.067967) can0 101#00DC050000 T
(1756294213.068637) can0 100#0100000000 T
(1756294213.077832) can0 101#00DC050000 T
(1756294213.078807) can0 100#0100000000 T
(1756294213.087926) can0 101#00DC050000 T
(1756294213.088790) can0 100#0100000000 T
(1756294213.098238) can0 101#00DC050000 T
(1756294213.098610) can0 100#0100000000 T
(1756294213.108106) can0 101#00DC050000 T
(1756294213.108979) can0 100#0100000000 T
(1756294213.117837) can0 101#00DC050000 T
(1756294213.118948) can0 100#0100000000 T
(1756294213.128095) can0 101#00DC050000 T
(1756294213.128974) can0 100#0100000000 T
(1756294213.137973) can0 101#00DC050000 T
(1756294213.138859) can0 100#0100000000 T
(1756294213.148326) can0 101#00DC050000 T
(1756294213.148676) can0 100#0100000000 T
(1756294213.157918) can0 101#00DC050000 T
(1756294213.158781) can0 100#0100000000 T
(1756294213.168109) can0 101#00DC050000 T
(1756294213.168782) can0 100#0100000000 T
(1756294213.178041) can0 101#00DC050000 T
(1756294213.178940) can0 100#0100000000 T
(1756294213.181750) can0 200#00470E760E960E R
(1756294213.182941) can0 200#01AD0E00000000 R
(1756294213.183526) can0 201#FB2E000000000000 R
(1756294213.184742) can0 202#233A0000CD010000 R
(1756294213.188055) can0 101#00DC050000 T
(1756294213.188946) can0 100#0100000000 T
(1756294213.194136) can0 211#0000000000000000 R
(1756294213.197877) can0 101#00DC050000 T
(1756294213.198757) can0 100#0100000000 T
(1756294213.203205) can0 210#0000000000000000 R
(1756294213.208099) can0 101#00DC050000 T
(1756294213.208788) can0 100#0100000000 T
(1756294213.217877) can0 101#00DC050000 T
(1756294213.218765) can0 100#0100000000 T
(1756294213.223829) can0 204#0000 R
(1756294213.224386) can0 203#D71C R
(1756294213.228124) can0 101#00DC050000 T
(1756294213.228742) can0 100#0100000000 T
(1756294213.238046) can0 101#00DC050000 T
(1756294213.238966) can0 100#0100000000 T
(1756294213.248077) can0 101#00DC050000 T
(1756294213.248903) can0 100#0100000000 T
(1756294213.258006) can0 101#00DC050000 T
(1756294213.258914) can0 100#0100000000 T
(1756294213.268107) can0 101#00DC050000 T
(1756294213.269009) can0 100#0100000000 T
(1756294213.277859) can0 101#00DC050000 T
(1756294213.278640) can0 100#0100000000 T
(1756294213.287789) can0 101#00DC050000 T
(1756294213.288566) can0 100#0100000000 T
(1756294213.297755) can0 101#00DC050000 T
(1756294213.298541) can0 100#0100000000 T
(1756294213.308055) can0 101#00DC050000 T
(1756294213.308993) can0 100#0100000000 T
(1756294213.317950) can0 101#00DC050000 T
(1756294213.318683) can0 100#0100000000 T
(1756294213.328468) can0 101#00DC050000 T
(1756294213.328795) can0 100#0100000000 T
(1756294213.338072) can0 101#00DC050000 T
(1756294213.338867) can0 100#0100000000 T
(1756294213.348086) can0 101#00DC050000 T
(1756294213.348763) can0 100#0100000000 T
(1756294213.358079) can0 101#00DC050000 T
(1756294213.358576) can0 100#0100000000 T
(1756294213.368141) can0 101#00DC050000 T
(1756294213.368980) can0 100#0100000000 T
(1756294213.377797) can0 101#00DC050000 T
(1756294213.378654) can0 100#0100000000 T
(1756294213.384820) can0 200#00500E7F0E960E R
(1756294213.385822) can0 200#01A40E00000000 R
(1756294213.386597) can0 201#672F000000000000 R
(1756294213.387802) can0 202#353A0000A5010000 R
(1756294213.388259) can0 101#00DC050000 T
(1756294213.389016) can0 100#0100000000 T
(1756294213.393895) can0 211#0000000000000000 R
(1756294213.398003) can0 101#00DC050000 T
(1756294213.398667) can0 100#0100000000 T
(1756294213.403135) can0 210#0000000000000000 R
(1756294213.408099) can0 101#00DC050000 T
(1756294213.408799) can0 100#0100000000 T
(1756294213.417731) can0 101#00DC050000 T
(1756294213.418507) can0 100#0100000000 T
(1756294213.423753) can0 204#0000 R
(1756294213.424307) can0 203#971C R
(1756294213.427948) can0 101#00DC050000 T
(1756294213.428642) can0 100#0100000000 T
(1756294213.437945) can0 101#00DC050000 T
(1756294213.438853) can0 100#0100000000 T
(1756294213.447722) can0 101#00DC050000 T
(1756294213.448553) can0 100#0100000000 T
(1756294213.458115) can0 101#00DC050000 T
(1756294213.458732) can0 100#0100000000 T
(1756294213.468025) can0 101#00DC050000 T
(1756294213.468960) can0 100#0100000000 T
(1756294213.478120) can0 101#00DC050000 T
(1756294213.479023) can0 100#0100000000 T
(1756294213.487965) can0 101#00DC050000 T
(1756294213.489016) can0 100#0100000000 T
(1756294213.498005) can0 101#00DC050000 T
(1756294213.499055) can0 100#0100000000 T
(1756294213.508130) can0 101#00DC050000 T
(1756294213.508975) can0 100#0100000000 T
(1756294213.518109) can0 101#00DC050000 T
(1756294213.518980) can0 100#0100000000 T
(1756294213.528080) can0 101#00DC050000 T
(1756294213.528772) can0 100#0100000000 T
(1756294213.538063) can0 101#00DC050000 T
(1756294213.538897) can0 100#0100000000 T
(1756294213.547928) can0 101#00DC050000 T
(1756294213.548749) can0 100#0100000000 T
(1756294213.558138) can0 101#00DC050000 T
(1756294213.558972) can0 100#0100000000 T
(1756294213.568056) can0 101#00DC050000 T
(1756294213.568998) can0 100#0100000000 T
(1756294213.578000) can0 101#00DC050000 T
(1756294213.578954) can0 100#0100000000 T
(1756294213.586564) can0 200#00590EAD0E910E R
(1756294213.587506) can0 200#01720E00000000 R
(1756294213.588219) can0 101#00DC050000 T
(1756294213.589162) can0 201#8F2F000000000000 R
(1756294213.589949) can0 100#0100000000 T
(1756294213.590960) can0 202#6C3A0000A5010000 R
(1756294213.594196) can0 211#0000000000000000 R
(1756294213.597892) can0 101#00DC050000 T
(1756294213.598825) can0 100#0100000000 T
(1756294213.603298) can0 210#0000000000000000 R
(1756294213.608500) can0 101#00DC050000 T
(1756294213.608762) can0 100#0100000000 T
(1756294213.618006) can0 101#00DC050000 T
(1756294213.618638) can0 100#0100000000 T
(1756294213.623893) can0 204#0000 R
(1756294213.624161) can0 203#C01C R
(1756294213.628102) can0 101#00DC050000 T
(1756294213.628961) can0 100#0100000000 T
(1756294213.637984) can0 101#00DC050000 T
(1756294213.638712) can0 100#0100000000 T
(1756294213.647967) can0 101#00DC050000 T
(1756294213.648898) can0 100#0100000000 T
(1756294213.658055) can0 101#00DC050000 T
(1756294213.658792) can0 100#0100000000 T
(1756294213.668122) can0 101#00DC050000 T
(1756294213.668485) can0 100#0100000000 T
(1756294213.678097) can0 101#00DC050000 T
(1756294213.678983) can0 100#0100000000 T
(1756294213.688027) can0 101#00DC050000 T
(1756294213.688971) can0 100#0100000000 T
(1756294213.697941) can0 101#00DC050000 T
(1756294213.698878) can0 100#0100000000 T
(1756294213.707929) can0 101#00DC050000 T
(1756294213.708732) can0 100#0100000000 T
(1756294213.718120) can0 101#00DC050000 T
(1756294213.719006) can0 100#0100000000 T
(1756294213.727836) can0 101#00DC050000 T
(1756294213.728592) can0 100#0100000000 T
(1756294213.738098) can0 101#00DC050000 T
(1756294213.738970) can0 100#0100000000 T
(1756294213.747955) can0 101#00DC050000 T
(1756294213.748910) can0 100#0100000000 T
(1756294213.758096) can0 101#00DC050000 T
(1756294213.758935) can0 100#0100000000 T
(1756294213.767895) can0 101#00DC050000 T
(1756294213.768647) can0 100#0100000000 T
(1756294213.778205) can0 101#00DC050000 T
(1756294213.778705) can0 100#0100000000 T
(1756294213.787885) can0 200#00470E9A0E9D0E R
(1756294213.788276) can0 101#00DC050000 T
(1756294213.789163) can0 200#019E0E00000000 R
(1756294213.789951) can0 100#0100000000 T
(1756294213.790966) can0 201#5C2F000000000000 R
(1756294213.791960) can0 202#473A0000A5010000 R
(1756294213.793938) can0 211#0000000000000000 R
(1756294213.798132) can0 101#00DC050000 T
(1756294213.798985) can0 100#0100000000 T
(1756294213.803283) can0 210#0000000000000000 R
(1756294213.807920) can0 101#00DC050000 T
(1756294213.808687) can0 100#0100000000 T
(1756294213.817957) can0 101#00DC050000 T
(1756294213.818735) can0 100#0100000000 T
(1756294213.824199) can0 204#0000 R
(1756294213.824566) can0 203#061D R
(1756294213.827968) can0 101#00DC050000 T
(1756294213.828733) can0 100#0100000000 T
(1756294213.838019) can0 101#00DC050000 T
(1756294213.838772) can0 100#0100000000 T
(1756294213.848026) can0 101#00DC050000 T
(1756294213.848724) can0 100#0100000000 T
(1756294213.858183) can0 101#00DC050000 T
(1756294213.858625) can0 100#0100000000 T
(1756294213.868106) can0 101#00DC050000 T
(1756294213.868928) can0 100#0100000000 T
(1756294213.878418) can0 101#00DC050000 T
(1756294213.878793) can0 100#0100000000 T
(1756294213.888130) can0 101#00DC050000 T
(1756294213.888977) can0 100#0100000000 T
(1756294213.898105) can0 101#00DC050000 T
(1756294213.898980) can0 100#0100000000 T
(1756294213.908018) can0 101#00DC050000 T
(1756294213.908659) can0 100#0100000000 T
(1756294213.918122) can0 101#00DC050000 T
(1756294213.918763) can0 100#0100000000 T
(1756294213.928027) can0 101#00DC050000 T
(1756294213.928924) can0 100#0100000000 T
(1756294213.937794) can0 101#00DC050000 T
(1756294213.938681) can0 100#0100000000 T
(1756294213.948123) can0 101#00DC050000 T
(1756294213.949024) can0 100#0100000000 T
(1756294213.958091) can0 101#00DC050000 T
(1756294213.958645) can0 100#0100000000 T
(1756294213.968012) can0 101#00DC050000 T
(1756294213.968814) can0 100#0100000000 T
(1756294213.978082) can0 101#00DC050000 T
(1756294213.978986) can0 100#0100000000 T
(1756294213.987905) can0 101#00DC050000 T
(1756294213.988787) can0 100#0100000000 T
(1756294213.990045) can0 200#00500E7F0E960E R
(1756294213.990901) can0 200#01A40E00000000 R
(1756294213.991886) can0 201#672F000000000000 R
(1756294213.992831) can0 202#353A0000A5010000 R
(1756294213.993784) can0 211#0000000000000000 R
(1756294213.998101) can0 101#00DC050000 T
(1756294213.998900) can0 100#0100000000 T
(1756294214.003215) can0 210#0000000000000000 R
(1756294214.008109) can0 101#00DC050000 T
(1756294214.008661) can0 100#0100000000 T
(1756294214.017924) can0 101#00DC050000 T
(1756294214.018719) can0 100#0100000000 T
(1756294214.023457) can0 204#0000 R
(1756294214.023936) can0 203#201D R
(1756294214.027878) can0 101#00DC050000 T
(1756294214.028650) can0 100#0100000000 T
(1756294214.037799) can0 101#00DC050000 T
(1756294214.038563) can0 100#0100000000 T
(1756294214.047878) can0 101#00DC050000 T
(1756294214.048592) can0 100#0100000000 T
(1756294214.057796) can0 101#00DC050000 T
(1756294214.058558) can0 100#0100000000 T
(1756294214.067749) can0 101#00DC050000 T
(1756294214.068615) can0 100#0100000000 T
(1756294214.078063) can0 101#00DC050000 T
(1756294214.078656) can0 100#0100000000 T
(1756294214.088124) can0 101#00DC050000 T
(1756294214.088535) can0 100#0100000000 T
(1756294214.098170) can0 101#00DC050000 T
(1756294214.098740) can0 100#0100000000 T
(1756294214.107858) can0 101#00DC050000 T
(1756294214.108733) can0 100#0100000000 T
(1756294214.118096) can0 101#00DC050000 T
(1756294214.118591) can0 100#0100000000 T
(1756294214.127759) can0 101#00DC050000 T
(1756294214.128828) can0 100#0100000000 T
(1756294214.137980) can0 101#00DC050000 T
(1756294214.138778) can0 100#0100000000 T
(1756294214.148132) can0 101#00DC050000 T
(1756294214.149007) can0 100#0100000000 T
(1756294214.158062) can0 101#00DC050000 T
(1756294214.158992) can0 100#0100000000 T
(1756294214.168130) can0 101#00DC050000 T
(1756294214.168674) can0 100#0100000000 T
(1756294214.178099) can0 101#00DC050000 T
(1756294214.178967) can0 100#0100000000 T
(1756294214.188066) can0 101#00DC050000 T
(1756294214.188751) can0 100#0100000000 T
(1756294214.192520) can0 200#00470E880E9E0E R
(1756294214.193112) can0 200#01A60E00000000 R
(1756294214.194054) can0 201#512F000000000000 R
(1756294214.195109) can0 202#353A0000A5010000 R
(1756294214.195986) can0 211#0000000000000000 R
(1756294214.197851) can0 101#00DC050000 T
(1756294214.198782) can0 100#0100000000 T
(1756294214.203153) can0 210#0000000000000000 R
(1756294214.207888) can0 101#00DC050000 T
(1756294214.208831) can0 100#0100000000 T
(1756294214.218061) can0 101#00DC050000 T
(1756294214.218974) can0 100#0100000000 T
(1756294214.223469) can0 204#0000 R
(1756294214.223912) can0 203#D71C R
(1756294214.227990) can0 101#00DC050000 T
(1756294214.228917) can0 100#0100000000 T
(1756294214.237995) can0 101#00DC050000 T
(1756294214.238809) can0 100#0100000000 T
(1756294214.248100) can0 101#00DC050000 T
(1756294214.248790) can0 100#0100000000 T
(1756294214.257905) can0 101#00DC050000 T
(1756294214.259095) can0 100#0100000000 T
(1756294214.267924) can0 101#00DC050000 T
(1756294214.268800) can0 100#0100000000 T
(1756294214.277938) can0 101#00DC050000 T
(1756294214.278565) can0 100#0100000000 T
(1756294214.287965) can0 101#00DC050000 T
(1756294214.288913) can0 100#0100000000 T
(1756294214.297758) can0 101#00DC050000 T
(1756294214.298873) can0 100#0100000000 T
(1756294214.308144) can0 101#00DC050000 T
(1756294214.308971) can0 100#0100000000 T
(1756294214.318097) can0 101#00DC050000 T
(1756294214.318586) can0 100#0100000000 T
(1756294214.328156) can0 101#00DC050000 T
(1756294214.328829) can0 100#0100000000 T
(1756294214.337758) can0 101#00DC050000 T
(1756294214.338526) can0 100#0100000000 T
(1756294214.347861) can0 101#00DC050000 T
(1756294214.348813) can0 100#0100000000 T
(1756294214.357771) can0 101#00DC050000 T
(1756294214.358622) can0 100#0100000000 T
(1756294214.367995) can0 101#00DC050000 T
(1756294214.369049) can0 100#0100000000 T
(1756294214.377920) can0 101#00DC050000 T
(1756294214.378822) can0 100#0100000000 T
(1756294214.388142) can0 101#00DC050000 T
(1756294214.388984) can0 100#0100000000 T
(1756294214.393407) can0 211#0000000000000000 R
(1756294214.395168) can0 200#00590E910E7B0E R
(1756294214.396028) can0 200#01920E00000000 R
(1756294214.396973) can0 201#622F000000000000 R
(1756294214.398112) can0 202#513A0000A5010000 R
(1756294214.398832) can0 101#00DC050000 T
(1756294214.399745) can0 100#0100000000 T
(1756294214.402700) can0 210#0000000000000000 R
(1756294214.407939) can0 101#00DC050000 T
(1756294214.408822) can0 100#0100000000 T
(1756294214.418104) can0 101#00DC050000 T
(1756294214.418652) can0 100#0100000000 T
(1756294214.423401) can0 204#0000 R
(1756294214.423825) can0 203#971C R
(1756294214.428303) can0 101#00DC050000 T
(1756294214.428668) can0 100#0100000000 T
(1756294214.437857) can0 101#00DC050000 T
(1756294214.438758) can0 100#0100000000 T
(1756294214.447775) can0 101#00DC050000 T
(1756294214.448649) can0 100#0100000000 T
(1756294214.457924) can0 101#00DC050000 T
(1756294214.458936) can0 100#0100000000 T
(1756294214.468279) can0 101#00DC050000 T
(1756294214.468579) can0 100#0100000000 T
(1756294214.478097) can0 101#00DC050000 T
(1756294214.478990) can0 100#0100000000 T
(1756294214.488070) can0 101#00DC050000 T
(1756294214.488975) can0 100#0100000000 T
(1756294214.497877) can0 101#00DC050000 T
(1756294214.498800) can0 100#0100000000 T
(1756294214.508100) can0 101#00DC050000 T
(1756294214.508867) can0 100#0100000000 T
(1756294214.517966) can0 101#00DC050000 T
(1756294214.518833) can0 100#0100000000 T
(1756294214.527866) can0 101#00DC050000 T
(1756294214.528656) can0 100#0100000000 T
(1756294214.537789) can0 101#00DC050000 T
(1756294214.538618) can0 100#0100000000 T
(1756294214.547752) can0 101#00DC050000 T
(1756294214.548652) can0 100#0100000000 T
(1756294214.557799) can0 101#00DC050000 T
(1756294214.558685) can0 100#0100000000 T
(1756294214.568271) can0 101#00DC050000 T
(1756294214.568661) can0 100#0100000000 T
(1756294214.577923) can0 101#00DC050000 T
(1756294214.578788) can0 100#0100000000 T
(1756294214.588146) can0 101#00DC050000 T
(1756294214.588678) can0 100#0100000000 T
(1756294214.593386) can0 211#0000000000000000 R
(1756294214.597906) can0 101#00DC050000 T
(1756294214.598824) can0 200#00500E910E8C0E R
(1756294214.599857) can0 100#0100000000 T
(1756294214.600726) can0 200#019C0E00000000 R
(1756294214.601396) can0 201#292F000000000000 R
(1756294214.602247) can0 202#473A0000A5010000 R
(1756294214.603336) can0 210#0000000000000000 R
(1756294214.607916) can0 101#00DC050000 T
(1756294214.608830) can0 100#0100000000 T
(1756294214.617947) can0 101#00DC050000 T
(1756294214.618957) can0 100#0100000000 T
(1756294214.623180) can0 204#0000 R
(1756294214.623664) can0 203#C01C R
(1756294214.627822) can0 101#00DC050000 T
(1756294214.628807) can0 100#0100000000 T
(1756294214.638144) can0 101#00DC050000 T
(1756294214.638641) can0 100#0100000000 T
(1756294214.648099) can0 101#00DC050000 T
(1756294214.649001) can0 100#0100000000 T
(1756294214.658064) can0 101#00DC050000 T
(1756294214.658987) can0 100#0100000000 T
(1756294214.668115) can0 101#00DC050000 T
(1756294214.668755) can0 100#0100000000 T
(1756294214.678103) can0 101#00DC050000 T
(1756294214.678836) can0 100#0100000000 T
(1756294214.687953) can0 101#00DC050000 T
(1756294214.688860) can0 100#0100000000 T
(1756294214.698061) can0 101#00DC050000 T
(1756294214.698892) can0 100#0100000000 T
(1756294214.707928) can0 101#00DC050000 T
(1756294214.708828) can0 100#0100000000 T
(1756294214.718081) can0 101#00DC050000 T
(1756294214.718939) can0 100#0100000000 T
(1756294214.727940) can0 101#00DC050000 T
(1756294214.728860) can0 100#0100000000 T
(1756294214.737939) can0 101#00DC050000 T
(1756294214.738891) can0 100#0100000000 T
(1756294214.747920) can0 101#00DC050000 T
(1756294214.748814) can0 100#0100000000 T
(1756294214.758003) can0 101#00DC050000 T
(1756294214.758942) can0 100#0100000000 T
(1756294214.768145) can0 101#00DC050000 T
(1756294214.768987) can0 100#0100000000 T
(1756294214.777932) can0 101#00DC050000 T
(1756294214.778650) can0 100#0100000000 T
(1756294214.787926) can0 101#00DC050000 T
(1756294214.788895) can0 100#0100000000 T
(1756294214.793313) can0 211#0000000000000000 R
(1756294214.798110) can0 101#00DC050000 T
(1756294214.798694) can0 100#0100000000 T
(1756294214.800914) can0 200#00620EBF0E760E R
(1756294214.801433) can0 200#01690E00000000 R
(1756294214.802454) can0 201#342F000000000000 R
(1756294214.803432) can0 202#6C3A0000A5010000 R
(1756294214.804374) can0 210#0000000000000000 R
(1756294214.807790) can0 101#00DC050000 T
(1756294214.808714) can0 100#0100000000 T
(1756294214.817963) can0 101#00DC050000 T
(1756294214.818809) can0 100#0100000000 T
(1756294214.823664) can0 204#0000 R
(1756294214.824096) can0 203#061D R
(1756294214.827804) can0 101#00DC050000 T
(1756294214.828607) can0 100#0100000000 T
(1756294214.838101) can0 101#00DC050000 T
(1756294214.838781) can0 100#0100000000 T
(1756294214.847913) can0 101#00DC050000 T
(1756294214.848822) can0 100#0100000000 T
(1756294214.858056) can0 101#00DC050000 T
(1756294214.858762) can0 100#0100000000 T
(1756294214.867721) can0 101#00DC050000 T
(1756294214.868506) can0 100#0100000000 T
(1756294214.877800) can0 101#00DC050000 T
(1756294214.878663) can0 100#0100000000 T
(1756294214.888058) can0 101#00DC050000 T
(1756294214.888796) can0 100#0100000000 T
(1756294214.897929) can0 101#00DC050000 T
(1756294214.898560) can0 100#0100000000 T
(1756294214.907929) can0 101#00DC050000 T
(1756294214.908725) can0 100#0100000000 T
(1756294214.917792) can0 101#00DC050000 T
(1756294214.918709) can0 100#0100000000 T
(1756294214.927859) can0 101#00DC050000 T
(1756294214.928775) can0 100#0100000000 T
(1756294214.938124) can0 101#00DC050000 T
(1756294214.938553) can0 100#0100000000 T
(1756294214.947797) can0 101#00DC050000 T
(1756294214.948573) can0 100#0100000000 T
(1756294214.958136) can0 101#00DC050000 T
(1756294214.958490) can0 100#0100000000 T
(1756294214.968119) can0 101#00DC050000 T
(1756294214.968880) can0 100#0100000000 T
(1756294214.978113) can0 101#00DC050000 T
(1756294214.979014) can0 100#0100000000 T
(1756294214.987843) can0 101#00DC050000 T
(1756294214.988689) can0 100#0100000000 T
(1756294214.993195) can0 211#0000000000000000 R
(1756294214.998275) can0 101#00DC050000 T
(1756294214.998628) can0 100#0100000000 T
(1756294215.002035) can0 200#00590E7F0E850E R
(1756294215.002714) can0 200#019A0E00000000 R
(1756294215.003744) can0 201#292F000000000000 R
(1756294215.004667) can0 202#3E3A0000A5010000 R
(1756294215.005743) can0 210#0000000000000000 R
(1756294215.007847) can0 101#00DC050000 T
(1756294215.008785) can0 100#0100000000 T
(1756294215.018135) can0 101#00DC050000 T
(1756294215.018638) can0 100#0100000000 T
(1756294215.022953) can0 204#0000 R
(1756294215.023482) can0 203#201D R
(1756294215.028013) can0 101#00DC050000 T
(1756294215.028906) can0 100#0100000000 T
(1756294215.038103) can0 101#00DC050000 T
(1756294215.038973) can0 100#0100000000 T
(1756294215.048070) can0 101#00DC050000 T
(1756294215.048996) can0 100#0100000000 T
(1756294215.058116) can0 101#00DC050000 T
(1756294215.058776) can0 100#0100000000 T
(1756294215.068004) can0 101#00DC050000 T
(1756294215.068910) can0 100#0100000000 T
(1756294215.078089) can0 101#00DC050000 T
(1756294215.078980) can0 100#0100000000 T
(1756294215.087873) can0 101#00DC050000 T
(1756294215.088634) can0 100#0100000000 T
(1756294215.097955) can0 101#00DC050000 T
(1756294215.098777) can0 100#0100000000 T
(1756294215.108026) can0 101#00DC050000 T
(1756294215.108693) can0 100#0100000000 T
(1756294215.117869) can0 101#00DC050000 T
(1756294215.118615) can0 100#0100000000 T
(1756294215.127858) can0 101#00DC050000 T
(1756294215.128622) can0 100#0100000000 T
(1756294215.138064) can0 101#00DC050000 T
(1756294215.138815) can0 100#0100000000 T
(1756294215.147959) can0 101#00DC050000 T
(1756294215.148680) can0 100#0100000000 T
(1756294215.157975) can0 101#00DC050000 T
(1756294215.158750) can0 100#0100000000 T
(1756294215.168059) can0 101#00DC050000 T
(1756294215.168745) can0 100#0100000000 T
(1756294215.178068) can0 101#00DC050000 T
(1756294215.178767) can0 100#0100000000 T
(1756294215.188050) can0 101#00DC050000 T
(1756294215.188763) can0 100#0100000000 T
(1756294215.193103) can0 211#0000000000000000 R
(1756294215.198042) can0 101#00DC050000 T
(1756294215.198760) can0 100#0100000000 T
(1756294215.202329) can0 210#0000000000000000 R
(1756294215.203097) can0 200#00470E910E950E R
(1756294215.204009) can0 200#01A60E00000000 R
(1756294215.205074) can0 201#062F000000000000 R
(1756294215.205954) can0 202#353A0000A5010000 R
(1756294215.207767) can0 101#00DC050000 T
(1756294215.208564) can0 100#0100000000 T
(1756294215.217836) can0 101#00DC050000 T
(1756294215.218565) can0 100#0100000000 T
(1756294215.223023) can0 204#0000 R
(1756294215.223492) can0 203#D71C R
(1756294215.227942) can0 101#00DC050000 T
(1756294215.228906) can0 100#0100000000 T
(1756294215.238217) can0 101#00DC050000 T
(1756294215.238621) can0 100#0100000000 T
(1756294215.248123) can0 101#00DC050000 T
(1756294215.248993) can0 100#0100000000 T
(1756294215.258124) can0 101#00DC050000 T
(1756294215.258980) can0 100#0100000000 T
(1756294215.268038) can0 101#00DC050000 T
(1756294215.268916) can0 100#0100000000 T
(1756294215.277877) can0 101#00DC050000 T
(1756294215.278599) can0 100#0100000000 T
(1756294215.288085) can0 101#00DC050000 T
(1756294215.288991) can0 100#0100000000 T
(1756294215.298099) can0 101#00DC050000 T
(1756294215.298611) can0 100#0100000000 T
(1756294215.308090) can0 101#00DC050000 T
(1756294215.308966) can0 100#0100000000 T
(1756294215.318017) can0 101#00DC050000 T
(1756294215.318957) can0 100#0100000000 T
(1756294215.328110) can0 101#00DC050000 T
(1756294215.328988) can0 100#0100000000 T
(1756294215.338066) can0 101#00DC050000 T
(1756294215.338972) can0 100#0100000000 T
(1756294215.348102) can0 101#00DC050000 T
(1756294215.348795) can0 100#0100000000 T
(1756294215.357764) can0 101#00DC050000 T
(1756294215.358643) can0 100#0100000000 T
(1756294215.368061) can0 101#00DC050000 T
(1756294215.368975) can0 100#0100000000 T
(1756294215.377983) can0 101#00DC050000 T
(1756294215.378925) can0 100#0100000000 T
(1756294215.388126) can0 101#00DC050000 T
(1756294215.389053) can0 100#0100000000 T
(1756294215.392866) can0 211#0000000000000000 R
(1756294215.397733) can0 101#00DC050000 T
(1756294215.398541) can0 100#0100000000 T
(1756294215.402603) can0 210#0000000000000000 R
(1756294215.404907) can0 200#00500E9A0EA50E R
(1756294215.405543) can0 200#01840E00000000 R
(1756294215.406446) can0 201#2E2F000000000000 R
(1756294215.407435) can0 202#513A0000F5010000 R
(1756294215.408161) can0 101#00DC050000 T
(1756294215.408899) can0 100#0100000000 T
(1756294215.417891) can0 101#00DC050000 T
(1756294215.418801) can0 100#0100000000 T
(1756294215.422960) can0 204#0000 R
(1756294215.423404) can0 203#971C R
(1756294215.427985) can0 101#00DC050000 T
(1756294215.428633) can0 100#0100000000 T
(1756294215.438255) can0 101#00DC050000 T
(1756294215.438619) can0 100#0100000000 T
(1756294215.447877) can0 101#00DC050000 T
(1756294215.448585) can0 100#0100000000 T
(1756294215.457881) can0 101#00DC050000 T
(1756294215.458727) can0 100#0100000000 T
(1756294215.467872) can0 101#00DC050000 T
(1756294215.468534) can0 100#0100000000 T
(1756294215.477704) can0 101#00DC050000 T
(1756294215.478595) can0 100#0100000000 T
(1756294215.488052) can0 101#00DC050000 T
(1756294215.488754) can0 100#0100000000 T
(1756294215.498134) can0 101#00DC050000 T
(1756294215.498803) can0 100#0100000000 T
(1756294215.508115) can0 101#00DC050000 T
(1756294215.508674) can0 100#0100000000 T
(1756294215.517743) can0 101#00DC050000 T
(1756294215.518658) can0 100#0100000000 T
(1756294215.528053) can0 101#00DC050000 T
(1756294215.528737) can0 100#0100000000 T
(1756294215.537840) can0 101#00DC050000 T
(1756294215.538565) can0 100#0100000000 T
(1756294215.547915) can0 101#00DC050000 T
(1756294215.548732) can0 100#0100000000 T
(1756294215.557898) can0 101#00DC050000 T
(1756294215.558813) can0 100#0100000000 T
(1756294215.567834) can0 101#00DC050000 T
(1756294215.568823) can0 100#0100000000 T
(1756294215.578022) can0 101#00DC050000 T
(1756294215.578664) can0 100#0100000000 T
(1756294215.588059) can0 101#00DC050000 T
(1756294215.588918) can0 100#0100000000 T
(1756294215.592918) can0 211#0000000000000000 R
(1756294215.597939) can0 101#00DC050000 T
(1756294215.598816) can0 100#0100000000 T
(1756294215.602439) can0 210#0000000000000000 R
(1756294215.607756) can0 200#00500E7F0E960E R
(1756294215.608724) can0 101#00DC050000 T
(1756294215.609679) can0 200#01AE0E00000000 R
(1756294215.610057) can0 100#0100000000 T
(1756294215.611158) can0 201#232F000000000000 R
(1756294215.611975) can0 202#353A0000CD010000 R
(1756294215.618067) can0 101#00DC050000 T
(1756294215.618644) can0 100#0100000000 T
(1756294215.623201) can0 204#0000 R
(1756294215.623346) can0 203#C01C R
(1756294215.628113) can0 101#00DC050000 T
(1756294215.628768) can0 100#0100000000 T
(1756294215.638116) can0 101#00DC050000 T
(1756294215.638595) can0 100#0100000000 T
(1756294215.648088) can0 101#00DC050000 T
(1756294215.648781) can0 100#0100000000 T
(1756294215.658099) can0 101#00DC050000 T
(1756294215.658988) can0 100#0100000000 T
(1756294215.668123) can0 101#00DC050000 T
