(1756297975.872292) can0 100#0100000000 R
(1756297975.873034) can0 101#00DC050000 R
(1756297975.874044) can0 211#0000000000000000 R
(1756297975.881096) can0 100#0100000000 R
(1756297975.881784) can0 101#00DC050000 R
(1756297975.882863) can0 210#0000000000000000 R
(1756297975.883664) can0 200#00470E7F0E8D0E R
(1756297975.884560) can0 200#01920E00000000 R
(1756297975.885531) can0 201#622F000000000000 R
(1756297975.886513) can0 202#233A0000CD010000 R
(1756297975.889400) can0 100#0100000000 R
(1756297975.890070) can0 101#00DC050000 R
(1756297975.898099) can0 100#0100000000 R
(1756297975.898823) can0 101#00DC050000 R
(1756297975.903082) can0 204#0000 R
(1756297975.903523) can0 203#BD1C R
(1756297975.906472) can0 100#0100000000 R
(1756297975.907119) can0 101#00DC050000 R
(1756297975.915143) can0 100#0100000000 R
(1756297975.915856) can0 101#00DC050000 R
(1756297975.923468) can0 100#0100000000 R
(1756297975.924156) can0 101#00DC050000 R
(1756297975.932183) can0 100#0100000000 R
(1756297975.932926) can0 101#00DC050000 R
(1756297975.940473) can0 100#0100000000 R
(1756297975.941245) can0 101#00DC050000 R
(1756297975.949254) can0 100#0100000000 R
(1756297975.949993) can0 101#00DC050000 R
(1756297975.957436) can0 100#0100000000 R
(1756297975.958252) can0 101#00DC050000 R
(1756297975.966204) can0 100#0100000000 R
(1756297975.967002) can0 101#00DC050000 R
(1756297975.974533) can0 100#0100000000 R
(1756297975.975253) can0 101#00DC050000 R
(1756297975.983208) can0 100#0100000000 R
(1756297975.983967) can0 101#00DC050000 R
(1756297975.991660) can0 100#0100000000 R
(1756297975.992457) can0 101#00DC050000 R
(1756297976.000286) can0 100#0100000000 R
(1756297976.001041) can0 101#00DC050000 R
(1756297976.008610) can0 100#0100000000 R
(1756297976.009332) can0 101#00DC050000 R
(1756297976.017375) can0 100#0100000000 R
(1756297976.018105) can0 101#00DC050000 R
(1756297976.025553) can0 100#0100000000 R
(1756297976.026377) can0 101#00DC050000 R
(1756297976.034383) can0 100#0100000000 R
(1756297976.035111) can0 101#00DC050000 R
(1756297976.042723) can0 100#0100000000 R
(1756297976.043433) can0 101#00DC050000 R
(1756297976.051390) can0 100#0100000000 R
(1756297976.052152) can0 101#00DC050000 R
(1756297976.059774) can0 100#0100000000 R
(1756297976.060504) can0 101#00DC050000 R
(1756297976.068379) can0 100#0100000000 R
(1756297976.069113) can0 101#00DC050000 R
(1756297976.074011) can0 211#0000000000000000 R
(1756297976.076717) can0 100#0100000000 R
(1756297976.077499) can0 101#00DC050000 R
(1756297976.081993) can0 210#0000000000000000 R
(1756297976.085175) can0 200#002C0E910EA00E R
(1756297976.085903) can0 100#0100000000 R
(1756297976.086674) can0 101#00DC050000 R
(1756297976.087599) can0 200#01A30E00000000 R
(1756297976.088589) can0 201#FB2E000000000000 R
(1756297976.089478) can0 202#083A0000CD010000 R
(1756297976.093654) can0 100#0100000000 R
(1756297976.094468) can0 101#00DC050000 R
(1756297976.102518) can0 100#0100000000 R
(1756297976.103237) can0 101#00DC050000 R
(1756297976.103795) can0 204#0000 R
(1756297976.104397) can0 203#481D R
(1756297976.110742) can0 100#0100000000 R
(1756297976.111500) can0 101#00DC050000 R
(1756297976.119520) can0 100#0100000000 R
(1756297976.120236) can0 101#00DC050000 R
(1756297976.127827) can0 100#0100000000 R
(1756297976.128648) can0 101#00DC050000 R
(1756297976.136521) can0 100#0100000000 R
(1756297976.137208) can0 101#00DC050000 R
(1756297976.144787) can0 100#0100000000 R
(1756297976.145493) can0 101#00DC050000 R
(1756297976.153673) can0 100#0100000000 R
(1756297976.154370) can0 101#00DC050000 R
(1756297976.161945) can0 100#0100000000 R
(1756297976.162622) can0 101#00DC050000 R
(1756297976.170686) can0 100#0100000000 R
(1756297976.171416) can0 101#00DC050000 R
(1756297976.179005) can0 100#0100000000 R
(1756297976.179697) can0 101#00DC050000 R
(1756297976.187731) can0 100#0100000000 R
(1756297976.188462) can0 101#00DC050000 R
(1756297976.195992) can0 100#0100000000 R
(1756297976.196785) can0 101#00DC050000 R
(1756297976.204644) can0 100#0100000000 R
(1756297976.205421) can0 101#00DC050000 R
(1756297976.213048) can0 100#0100000000 R
(1756297976.213754) can0 101#00DC050000 R
(1756297976.221787) can0 100#0100000000 R
(1756297976.222436) can0 101#00DC050000 R
(1756297976.229865) can0 100#0100000000 R
(1756297976.230643) can0 101#00DC050000 R
(1756297976.238679) can0 100#0100000000 R
(1756297976.239515) can0 101#00DC050000 R
(1756297976.247003) can0 100#0100000000 R
(1756297976.247770) can0 101#00DC050000 R
(1756297976.255644) can0 100#0100000000 R
(1756297976.256599) can0 101#00DC050000 R
(1756297976.264139) can0 100#0100000000 R
(1756297976.264797) can0 101#00DC050000 R
(1756297976.272971) can0 100#0100000000 R
(1756297976.273508) can0 101#00DC050000 R
(1756297976.274642) can0 211#0000000000000000 R
(1756297976.281103) can0 100#0100000000 R
(1756297976.281831) can0 101#00DC050000 R
(1756297976.283102) can0 210#0000000000000000 R
(1756297976.287896) can0 200#00470E7F0E850E R
(1756297976.288573) can0 200#019A0E00000000 R
(1756297976.289543) can0 201#2E2F000000000000 R
(1756297976.290471) can0 100#0100000000 R
(1756297976.290983) can0 101#00DC050000 R
(1756297976.291964) can0 202#233A0000CD010000 R
(1756297976.298145) can0 100#0100000000 R
(1756297976.299072) can0 101#00DC050000 R
(1756297976.302991) can0 204#0000 R
(1756297976.303483) can0 203#1D1D R
(1756297976.306878) can0 100#0100000000 R
(1756297976.307494) can0 101#00DC050000 R
(1756297976.315553) can0 100#0100000000 R
(1756297976.315832) can0 101#00DC050000 R
(1756297976.323884) can0 100#0100000000 R
(1756297976.324902) can0 101#00DC050000 R
(1756297976.332461) can0 100#0100000000 R
(1756297976.332977) can0 101#00DC050000 R
(1756297976.341273) can0 100#0100000000 R
(1756297976.341564) can0 101#00DC050000 R
(1756297976.349570) can0 100#0100000000 R
(1756297976.349871) can0 101#00DC050000 R
(1756297976.358005) can0 100#0100000000 R
(1756297976.358657) can0 101#00DC050000 R
(1756297976.366207) can0 100#0100000000 R
(1756297976.366945) can0 101#00DC050000 R
(1756297976.375097) can0 100#0100000000 R
(1756297976.375704) can0 101#00DC050000 R
(1756297976.383497) can0 100#0100000000 R
(1756297976.383999) can0 101#00DC050000 R
(1756297976.392003) can0 100#0100000000 R
(1756297976.393038) can0 101#00DC050000 R
(1756297976.400485) can0 100#0100000000 R
(1756297976.401007) can0 101#00DC050000 R
(1756297976.409109) can0 100#0100000000 R
(1756297976.409762) can0 101#00DC050000 R
(1756297976.417173) can0 100#0100000000 R
(1756297976.417950) can0 101#00DC050000 R
(1756297976.426044) can0 100#0100000000 R
(1756297976.426729) can0 101#00DC050000 R
(1756297976.434287) can0 100#0100000000 R
(1756297976.435062) can0 101#00DC050000 R
(1756297976.442951) can0 100#0100000000 R
(1756297976.443875) can0 101#00DC050000 R
(1756297976.451436) can0 100#0100000000 R
(1756297976.452154) can0 101#00DC050000 R
(1756297976.460115) can0 100#0100000000 R
(1756297976.460861) can0 101#00DC050000 R
(1756297976.468376) can0 100#0100000000 R
(1756297976.469111) can0 101#00DC050000 R
(1756297976.474154) can0 211#0000000000000000 R
(1756297976.477005) can0 100#0100000000 R
(1756297976.477783) can0 101#00DC050000 R
(1756297976.482041) can0 210#0000000000000000 R
(1756297976.485302) can0 100#0100000000 R
(1756297976.486045) can0 101#00DC050000 R
(1756297976.489722) can0 200#00590E7F0E7B0E R
(1756297976.490615) can0 200#01890E00000000 R
(1756297976.491558) can0 201#6D2F000000000000 R
(1756297976.492547) can0 202#353A0000A5010000 R
(1756297976.494040) can0 100#0100000000 R
(1756297976.494787) can0 101#00DC050000 R
(1756297976.502317) can0 100#0100000000 R
(1756297976.503055) can0 101#00DC050000 R
(1756297976.503618) can0 204#0000 R
(1756297976.504148) can0 203#D41C R
(1756297976.511148) can0 100#0100000000 R
(1756297976.511854) can0 101#00DC050000 R
(1756297976.519535) can0 100#0100000000 R
(1756297976.520174) can0 101#00DC050000 R
(1756297976.528202) can0 100#0100000000 R
(1756297976.528872) can0 101#00DC050000 R
(1756297976.536654) can0 100#0100000000 R
(1756297976.537355) can0 101#00DC050000 R
(1756297976.545221) can0 100#0100000000 R
(1756297976.545975) can0 101#00DC050000 R
(1756297976.553529) can0 100#0100000000 R
(1756297976.554243) can0 101#00DC050000 R
(1756297976.562388) can0 100#0100000000 R
(1756297976.562995) can0 101#00DC050000 R
(1756297976.570607) can0 100#0100000000 R
(1756297976.571303) can0 101#00DC050000 R
(1756297976.579338) can0 100#0100000000 R
(1756297976.580027) can0 101#00DC050000 R
(1756297976.587684) can0 100#0100000000 R
(1756297976.588464) can0 101#00DC050000 R
(1756297976.596317) can0 100#0100000000 R
(1756297976.597084) can0 101#00DC050000 R
(1756297976.604599) can0 100#0100000000 R
(1756297976.605359) can0 101#00DC050000 R
(1756297976.613561) can0 100#0100000000 R
(1756297976.614086) can0 101#00DC050000 R
(1756297976.621743) can0 100#0100000000 R
(1756297976.622390) can0 101#00DC050000 R
(1756297976.630368) can0 100#0100000000 R
(1756297976.631122) can0 101#00DC050000 R
(1756297976.638637) can0 100#0100000000 R
(1756297976.639412) can0 101#00DC050000 R
(1756297976.647499) can0 100#0100000000 R
(1756297976.648146) can0 101#00DC050000 R
(1756297976.655774) can0 100#0100000000 R
(1756297976.656403) can0 101#00DC050000 R
(1756297976.664496) can0 100#0100000000 R
(1756297976.665178) can0 101#00DC050000 R
(1756297976.672670) can0 100#0100000000 R
(1756297976.673488) can0 101#00DC050000 R
(1756297976.674478) can0 211#0000000000000000 R
(1756297976.681469) can0 100#0100000000 R
(1756297976.682158) can0 101#00DC050000 R
(1756297976.683193) can0 210#0000000000000000 R
(1756297976.689844) can0 100#0100000000 R
(1756297976.690863) can0 101#00DC050000 R
(1756297976.692099) can0 200#00470E7F0E8D0E R
(1756297976.693033) can0 200#01920E00000000 R
(1756297976.694121) can0 201#2E2F000000000000 R
(1756297976.694859) can0 202#233A0000CD010000 R
(1756297976.698678) can0 100#0100000000 R
(1756297976.699223) can0 101#00DC050000 R
(1756297976.703420) can0 204#0000 R
(1756297976.703769) can0 203#951C R
(1756297976.706895) can0 100#0100000000 R
(1756297976.707781) can0 101#00DC050000 R
(1756297976.715564) can0 100#0100000000 R
(1756297976.716214) can0 101#00DC050000 R
(1756297976.724072) can0 100#0100000000 R
(1756297976.724523) can0 101#00DC050000 R
(1756297976.732918) can0 100#0100000000 R
(1756297976.733215) can0 101#00DC050000 R
(1756297976.741208) can0 100#0100000000 R
(1756297976.741580) can0 101#00DC050000 R
(1756297976.749869) can0 100#0100000000 R
(1756297976.750310) can0 101#00DC050000 R
(1756297976.757996) can0 100#0100000000 R
(1756297976.759028) can0 101#00DC050000 R
(1756297976.766722) can0 100#0100000000 R
(1756297976.767745) can0 101#00DC050000 R
(1756297976.775055) can0 100#0100000000 R
(1756297976.775627) can0 101#00DC050000 R
(1756297976.783620) can0 100#0100000000 R
(1756297976.784756) can0 101#00DC050000 R
(1756297976.792175) can0 100#0100000000 R
(1756297976.792646) can0 101#00DC050000 R
(1756297976.800728) can0 100#0100000000 R
(1756297976.801761) can0 101#00DC050000 R
(1756297976.808994) can0 100#0100000000 R
(1756297976.809676) can0 101#00DC050000 R
(1756297976.818026) can0 100#0100000000 R
(1756297976.818344) can0 101#00DC050000 R
(1756297976.825944) can0 100#0100000000 R
(1756297976.826680) can0 101#00DC050000 R
(1756297976.834889) can0 100#0100000000 R
(1756297976.835459) can0 101#00DC050000 R
(1756297976.842992) can0 100#0100000000 R
(1756297976.843704) can0 101#00DC050000 R
(1756297976.851733) can0 100#0100000000 R
(1756297976.852492) can0 101#00DC050000 R
(1756297976.860024) can0 100#0100000000 R
(1756297976.860711) can0 101#00DC050000 R
(1756297976.868831) can0 100#0100000000 R
(1756297976.869653) can0 101#00DC050000 R
(1756297976.874138) can0 211#0000000000000000 R
(1756297976.877024) can0 100#0100000000 R
(1756297976.877757) can0 101#00DC050000 R
(1756297976.882079) can0 210#0000000000000000 R
(1756297976.885761) can0 100#0100000000 R
(1756297976.886618) can0 101#00DC050000 R
(1756297976.893313) can0 200#003E0E880E9F0E R
(1756297976.894047) can0 100#0100000000 R
(1756297976.894822) can0 101#00DC050000 R
(1756297976.895772) can0 200#01920E00000000 R
(1756297976.896952) can0 201#012F000000000000 R
(1756297976.897742) can0 202#233A0000A5010000 R
(1756297976.902865) can0 100#0100000000 R
(1756297976.903581) can0 101#00DC050000 R
(1756297976.904143) can0 204#0000 R
(1756297976.904917) can0 203#031D R
(1756297976.911350) can0 100#0100000000 R
(1756297976.911747) can0 101#00DC050000 R
(1756297976.919745) can0 100#0100000000 R
(1756297976.920590) can0 101#00DC050000 R
(1756297976.928006) can0 100#0100000000 R
(1756297976.928770) can0 101#00DC050000 R
(1756297976.936784) can0 100#0100000000 R
(1756297976.937566) can0 101#00DC050000 R
(1756297976.945054) can0 100#0100000000 R
(1756297976.945790) can0 101#00DC050000 R
(1756297976.953784) can0 100#0100000000 R
(1756297976.954623) can0 101#00DC050000 R
(1756297976.962104) can0 100#0100000000 R
(1756297976.962850) can0 101#00DC050000 R
(1756297976.970833) can0 100#0100000000 R
(1756297976.971571) can0 101#00DC050000 R
(1756297976.979195) can0 100#0100000000 R
(1756297976.979955) can0 101#00DC050000 R
(1756297976.987840) can0 100#0100000000 R
(1756297976.988605) can0 101#00DC050000 R
(1756297976.996154) can0 100#0100000000 R
(1756297976.996915) can0 101#00DC050000 R
(1756297977.004883) can0 100#0100000000 R
(1756297977.005615) can0 101#00DC050000 R
(1756297977.013244) can0 100#0100000000 R
(1756297977.014007) can0 101#00DC050000 R
(1756297977.021892) can0 100#0100000000 R
(1756297977.022665) can0 101#00DC050000 R
(1756297977.030294) can0 100#0100000000 R
(1756297977.031063) can0 101#00DC050000 R
(1756297977.038936) can0 100#0100000000 R
(1756297977.039666) can0 101#00DC050000 R
(1756297977.047250) can0 100#0100000000 R
(1756297977.047968) can0 101#00DC050000 R
(1756297977.055993) can0 100#0100000000 R
(1756297977.056706) can0 101#00DC050000 R
(1756297977.064256) can0 100#0100000000 R
(1756297977.065018) can0 101#00DC050000 R
(1756297977.072998) can0 100#0100000000 R
(1756297977.073754) can0 101#00DC050000 R
(1756297977.074735) can0 211#0000000000000000 R
(1756297977.081257) can0 100#0100000000 R
(1756297977.082022) can0 101#00DC050000 R
(1756297977.083034) can0 210#0000000000000000 R
(1756297977.090035) can0 100#0100000000 R
(1756297977.090783) can0 101#00DC050000 R
(1756297977.095810) can0 200#00590E7F0E730E R
(1756297977.096684) can0 200#01910E00000000 R
(1756297977.097672) can0 201#1D2F000000000000 R
(1756297977.098532) can0 100#0100000000 R
(1756297977.099171) can0 101#00DC050000 R
(1756297977.100160) can0 202#2C3A0000CD010000 R
(1756297977.102946) can0 204#0000 R
(1756297977.103436) can0 203#481D R
(1756297977.107038) can0 100#0100000000 R
(1756297977.107804) can0 101#00DC050000 R
(1756297977.115351) can0 100#0100000000 R
(1756297977.116093) can0 101#00DC050000 R
(1756297977.124087) can0 100#0100000000 R
(1756297977.124808) can0 101#00DC050000 R
(1756297977.132357) can0 100#0100000000 R
(1756297977.133097) can0 101#00DC050000 R
(1756297977.141092) can0 100#0100000000 R
(1756297977.141855) can0 101#00DC050000 R
(1756297977.149534) can0 100#0100000000 R
(1756297977.150210) can0 101#00DC050000 R
(1756297977.158141) can0 100#0100000000 R
(1756297977.158888) can0 101#00DC050000 R
(1756297977.166415) can0 100#0100000000 R
(1756297977.167164) can0 101#00DC050000 R
(1756297977.175142) can0 100#0100000000 R
(1756297977.175913) can0 101#00DC050000 R
(1756297977.183453) can0 100#0100000000 R
(1756297977.184196) can0 101#00DC050000 R
(1756297977.192194) can0 100#0100000000 R
(1756297977.192954) can0 101#00DC050000 R
(1756297977.200456) can0 100#0100000000 R
(1756297977.201200) can0 101#00DC050000 R
(1756297977.209241) can0 100#0100000000 R
(1756297977.209958) can0 101#00DC050000 R
(1756297977.217548) can0 100#0100000000 R
(1756297977.218275) can0 101#00DC050000 R
(1756297977.226242) can0 100#0100000000 R
(1756297977.226991) can0 101#00DC050000 R
(1756297977.234552) can0 100#0100000000 R
(1756297977.235277) can0 101#00DC050000 R
(1756297977.243290) can0 100#0100000000 R
(1756297977.244008) can0 101#00DC050000 R
(1756297977.251667) can0 100#0100000000 R
(1756297977.252392) can0 101#00DC050000 R
(1756297977.260295) can0 100#0100000000 R
(1756297977.261058) can0 101#00DC050000 R
(1756297977.268563) can0 100#0100000000 R
(1756297977.269365) can0 101#00DC050000 R
(1756297977.274161) can0 211#0000000000000000 R
(1756297977.277335) can0 100#0100000000 R
(1756297977.278073) can0 101#00DC050000 R
(1756297977.282199) can0 210#0000000000000000 R
(1756297977.285671) can0 100#0100000000 R
(1756297977.286356) can0 101#00DC050000 R
(1756297977.294344) can0 100#0100000000 R
(1756297977.295114) can0 101#00DC050000 R
(1756297977.298675) can0 200#003E0E880E7D0E R
(1756297977.299667) can0 200#01A20E00000000 R
(1756297977.300638) can0 201#562F000000000000 R
(1756297977.301562) can0 202#113A0000CD010000 R
(1756297977.302639) can0 100#0100000000 R
(1756297977.303417) can0 101#00DC050000 R
(1756297977.303938) can0 204#0000 R
(1756297977.304437) can0 203#1D1D R
(1756297977.311391) can0 100#0100000000 R
(1756297977.312177) can0 101#00DC050000 R
(1756297977.319680) can0 100#0100000000 R
(1756297977.320406) can0 101#00DC050000 R
(1756297977.328445) can0 100#0100000000 R
(1756297977.329143) can0 101#00DC050000 R
(1756297977.336772) can0 100#0100000000 R
(1756297977.337570) can0 101#00DC050000 R
(1756297977.345448) can0 100#0100000000 R
(1756297977.346196) can0 101#00DC050000 R
(1756297977.353732) can0 100#0100000000 R
(1756297977.354457) can0 101#00DC050000 R
(1756297977.362490) can0 100#0100000000 R
(1756297977.363233) can0 101#00DC050000 R
(1756297977.370734) can0 100#0100000000 R
(1756297977.371506) can0 101#00DC050000 R
(1756297977.379493) can0 100#0100000000 R
(1756297977.380280) can0 101#00DC050000 R
(1756297977.387869) can0 100#0100000000 R
(1756297977.388658) can0 101#00DC050000 R
(1756297977.396583) can0 100#0100000000 R
(1756297977.397260) can0 101#00DC050000 R
(1756297977.404795) can0 100#0100000000 R
(1756297977.405584) can0 101#00DC050000 R
(1756297977.413588) can0 100#0100000000 R
(1756297977.414314) can0 101#00DC050000 R
(1756297977.421838) can0 100#0100000000 R
(1756297977.422666) can0 101#00DC050000 R
(1756297977.430868) can0 100#0100000000 R
(1756297977.431525) can0 101#00DC050000 R
(1756297977.439274) can0 100#0100000000 R
(1756297977.439783) can0 101#00DC050000 R
(1756297977.447642) can0 100#0100000000 R
(1756297977.448559) can0 101#00DC050000 R
(1756297977.455906) can0 100#0100000000 R
(1756297977.456715) can0 101#00DC050000 R
(1756297977.464816) can0 100#0100000000 R
(1756297977.465503) can0 101#00DC050000 R
(1756297977.472997) can0 100#0100000000 R
(1756297977.473673) can0 101#00DC050000 R
(1756297977.474852) can0 211#0000000000000000 R
(1756297977.481881) can0 100#0100000000 R
(1756297977.482868) can0 101#00DC050000 R
(1756297977.483526) can0 210#0000000000000000 R
(1756297977.490083) can0 100#0100000000 R
(1756297977.491063) can0 101#00DC050000 R
(1756297977.498823) can0 100#0100000000 R
(1756297977.499539) can0 101#00DC050000 R
(1756297977.500385) can0 200#00470E7F0E850E R
(1756297977.501298) can0 200#019A0E00000000 R
(1756297977.502252) can0 201#2E2F000000000000 R
(1756297977.503370) can0 202#233A0000A5010000 R
(1756297977.503862) can0 204#0000 R
(1756297977.504778) can0 203#D71C R
(1756297977.507389) can0 100#0100000000 R
(1756297977.507811) can0 101#00DC050000 R
(1756297977.515815) can0 100#0100000000 R
(1756297977.516615) can0 101#00DC050000 R
(1756297977.524219) can0 100#0100000000 R
(1756297977.524858) can0 101#00DC050000 R
(1756297977.533112) can0 100#0100000000 R
(1756297977.533502) can0 101#00DC050000 R
(1756297977.541230) can0 100#0100000000 R
(1756297977.542012) can0 101#00DC050000 R
(1756297977.550016) can0 100#0100000000 R
(1756297977.550742) can0 101#00DC050000 R
(1756297977.558411) can0 100#0100000000 R
(1756297977.558937) can0 101#00DC050000 R
(1756297977.566937) can0 100#0100000000 R
(1756297977.567545) can0 101#00DC050000 R
(1756297977.575106) can0 100#0100000000 R
(1756297977.575858) can0 101#00DC050000 R
(1756297977.583905) can0 100#0100000000 R
(1756297977.584638) can0 101#00DC050000 R
(1756297977.592186) can0 100#0100000000 R
(1756297977.592948) can0 101#00DC050000 R
(1756297977.600910) can0 100#0100000000 R
(1756297977.601709) can0 101#00DC050000 R
(1756297977.609143) can0 100#0100000000 R
(1756297977.609910) can0 101#00DC050000 R
(1756297977.617902) can0 100#0100000000 R
(1756297977.618758) can0 101#00DC050000 R
(1756297977.626144) can0 100#0100000000 R
(1756297977.626952) can0 101#00DC050000 R
(1756297977.634940) can0 100#0100000000 R
(1756297977.635721) can0 101#00DC050000 R
(1756297977.643284) can0 100#0100000000 R
(1756297977.644029) can0 101#00DC050000 R
(1756297977.652353) can0 100#0100000000 R
(1756297977.652790) can0 101#00DC050000 R
(1756297977.660246) can0 100#0100000000 R
(1756297977.661023) can0 101#00DC050000 R
(1756297977.669122) can0 100#0100000000 R
(1756297977.669805) can0 101#00DC050000 R
(1756297977.674251) can0 211#0000000000000000 R
(1756297977.677337) can0 100#0100000000 R
(1756297977.678083) can0 101#00DC050000 R
(1756297977.682406) can0 210#0000000000000000 R
(1756297977.686118) can0 100#0100000000 R
(1756297977.686868) can0 101#00DC050000 R
(1756297977.694366) can0 100#0100000000 R
(1756297977.695042) can0 101#00DC050000 R
(1756297977.701621) can0 200#00500E760E7D0E R
(1756297977.702452) can0 200#01990E00000000 R
(1756297977.703236) can0 100#0100000000 R
(1756297977.704002) can0 101#00DC050000 R
(1756297977.704992) can0 201#122F000000000000 R
(1756297977.705875) can0 202#233A0000CD010000 R
(1756297977.706463) can0 204#0000 R
(1756297977.706977) can0 203#BD1C R
(1756297977.711407) can0 100#0100000000 R
(1756297977.712110) can0 101#00DC050000 R
(1756297977.720266) can0 100#0100000000 R
(1756297977.720972) can0 101#00DC050000 R
(1756297977.728535) can0 100#0100000000 R
(1756297977.729197) can0 101#00DC050000 R
(1756297977.737257) can0 100#0100000000 R
(1756297977.738020) can0 101#00DC050000 R
(1756297977.745512) can0 100#0100000000 R
(1756297977.746167) can0 101#00DC050000 R
(1756297977.754210) can0 100#0100000000 R
(1756297977.754970) can0 101#00DC050000 R
(1756297977.762897) can0 100#0100000000 R
(1756297977.763212) can0 101#00DC050000 R
(1756297977.771280) can0 100#0100000000 R
(1756297977.772051) can0 101#00DC050000 R
(1756297977.780004) can0 100#0100000000 R
(1756297977.780284) can0 101#00DC050000 R
(1756297977.788383) can0 100#0100000000 R
(1756297977.789021) can0 101#00DC050000 R
(1756297977.796586) can0 100#0100000000 R
(1756297977.797424) can0 101#00DC050000 R
(1756297977.805493) can0 100#0100000000 R
(1756297977.806070) can0 101#00DC050000 R
(1756297977.813804) can0 100#0100000000 R
(1756297977.814339) can0 101#00DC050000 R
(1756297977.822353) can0 100#0100000000 R
(1756297977.823342) can0 101#00DC050000 R
(1756297977.830665) can0 100#0100000000 R
(1756297977.831423) can0 101#00DC050000 R
(1756297977.839546) can0 100#0100000000 R
(1756297977.840083) can0 101#00DC050000 R
(1756297977.847672) can0 100#0100000000 R
(1756297977.848419) can0 101#00DC050000 R
(1756297977.856378) can0 100#0100000000 R
(1756297977.857125) can0 101#00DC050000 R
(1756297977.864598) can0 100#0100000000 R
(1756297977.865407) can0 101#00DC050000 R
(1756297977.873611) can0 100#0100000000 R
(1756297977.874169) can0 101#00DC050000 R
(1756297977.875168) can0 211#0000000000000000 R
(1756297977.881699) can0 100#0100000000 R
(1756297977.882536) can0 101#00DC050000 R
(1756297977.883497) can0 210#0000000000000000 R
(1756297977.890526) can0 100#0100000000 R
(1756297977.891194) can0 101#00DC050000 R
(1756297977.898892) can0 100#0100000000 R
(1756297977.899597) can0 101#00DC050000 R
(1756297977.903218) can0 204#0000 R
(1756297977.904112) can0 200#00470E7F0E7D0E R
(1756297977.904975) can0 200#01990E00000000 R
(1756297977.905926) can0 201#512F000000000000 R
(1756297977.906939) can0 202#113A0000A5010000 R
(1756297977.907843) can0 100#0100000000 R
(1756297977.908466) can0 101#00DC050000 R
(1756297977.908927) can0 203#031D R
(1756297977.915820) can0 100#0100000000 R
(1756297977.916498) can0 101#00DC050000 R
(1756297977.924769) can0 100#0100000000 R
(1756297977.925224) can0 101#00DC050000 R
(1756297977.932983) can0 100#0100000000 R
(1756297977.933498) can0 101#00DC050000 R
(1756297977.941669) can0 100#0100000000 R
(1756297977.942266) can0 101#00DC050000 R
(1756297977.950068) can0 100#0100000000 R
(1756297977.950615) can0 101#00DC050000 R
(1756297977.958903) can0 100#0100000000 R
(1756297977.959222) can0 101#00DC050000 R
(1756297977.966954) can0 100#0100000000 R
(1756297977.967592) can0 101#00DC050000 R
(1756297977.975635) can0 100#0100000000 R
(1756297977.976388) can0 101#00DC050000 R
(1756297977.984113) can0 100#0100000000 R
(1756297977.984718) can0 101#00DC050000 R
(1756297977.992960) can0 100#0100000000 R
(1756297977.993316) can0 101#00DC050000 R
(1756297978.000958) can0 100#0100000000 R
(1756297978.001731) can0 101#00DC050000 R
(1756297978.009626) can0 100#0100000000 R
(1756297978.010432) can0 101#00DC050000 R
(1756297978.018136) can0 100#0100000000 R
(1756297978.018671) can0 101#00DC050000 R
(1756297978.026784) can0 100#0100000000 R
(1756297978.027786) can0 101#00DC050000 R
(1756297978.035453) can0 100#0100000000 R
(1756297978.035749) can0 101#00DC050000 R
(1756297978.044014) can0 100#0100000000 R
(1756297978.044438) can0 101#00DC050000 R
(1756297978.052012) can0 100#0100000000 R
(1756297978.052744) can0 101#00DC050000 R
(1756297978.061053) can0 100#0100000000 R
(1756297978.061430) can0 101#00DC050000 R
(1756297978.069051) can0 100#0100000000 R
(1756297978.069731) can0 101#00DC050000 R
(1756297978.074554) can0 211#0000000000000000 R
(1756297978.077741) can0 100#0100000000 R
(1756297978.078399) can0 101#00DC050000 R
(1756297978.082409) can0 210#0000000000000000 R
(1756297978.086157) can0 100#0100000000 R
(1756297978.086895) can0 101#00DC050000 R
(1756297978.094917) can0 100#0100000000 R
(1756297978.095523) can0 101#00DC050000 R
(1756297978.103152) can0 100#0100000000 R
(1756297978.104148) can0 101#00DC050000 R
(1756297978.104356) can0 204#0000 R
(1756297978.105192) can0 203#481D R
(1756297978.105770) can0 200#00500E880E730E R
(1756297978.106840) can0 200#01910E00000000 R
(1756297978.107838) can0 201#342F000000000000 R
(1756297978.108783) can0 202#2C3A0000CD010000 R
(1756297978.111838) can0 100#0100000000 R
(1756297978.112581) can0 101#00DC050000 R
(1756297978.120128) can0 100#0100000000 R
(1756297978.120928) can0 101#00DC050000 R
(1756297978.128893) can0 100#0100000000 R
(1756297978.129886) can0 101#00DC050000 R
(1756297978.137109) can0 100#0100000000 R
(1756297978.137816) can0 101#00DC050000 R
(1756297978.145946) can0 100#0100000000 R
(1756297978.146629) can0 101#00DC050000 R
(1756297978.154140) can0 100#0100000000 R
(1756297978.154884) can0 101#00DC050000 R
(1756297978.162991) can0 100#0100000000 R
(1756297978.163538) can0 101#00DC050000 R
(1756297978.171081) can0 100#0100000000 R
(1756297978.171906) can0 101#00DC050000 R
(1756297978.179941) can0 100#0100000000 R
(1756297978.180594) can0 101#00DC050000 R
(1756297978.188167) can0 100#0100000000 R
(1756297978.188956) can0 101#00DC050000 R
(1756297978.196858) can0 100#0100000000 R
(1756297978.197684) can0 101#00DC050000 R
(1756297978.205250) can0 100#0100000000 R
(1756297978.205871) can0 101#00DC050000 R
(1756297978.214053) can0 100#0100000000 R
(1756297978.214767) can0 101#00DC050000 R
(1756297978.222289) can0 100#0100000000 R
(1756297978.223015) can0 101#00DC050000 R
(1756297978.230917) can0 100#0100000000 R
(1756297978.231755) can0 101#00DC050000 R
(1756297978.239370) can0 100#0100000000 R
(1756297978.239922) can0 101#00DC050000 R
(1756297978.248096) can0 100#0100000000 R
(1756297978.248789) can0 101#00DC050000 R
(1756297978.256325) can0 100#0100000000 R
(1756297978.257032) can0 101#00DC050000 R
(1756297978.265003) can0 100#0100000000 R
(1756297978.265742) can0 101#00DC050000 R
(1756297978.273316) can0 100#0100000000 R
(1756297978.274012) can0 101#00DC050000 R
(1756297978.274986) can0 211#0000000000000000 R
(1756297978.282133) can0 100#0100000000 R
(1756297978.282865) can0 101#00DC050000 R
(1756297978.283893) can0 210#0000000000000000 R
(1756297978.290415) can0 100#0100000000 R
(1756297978.291119) can0 101#00DC050000 R
(1756297978.299120) can0 100#0100000000 R
(1756297978.299979) can0 101#00DC050000 R
(1756297978.303282) can0 204#0000 R
(1756297978.303865) can0 203#D41C R
(1756297978.307348) can0 200#00590E7F0E730E R
(1756297978.308108) can0 100#0100000000 R
(1756297978.308942) can0 101#00DC050000 R
(1756297978.309752) can0 200#01910E00000000 R
(1756297978.310982) can0 201#7E2F000000000000 R
(1756297978.311950) can0 202#2C3A0000A5010000 R
(1756297978.316081) can0 100#0100000000 R
(1756297978.316957) can0 101#00DC050000 R
(1756297978.324775) can0 100#0100000000 R
(1756297978.325105) can0 101#00DC050000 R
(1756297978.333347) can0 100#0100000000 R
(1756297978.333859) can0 101#00DC050000 R
(1756297978.341901) can0 100#0100000000 R
(1756297978.342112) can0 101#00DC050000 R
(1756297978.350419) can0 100#0100000000 R
(1756297978.350968) can0 101#00DC050000 R
(1756297978.358952) can0 100#0100000000 R
(1756297978.359266) can0 101#00DC050000 R
(1756297978.367126) can0 100#0100000000 R
(1756297978.368101) can0 101#00DC050000 R
(1756297978.375590) can0 100#0100000000 R
(1756297978.376196) can0 101#00DC050000 R
(1756297978.384164) can0 100#0100000000 R
(1756297978.384905) can0 101#00DC050000 R
(1756297978.392528) can0 100#0100000000 R
(1756297978.393159) can0 101#00DC050000 R
(1756297978.401175) can0 100#0100000000 R
(1756297978.401958) can0 101#00DC050000 R
(1756297978.409531) can0 100#0100000000 R
(1756297978.410278) can0 101#00DC050000 R
(1756297978.418297) can0 100#0100000000 R
(1756297978.418987) can0 101#00DC050000 R
(1756297978.426699) can0 100#0100000000 R
(1756297978.427354) can0 101#00DC050000 R
(1756297978.435314) can0 100#0100000000 R
(1756297978.436031) can0 101#00DC050000 R
(1756297978.443818) can0 100#0100000000 R
(1756297978.444444) can0 101#00DC050000 R
(1756297978.452480) can0 100#0100000000 R
(1756297978.453084) can0 101#00DC050000 R
(1756297978.460646) can0 100#0100000000 R
(1756297978.461396) can0 101#00DC050000 R
(1756297978.469550) can0 100#0100000000 R
(1756297978.470145) can0 101#00DC050000 R
(1756297978.474628) can0 211#0000000000000000 R
(1756297978.477708) can0 100#0100000000 R
(1756297978.478470) can0 101#00DC050000 R
(1756297978.482493) can0 210#0000000000000000 R
(1756297978.486319) can0 100#0100000000 R
(1756297978.487100) can0 101#00DC050000 R
(1756297978.494870) can0 100#0100000000 R
(1756297978.495515) can0 101#00DC050000 R
(1756297978.503420) can0 100#0100000000 R
(1756297978.504105) can0 101#00DC050000 R
(1756297978.504661) can0 204#0000 R
(1756297978.505182) can0 203#971C R
(1756297978.508655) can0 200#00500E9A0EA50E R
(1756297978.509631) can0 200#015F0E00000000 R
(1756297978.510541) can0 201#952F000000000000 R
(1756297978.511538) can0 202#473A0000A5010000 R
(1756297978.512241) can0 100#0100000000 R
(1756297978.512997) can0 101#00DC050000 R
(1756297978.520501) can0 100#0100000000 R
(1756297978.521201) can0 101#00DC050000 R
(1756297978.528804) can0 100#0100000000 R
(1756297978.529530) can0 101#00DC050000 R
(1756297978.537698) can0 100#0100000000 R
(1756297978.538255) can0 101#00DC050000 R
(1756297978.545796) can0 100#0100000000 R
(1756297978.546556) can0 101#00DC050000 R
(1756297978.554469) can0 100#0100000000 R
(1756297978.555210) can0 101#00DC050000 R
(1756297978.562816) can0 100#0100000000 R
(1756297978.563571) can0 101#00DC050000 R
(1756297978.571818) can0 100#0100000000 R
(1756297978.572272) can0 101#00DC050000 R
(1756297978.579838) can0 100#0100000000 R
(1756297978.580574) can0 101#00DC050000 R
(1756297978.588528) can0 100#0100000000 R
(1756297978.589237) can0 101#00DC050000 R
(1756297978.597065) can0 100#0100000000 R
(1756297978.597717) can0 101#00DC050000 R
(1756297978.605622) can0 100#0100000000 R
(1756297978.606409) can0 101#00DC050000 R
(1756297978.614024) can0 100#0100000000 R
(1756297978.614653) can0 101#00DC050000 R
(1756297978.622539) can0 100#0100000000 R
(1756297978.623276) can0 101#00DC050000 R
(1756297978.630967) can0 100#0100000000 R
(1756297978.631675) can0 101#00DC050000 R
(1756297978.639577) can0 100#0100000000 R
(1756297978.640342) can0 101#00DC050000 R
(1756297978.647845) can0 100#0100000000 R
(1756297978.648603) can0 101#00DC050000 R
(1756297978.656616) can0 100#0100000000 R
(1756297978.657360) can0 101#00DC050000 R
(1756297978.664986) can0 100#0100000000 R
(1756297978.665724) can0 101#00DC050000 R
(1756297978.673830) can0 100#0100000000 R
(1756297978.674845) can0 101#00DC050000 R
(1756297978.675372) can0 211#0000000000000000 R
(1756297978.682384) can0 100#0100000000 R
(1756297978.682642) can0 101#00DC050000 R
(1756297978.683679) can0 210#0000000000000000 R
(1756297978.690679) can0 100#0100000000 R
(1756297978.691425) can0 101#00DC050000 R
(1756297978.699010) can0 100#0100000000 R
(1756297978.699707) can0 101#00DC050000 R
(1756297978.703312) can0 204#0000 R
(1756297978.703850) can0 203#BD1C R
(1756297978.707677) can0 100#0100000000 R
(1756297978.708423) can0 101#00DC050000 R
(1756297978.709858) can0 200#003E0E880E7D0E R
(1756297978.710742) can0 200#01A20E00000000 R
(1756297978.711742) can0 201#232F000000000000 R
(1756297978.712640) can0 202#113A0000CD010000 R
(1756297978.716040) can0 100#0100000000 R
(1756297978.716890) can0 101#00DC050000 R
(1756297978.724871) can0 100#0100000000 R
(1756297978.725559) can0 101#00DC050000 R
(1756297978.733107) can0 100#0100000000 R
(1756297978.733833) can0 101#00DC050000 R
(1756297978.741836) can0 100#0100000000 R
(1756297978.742654) can0 101#00DC050000 R
(1756297978.750286) can0 100#0100000000 R
(1756297978.751018) can0 101#00DC050000 R
(1756297978.758919) can0 100#0100000000 R
(1756297978.759660) can0 101#00DC050000 R
(1756297978.767065) can0 100#0100000000 R
(1756297978.767881) can0 101#00DC050000 R
(1756297978.775956) can0 100#0100000000 R
(1756297978.776691) can0 101#00DC050000 R
(1756297978.784147) can0 100#0100000000 R
(1756297978.784894) can0 101#00DC050000 R
(1756297978.793062) can0 100#0100000000 R
(1756297978.793677) can0 101#00DC050000 R
(1756297978.801244) can0 100#0100000000 R
(1756297978.801983) can0 101#00DC050000 R
(1756297978.809886) can0 100#0100000000 R
(1756297978.810654) can0 101#00DC050000 R
(1756297978.818235) can0 100#0100000000 R
(1756297978.819099) can0 101#00DC050000 R
(1756297978.826885) can0 100#0100000000 R
(1756297978.827808) can0 101#00DC050000 R
(1756297978.835172) can0 100#0100000000 R
(1756297978.835991) can0 101#00DC050000 R
(1756297978.843993) can0 100#0100000000 R
(1756297978.844677) can0 101#00DC050000 R
(1756297978.852272) can0 100#0100000000 R
(1756297978.853089) can0 101#00DC050000 R
(1756297978.861193) can0 100#0100000000 R
(1756297978.861718) can0 101#00DC050000 R
(1756297978.869342) can0 100#0100000000 R
(1756297978.869995) can0 101#00DC050000 R
(1756297978.874923) can0 211#0000000000000000 R
(1756297978.878094) can0 100#0100000000 R
(1756297978.878818) can0 101#00DC050000 R
(1756297978.882628) can0 210#0000000000000000 R
(1756297978.886336) can0 100#0100000000 R
(1756297978.887016) can0 101#00DC050000 R
(1756297978.895128) can0 100#0100000000 R
(1756297978.895860) can0 101#00DC050000 R
(1756297978.903273) can0 100#0100000000 R
(1756297978.904045) can0 101#00DC050000 R
(1756297978.904574) can0 204#0000 R
(1756297978.905088) can0 203#061D R
(1756297978.912137) can0 100#0100000000 R
(1756297978.912805) can0 101#00DC050000 R
(1756297978.913730) can0 200#00470E7F0E850E R
(1756297978.914559) can0 200#01910E00000000 R
(1756297978.915580) can0 201#2E2F000000000000 R
(1756297978.916578) can0 202#233A0000CD010000 R
(1756297978.920701) can0 100#0100000000 R
(1756297978.921589) can0 101#00DC050000 R
(1756297978.929231) can0 100#0100000000 R
(1756297978.929816) can0 101#00DC050000 R
(1756297978.937409) can0 100#0100000000 R
(1756297978.938136) can0 101#00DC050000 R
(1756297978.946177) can0 100#0100000000 R
(1756297978.946860) can0 101#00DC050000 R
(1756297978.954791) can0 100#0100000000 R
(1756297978.955148) can0 101#00DC050000 R
(1756297978.963188) can0 100#0100000000 R
(1756297978.963996) can0 101#00DC050000 R
(1756297978.971393) can0 100#0100000000 R
(1756297978.972208) can0 101#00DC050000 R
(1756297978.980353) can0 100#0100000000 R
(1756297978.981020) can0 101#00DC050000 R
(1756297978.988975) can0 100#0100000000 R
(1756297978.989160) can0 101#00DC050000 R
(1756297978.997253) can0 100#0100000000 R
(1756297978.998099) can0 101#00DC050000 R
(1756297979.005527) can0 100#0100000000 R
(1756297979.006336) can0 101#00DC050000 R
(1756297979.014635) can0 100#0100000000 R
(1756297979.015038) can0 101#00DC050000 R
(1756297979.022811) can0 100#0100000000 R
(1756297979.023285) can0 101#00DC050000 R
(1756297979.031734) can0 100#0100000000 R
(1756297979.032015) can0 101#00DC050000 R
(1756297979.039888) can0 100#0100000000 R
(1756297979.040499) can0 101#00DC050000 R
(1756297979.048280) can0 100#0100000000 R
(1756297979.049041) can0 101#00DC050000 R
(1756297979.056648) can0 100#0100000000 R
(1756297979.057409) can0 101#00DC050000 R
(1756297979.065447) can0 100#0100000000 R
(1756297979.066107) can0 101#00DC050000 R
(1756297979.073722) can0 100#0100000000 R
(1756297979.074439) can0 101#00DC050000 R
(1756297979.075405) can0 211#0000000000000000 R
(1756297979.082497) can0 100#0100000000 R
(1756297979.083138) can0 101#00DC050000 R
(1756297979.084096) can0 210#0000000000000000 R
(1756297979.090690) can0 100#0100000000 R
(1756297979.091476) can0 101#00DC050000 R
(1756297979.099436) can0 100#0100000000 R
(1756297979.100184) can0 101#00DC050000 R
(1756297979.103537) can0 204#0000 R
(1756297979.103939) can0 203#1D1D R
(1756297979.107904) can0 100#0100000000 R
(1756297979.108549) can0 101#00DC050000 R
(1756297979.115916) can0 200#00470E7F0E850E R
(1756297979.116678) can0 100#0100000000 R
(1756297979.117435) can0 101#00DC050000 R
(1756297979.118282) can0 200#019A0E00000000 R
(1756297979.119334) can0 201#122F000000000000 R
(1756297979.120208) can0 202#233A0000A5010000 R
(1756297979.124775) can0 100#0100000000 R
(1756297979.125491) can0 101#00DC050000 R
(1756297979.133612) can0 100#0100000000 R
(1756297979.134268) can0 101#00DC050000 R
(1756297979.141812) can0 100#0100000000 R
(1756297979.142518) can0 101#00DC050000 R
(1756297979.150631) can0 100#0100000000 R
(1756297979.151273) can0 101#00DC050000 R
(1756297979.158868) can0 100#0100000000 R
(1756297979.159795) can0 101#00DC050000 R
(1756297979.167535) can0 100#0100000000 R
(1756297979.168296) can0 101#00DC050000 R
(1756297979.175764) can0 100#0100000000 R
(1756297979.176586) can0 101#00DC050000 R
(1756297979.184598) can0 100#0100000000 R
(1756297979.185334) can0 101#00DC050000 R
(1756297979.192946) can0 100#0100000000 R
(1756297979.193664) can0 101#00DC050000 R
(1756297979.201519) can0 100#0100000000 R
(1756297979.202307) can0 101#00DC050000 R
(1756297979.209911) can0 100#0100000000 R
(1756297979.210637) can0 101#00DC050000 R
(1756297979.218754) can0 100#0100000000 R
(1756297979.219389) can0 101#00DC050000 R
(1756297979.227055) can0 100#0100000000 R
(1756297979.227625) can0 101#00DC050000 R
(1756297979.235756) can0 100#0100000000 R
(1756297979.236416) can0 101#00DC050000 R
(1756297979.243959) can0 100#0100000000 R
(1756297979.244757) can0 101#00DC050000 R
(1756297979.252763) can0 100#0100000000 R
(1756297979.253506) can0 101#00DC050000 R
(1756297979.261379) can0 100#0100000000 R
(1756297979.261657) can0 101#00DC050000 R
(1756297979.269980) can0 100#0100000000 R
(1756297979.270495) can0 101#00DC050000 R
(1756297979.274815) can0 211#0000000000000000 R
(1756297979.278072) can0 100#0100000000 R
(1756297979.278794) can0 101#00DC050000 R
(1756297979.282758) can0 210#0000000000000000 R
(1756297979.286834) can0 100#0100000000 R
(1756297979.287574) can0 101#00DC050000 R
(1756297979.295113) can0 100#0100000000 R
(1756297979.295736) can0 101#00DC050000 R
(1756297979.303542) can0 204#0000 R
(1756297979.304307) can0 100#0100000000 R
(1756297979.305150) can0 101#00DC050000 R
(1756297979.305491) can0 203#D71C R
(1756297979.312149) can0 100#0100000000 R
(1756297979.312954) can0 101#00DC050000 R
(1756297979.318804) can0 200#00500E9A0E7B0E R
(1756297979.319644) can0 200#01770E00000000 R
(1756297979.320745) can0 201#732F000000000000 R
(1756297979.321369) can0 100#0100000000 R
(1756297979.322188) can0 101#00DC050000 R
(1756297979.323078) can0 202#3E3A0000A5010000 R
(1756297979.329165) can0 100#0100000000 R
(1756297979.329947) can0 101#00DC050000 R
(1756297979.337842) can0 100#0100000000 R
(1756297979.338570) can0 101#00DC050000 R
(1756297979.346068) can0 100#0100000000 R
(1756297979.346840) can0 101#00DC050000 R
(1756297979.355221) can0 100#0100000000 R
(1756297979.355656) can0 101#00DC050000 R
(1756297979.363273) can0 100#0100000000 R
(1756297979.363879) can0 101#00DC050000 R
(1756297979.371806) can0 100#0100000000 R
(1756297979.372637) can0 101#00DC050000 R
(1756297979.380306) can0 100#0100000000 R
(1756297979.381015) can0 101#00DC050000 R
(1756297979.389021) can0 100#0100000000 R
(1756297979.389719) can0 101#00DC050000 R
(1756297979.397494) can0 100#0100000000 R
(1756297979.397910) can0 101#00DC050000 R
(1756297979.405888) can0 100#0100000000 R
(1756297979.406582) can0 101#00DC050000 R
(1756297979.414133) can0 100#0100000000 R
(1756297979.414929) can0 101#00DC050000 R
(1756297979.423134) can0 100#0100000000 R
(1756297979.423646) can0 101#00DC050000 R
(1756297979.431227) can0 100#0100000000 R
(1756297979.432256) can0 101#00DC050000 R
(1756297979.439995) can0 100#0100000000 R
(1756297979.440947) can0 101#00DC050000 R
(1756297979.448520) can0 100#0100000000 R
(1756297979.449038) can0 101#00DC050000 R
(1756297979.457411) can0 100#0100000000 R
(1756297979.457726) can0 101#00DC050000 R
(1756297979.465304) can0 100#0100000000 R
(1756297979.466099) can0 101#00DC050000 R
(1756297979.474289) can0 100#0100000000 R
(1756297979.474775) can0 101#00DC050000 R
(1756297979.475787) can0 211#0000000000000000 R
(1756297979.482307) can0 100#0100000000 R
(1756297979.483094) can0 101#00DC050000 R
(1756297979.484019) can0 210#0000000000000000 R
(1756297979.491122) can0 100#0100000000 R
(1756297979.491838) can0 101#00DC050000 R
(1756297979.499271) can0 100#0100000000 R
(1756297979.500090) can0 101#00DC050000 R
(1756297979.503444) can0 204#0000 R
(1756297979.504012) can0 203#971C R
(1756297979.508134) can0 100#0100000000 R
(1756297979.508771) can0 101#00DC050000 R
(1756297979.516354) can0 100#0100000000 R
(1756297979.517203) can0 101#00DC050000 R
(1756297979.520395) can0 200#00470EA30E9D0E R
(1756297979.521358) can0 200#01790E00000000 R
(1756297979.522316) can0 201#292F000000000000 R
(1756297979.523293) can0 202#3E3A0000CD010000 R
(1756297979.525248) can0 100#0100000000 R
(1756297979.525850) can0 101#00DC050000 R
(1756297979.533428) can0 100#0100000000 R
(1756297979.534280) can0 101#00DC050000 R
(1756297979.542209) can0 100#0100000000 R
(1756297979.542855) can0 101#00DC050000 R
(1756297979.550544) can0 100#0100000000 R
(1756297979.551155) can0 101#00DC050000 R
(1756297979.559539) can0 100#0100000000 R
(1756297979.559941) can0 101#00DC050000 R
(1756297979.567519) can0 100#0100000000 R
(1756297979.568156) can0 101#00DC050000 R
(1756297979.576186) can0 100#0100000000 R
(1756297979.576960) can0 101#00DC050000 R
(1756297979.584872) can0 100#0100000000 R
(1756297979.585180) can0 101#00DC050000 R
(1756297979.593366) can0 100#0100000000 R
(1756297979.593954) can0 101#00DC050000 R
(1756297979.601542) can0 100#0100000000 R
(1756297979.602444) can0 101#00DC050000 R
(1756297979.610218) can0 100#0100000000 R
(1756297979.611052) can0 101#00DC050000 R
(1756297979.618765) can0 100#0100000000 R
(1756297979.619488) can0 101#00DC050000 R
(1756297979.627301) can0 100#0100000000 R
(1756297979.628129) can0 101#00DC050000 R
(1756297979.635561) can0 100#0100000000 R
(1756297979.636307) can0 101#00DC050000 R
(1756297979.644654) can0 100#0100000000 R
(1756297979.645017) can0 101#00DC050000 R
(1756297979.652759) can0 100#0100000000 R
(1756297979.653365) can0 101#00DC050000 R
(1756297979.661437) can0 100#0100000000 R
(1756297979.662103) can0 101#00DC050000 R
(1756297979.669886) can0 100#0100000000 R
(1756297979.670388) can0 101#00DC050000 R
(1756297979.674832) can0 211#0000000000000000 R
(1756297979.678563) can0 100#0100000000 R
(1756297979.679187) can0 101#00DC050000 R
(1756297979.683025) can0 210#0000000000000000 R
(1756297979.686886) can0 100#0100000000 R
(1756297979.687894) can0 101#00DC050000 R
(1756297979.695313) can0 100#0100000000 R
(1756297979.696195) can0 101#00DC050000 R
(1756297979.703708) can0 100#0100000000 R
(1756297979.704686) can0 101#00DC050000 R
(1756297979.704931) can0 204#0000 R
(1756297979.705497) can0 203#BD1C R
(1756297979.712387) can0 100#0100000000 R
(1756297979.713135) can0 101#00DC050000 R
(1756297979.720678) can0 100#0100000000 R
(1756297979.721478) can0 101#00DC050000 R
(1756297979.722361) can0 200#00590E880E720E R
(1756297979.723279) can0 200#01810E00000000 R
(1756297979.724220) can0 201#6D2F000000000000 R
(1756297979.725257) can0 202#353A0000A5010000 R
(1756297979.729544) can0 100#0100000000 R
(1756297979.730253) can0 101#00DC050000 R
(1756297979.737910) can0 100#0100000000 R
(1756297979.738865) can0 101#00DC050000 R
(1756297979.746546) can0 100#0100000000 R
(1756297979.747598) can0 101#00DC050000 R
(1756297979.755212) can0 100#0100000000 R
(1756297979.755461) can0 101#00DC050000 R
(1756297979.763914) can0 100#0100000000 R
(1756297979.764227) can0 101#00DC050000 R
(1756297979.771991) can0 100#0100000000 R
(1756297979.772526) can0 101#00DC050000 R
(1756297979.780898) can0 100#0100000000 R
(1756297979.781221) can0 101#00DC050000 R
(1756297979.788960) can0 100#0100000000 R
(1756297979.789756) can0 101#00DC050000 R
(1756297979.797862) can0 100#0100000000 R
(1756297979.798296) can0 101#00DC050000 R
(1756297979.805860) can0 100#0100000000 R
(1756297979.806611) can0 101#00DC050000 R
(1756297979.814627) can0 100#0100000000 R
(1756297979.815312) can0 101#00DC050000 R
(1756297979.822814) can0 100#0100000000 R
(1756297979.823525) can0 101#00DC050000 R
(1756297979.831606) can0 100#0100000000 R
(1756297979.832272) can0 101#00DC050000 R
(1756297979.839825) can0 100#0100000000 R
(1756297979.840705) can0 101#00DC050000 R
(1756297979.848685) can0 100#0100000000 R
(1756297979.849821) can0 101#00DC050000 R
(1756297979.857009) can0 100#0100000000 R
(1756297979.858139) can0 101#00DC050000 R
(1756297979.865754) can0 100#0100000000 R
(1756297979.866453) can0 101#00DC050000 R
(1756297979.874035) can0 100#0100000000 R
(1756297979.875076) can0 101#00DC050000 R
(1756297979.875645) can0 211#0000000000000000 R
(1756297979.882899) can0 210#0000000000000000 R
(1756297979.883691) can0 100#0100000000 R
(1756297979.884430) can0 101#00DC050000 R
(1756297979.891136) can0 100#0100000000 R
(1756297979.891853) can0 101#00DC050000 R
(1756297979.899750) can0 100#0100000000 R
(1756297979.900455) can0 101#00DC050000 R
(1756297979.903792) can0 204#0000 R
(1756297979.904184) can0 203#481D R
(1756297979.908053) can0 100#0100000000 R
(1756297979.909021) can0 101#00DC050000 R
(1756297979.916876) can0 100#0100000000 R
(1756297979.917841) can0 101#00DC050000 R
(1756297979.923101) can0 200#00470E7F0E850E R
(1756297979.924089) can0 200#019A0E00000000 R
(1756297979.924962) can0 201#182F000000000000 R
(1756297979.925746) can0 100#0100000000 R
(1756297979.926523) can0 101#00DC050000 R
(1756297979.927730) can0 202#233A0000CD010000 R
(1756297979.934107) can0 100#0100000000 R
(1756297979.934492) can0 101#00DC050000 R
(1756297979.942364) can0 100#0100000000 R
(1756297979.942823) can0 101#00DC050000 R
(1756297979.950859) can0 100#0100000000 R
(1756297979.951495) can0 101#00DC050000 R
(1756297979.959123) can0 100#0100000000 R
(1756297979.959936) can0 101#00DC050000 R
(1756297979.967887) can0 100#0100000000 R
(1756297979.968601) can0 101#00DC050000 R
(1756297979.976188) can0 100#0100000000 R
(1756297979.977042) can0 101#00DC050000 R
(1756297979.985303) can0 100#0100000000 R
(1756297979.985523) can0 101#00DC050000 R
(1756297979.993305) can0 100#0100000000 R
(1756297979.993892) can0 101#00DC050000 R
(1756297980.001861) can0 100#0100000000 R
(1756297980.002694) can0 101#00DC050000 R
(1756297980.010249) can0 100#0100000000 R
(1756297980.011207) can0 101#00DC050000 R
(1756297980.019022) can0 100#0100000000 R
(1756297980.019597) can0 101#00DC050000 R
(1756297980.027238) can0 100#0100000000 R
(1756297980.027985) can0 101#00DC050000 R
(1756297980.035863) can0 100#0100000000 R
(1756297980.036780) can0 101#00DC050000 R
(1756297980.044316) can0 100#0100000000 R
(1756297980.044935) can0 101#00DC050000 R
(1756297980.053258) can0 100#0100000000 R
(1756297980.053695) can0 101#00DC050000 R
(1756297980.061347) can0 100#0100000000 R
(1756297980.061949) can0 101#00DC050000 R
(1756297980.070022) can0 100#0100000000 R
(1756297980.070773) can0 101#00DC050000 R
(1756297980.074872) can0 211#0000000000000000 R
(1756297980.078377) can0 100#0100000000 R
(1756297980.079074) can0 101#00DC050000 R
(1756297980.083103) can0 210#0000000000000000 R
(1756297980.087133) can0 100#0100000000 R
(1756297980.087799) can0 101#00DC050000 R
(1756297980.095442) can0 100#0100000000 R
(1756297980.096187) can0 101#00DC050000 R
(1756297980.103716) can0 204#0000 R
(1756297980.104467) can0 100#0100000000 R
(1756297980.105230) can0 101#00DC050000 R
(1756297980.105690) can0 203#1D1D R
(1756297980.112531) can0 100#0100000000 R
(1756297980.113267) can0 101#00DC050000 R
(1756297980.121221) can0 100#0100000000 R
(1756297980.121803) can0 101#00DC050000 R
(1756297980.126076) can0 200#00470E7F0E7D0E R
(1756297980.126954) can0 200#01990E00000000 R
(1756297980.127834) can0 201#1D2F000000000000 R
(1756297980.128873) can0 202#113A0000CD010000 R
(1756297980.129564) can0 100#0100000000 R
(1756297980.130297) can0 101#00DC050000 R
(1756297980.138040) can0 100#0100000000 R
(1756297980.138860) can0 101#00DC050000 R
(1756297980.146416) can0 100#0100000000 R
(1756297980.147141) can0 101#00DC050000 R
(1756297980.155340) can0 100#0100000000 R
(1756297980.155946) can0 101#00DC050000 R
(1756297980.163492) can0 100#0100000000 R
(1756297980.164173) can0 101#00DC050000 R
(1756297980.172402) can0 100#0100000000 R
(1756297980.172851) can0 101#00DC050000 R
(1756297980.180504) can0 100#0100000000 R
(1756297980.181233) can0 101#00DC050000 R
(1756297980.189220) can0 100#0100000000 R
(1756297980.189919) can0 101#00DC050000 R
(1756297980.197453) can0 100#0100000000 R
(1756297980.198381) can0 101#00DC050000 R
(1756297980.206221) can0 100#0100000000 R
(1756297980.207011) can0 101#00DC050000 R
(1756297980.214491) can0 100#0100000000 R
(1756297980.215327) can0 101#00DC050000 R
(1756297980.223211) can0 100#0100000000 R
(1756297980.224006) can0 101#00DC050000 R
(1756297980.231569) can0 100#0100000000 R
(1756297980.232352) can0 101#00DC050000 R
(1756297980.240413) can0 100#0100000000 R
(1756297980.240994) can0 101#00DC050000 R
(1756297980.248627) can0 100#0100000000 R
(1756297980.249340) can0 101#00DC050000 R
(1756297980.257301) can0 100#0100000000 R
(1756297980.258022) can0 101#00DC050000 R
(1756297980.265646) can0 100#0100000000 R
(1756297980.266394) can0 101#00DC050000 R
(1756297980.274476) can0 100#0100000000 R
(1756297980.275013) can0 101#00DC050000 R
(1756297980.276167) can0 211#0000000000000000 R
(1756297980.283079) can0 210#0000000000000000 R
(1756297980.283751) can0 100#0100000000 R
(1756297980.284469) can0 101#00DC050000 R
(1756297980.291707) can0 100#0100000000 R
(1756297980.292130) can0 101#00DC050000 R
(1756297980.299898) can0 100#0100000000 R
(1756297980.300442) can0 101#00DC050000 R
(1756297980.303792) can0 204#0000 R
(1756297980.304589) can0 203#D71C R
(1756297980.308790) can0 100#0100000000 R
(1756297980.309135) can0 101#00DC050000 R
(1756297980.316786) can0 100#0100000000 R
(1756297980.317547) can0 101#00DC050000 R
(1756297980.325419) can0 100#0100000000 R
(1756297980.326146) can0 101#00DC050000 R
(1756297980.328325) can0 200#00500E760E7D0E R
(1756297980.329215) can0 200#01A20E00000000 R
(1756297980.330223) can0 201#292F000000000000 R
(1756297980.331233) can0 202#233A0000CD010000 R
(1756297980.333837) can0 100#0100000000 R
(1756297980.334478) can0 101#00DC050000 R
(1756297980.342470) can0 100#0100000000 R
(1756297980.343183) can0 101#00DC050000 R
(1756297980.350844) can0 100#0100000000 R
(1756297980.351573) can0 101#00DC050000 R
(1756297980.359484) can0 100#0100000000 R
(1756297980.360249) can0 101#00DC050000 R
(1756297980.367717) can0 100#0100000000 R
(1756297980.368468) can0 101#00DC050000 R
(1756297980.376740) can0 100#0100000000 R
(1756297980.377670) can0 101#00DC050000 R
(1756297980.384907) can0 100#0100000000 R
(1756297980.385728) can0 101#00DC050000 R
(1756297980.393885) can0 100#0100000000 R
(1756297980.394351) can0 101#00DC050000 R
(1756297980.402064) can0 100#0100000000 R
(1756297980.402741) can0 101#00DC050000 R
(1756297980.411026) can0 100#0100000000 R
(1756297980.411325) can0 101#00DC050000 R
(1756297980.418851) can0 100#0100000000 R
(1756297980.419796) can0 101#00DC050000 R
(1756297980.427632) can0 100#0100000000 R
(1756297980.428373) can0 101#00DC050000 R
(1756297980.435857) can0 100#0100000000 R
(1756297980.436964) can0 101#00DC050000 R
(1756297980.444700) can0 100#0100000000 R
(1756297980.445296) can0 101#00DC050000 R
(1756297980.452936) can0 100#0100000000 R
(1756297980.453835) can0 101#00DC050000 R
(1756297980.461710) can0 100#0100000000 R
(1756297980.462463) can0 101#00DC050000 R
(1756297980.470014) can0 100#0100000000 R
(1756297980.470875) can0 101#00DC050000 R
(1756297980.475310) can0 211#0000000000000000 R
(1756297980.478699) can0 100#0100000000 R
(1756297980.479457) can0 101#00DC050000 R
(1756297980.483338) can0 210#0000000000000000 R
(1756297980.487118) can0 100#0100000000 R
(1756297980.488023) can0 101#00DC050000 R
(1756297980.495763) can0 100#0100000000 R
(1756297980.496496) can0 101#00DC050000 R
(1756297980.504069) can0 100#0100000000 R
(1756297980.504675) can0 101#00DC050000 R
(1756297980.505217) can0 204#0000 R
(1756297980.505755) can0 203#971C R
(1756297980.512695) can0 100#0100000000 R
(1756297980.513450) can0 101#00DC050000 R
(1756297980.521529) can0 100#0100000000 R
(1756297980.521677) can0 101#00DC050000 R
(1756297980.529756) can0 100#0100000000 R
(1756297980.530437) can0 101#00DC050000 R
(1756297980.531480) can0 200#00590E7F0E730E R
(1756297980.532271) can0 200#01910E00000000 R
(1756297980.533276) can0 201#622F000000000000 R
(1756297980.534166) can0 202#2C3A0000A5010000 R
(1756297980.538198) can0 100#0100000000 R
(1756297980.538829) can0 101#00DC050000 R
(1756297980.546713) can0 100#0100000000 R
(1756297980.547495) can0 101#00DC050000 R
(1756297980.555463) can0 100#0100000000 R
(1756297980.555783) can0 101#00DC050000 R
(1756297980.564119) can0 100#0100000000 R
(1756297980.564528) can0 101#00DC050000 R
(1756297980.572277) can0 100#0100000000 R
(1756297980.572879) can0 101#00DC050000 R
(1756297980.580896) can0 100#0100000000 R
(1756297980.581629) can0 101#00DC050000 R
(1756297980.589244) can0 100#0100000000 R
(1756297980.589892) can0 101#00DC050000 R
(1756297980.597947) can0 100#0100000000 R
(1756297980.598878) can0 101#00DC050000 R
(1756297980.606115) can0 100#0100000000 R
(1756297980.606879) can0 101#00DC050000 R
(1756297980.615120) can0 100#0100000000 R
(1756297980.615620) can0 101#00DC050000 R
(1756297980.623216) can0 100#0100000000 R
(1756297980.623970) can0 101#00DC050000 R
(1756297980.631873) can0 100#0100000000 R
(1756297980.632619) can0 101#00DC050000 R
(1756297980.640385) can0 100#0100000000 R
(1756297980.641008) can0 101#00DC050000 R
(1756297980.648902) can0 100#0100000000 R
(1756297980.649742) can0 101#00DC050000 R
(1756297980.657297) can0 100#0100000000 R
(1756297980.658015) can0 101#00DC050000 R
(1756297980.665998) can0 100#0100000000 R
(1756297980.666807) can0 101#00DC050000 R
(1756297980.674262) can0 100#0100000000 R
(1756297980.674993) can0 101#00DC050000 R
(1756297980.676007) can0 211#0000000000000000 R
(1756297980.683059) can0 210#0000000000000000 R
(1756297980.683846) can0 100#0100000000 R
(1756297980.684553) can0 101#00DC050000 R
(1756297980.691355) can0 100#0100000000 R
(1756297980.692027) can0 101#00DC050000 R
(1756297980.700410) can0 100#0100000000 R
(1756297980.700713) can0 101#00DC050000 R
(1756297980.704110) can0 204#0000 R
(1756297980.704308) can0 203#031D R
(1756297980.708491) can0 100#0100000000 R
(1756297980.709175) can0 101#00DC050000 R
(1756297980.717143) can0 100#0100000000 R
(1756297980.717803) can0 101#00DC050000 R
(1756297980.725363) can0 100#0100000000 R
(1756297980.726136) can0 101#00DC050000 R
(1756297980.732437) can0 200#00590E7F0E7B0E R
(1756297980.733021) can0 200#01890E00000000 R
(1756297980.734123) can0 201#7E2F000000000000 R
(1756297980.735052) can0 100#0100000000 R
(1756297980.735617) can0 101#00DC050000 R
(1756297980.736496) can0 202#2C3A0000A5010000 R
(1756297980.742657) can0 100#0100000000 R
(1756297980.743152) can0 101#00DC050000 R
(1756297980.751414) can0 100#0100000000 R
(1756297980.751860) can0 101#00DC050000 R
(1756297980.759766) can0 100#0100000000 R
(1756297980.760277) can0 101#00DC050000 R
(1756297980.768118) can0 100#0100000000 R
(1756297980.768976) can0 101#00DC050000 R
(1756297980.776477) can0 100#0100000000 R
(1756297980.777238) can0 101#00DC050000 R
(1756297980.785218) can0 100#0100000000 R
(1756297980.785969) can0 101#00DC050000 R
(1756297980.793985) can0 100#0100000000 R
(1756297980.794313) can0 101#00DC050000 R
(1756297980.802329) can0 100#0100000000 R
(1756297980.802988) can0 101#00DC050000 R
(1756297980.810634) can0 100#0100000000 R
(1756297980.811295) can0 101#00DC050000 R
(1756297980.819506) can0 100#0100000000 R
(1756297980.819909) can0 101#00DC050000 R
(1756297980.827840) can0 100#0100000000 R
(1756297980.828249) can0 101#00DC050000 R
(1756297980.836256) can0 100#0100000000 R
(1756297980.837115) can0 101#00DC050000 R
(1756297980.844484) can0 100#0100000000 R
(1756297980.845255) can0 101#00DC050000 R
(1756297980.853274) can0 100#0100000000 R
(1756297980.854089) can0 101#00DC050000 R
(1756297980.861931) can0 100#0100000000 R
(1756297980.862366) can0 101#00DC050000 R
(1756297980.870408) can0 100#0100000000 R
(1756297980.871102) can0 101#00DC050000 R
(1756297980.875083) can0 211#0000000000000000 R
(1756297980.878737) can0 100#0100000000 R
(1756297980.879420) can0 101#00DC050000 R
(1756297980.883146) can0 210#0000000000000000 R
(1756297980.887376) can0 100#0100000000 R
(1756297980.888095) can0 101#00DC050000 R
(1756297980.895663) can0 100#0100000000 R
(1756297980.896526) can0 101#00DC050000 R
(1756297980.903914) can0 204#0000 R
(1756297980.904840) can0 100#0100000000 R
(1756297980.905406) can0 101#00DC050000 R
(1756297980.905891) can0 203#481D R
(1756297980.912704) can0 100#0100000000 R
(1756297980.913873) can0 101#00DC050000 R
(1756297980.921315) can0 100#0100000000 R
(1756297980.922110) can0 101#00DC050000 R
(1756297980.929706) can0 100#0100000000 R
(1756297980.930506) can0 101#00DC050000 R
(1756297980.933188) can0 200#00500EA30E8B0E R
(1756297980.934108) can0 200#01670E00000000 R
(1756297980.935125) can0 201#342F000000000000 R
(1756297980.936059) can0 202#473A0000CD010000 R
(1756297980.938612) can0 100#0100000000 R
(1756297980.939246) can0 101#00DC050000 R
(1756297980.946819) can0 100#0100000000 R
(1756297980.947868) can0 101#00DC050000 R
(1756297980.955527) can0 100#0100000000 R
(1756297980.956267) can0 101#00DC050000 R
(1756297980.963898) can0 100#0100000000 R
(1756297980.964487) can0 101#00DC050000 R
(1756297980.972561) can0 100#0100000000 R
(1756297980.973278) can0 101#00DC050000 R
(1756297980.980960) can0 100#0100000000 R
(1756297980.981558) can0 101#00DC050000 R
(1756297980.989995) can0 100#0100000000 R
(1756297980.990245) can0 101#00DC050000 R
(1756297980.997966) can0 100#0100000000 R
(1756297980.998905) can0 101#00DC050000 R
(1756297981.006536) can0 100#0100000000 R
(1756297981.007203) can0 101#00DC050000 R
(1756297981.014869) can0 100#0100000000 R
(1756297981.015571) can0 101#00DC050000 R
(1756297981.023716) can0 100#0100000000 R
(1756297981.024311) can0 101#00DC050000 R
(1756297981.031881) can0 100#0100000000 R
(1756297981.032909) can0 101#00DC050000 R
(1756297981.040649) can0 100#0100000000 R
(1756297981.041671) can0 101#00DC050000 R
(1756297981.048978) can0 100#0100000000 R
(1756297981.049991) can0 101#00DC050000 R
(1756297981.058040) can0 100#0100000000 R
(1756297981.058367) can0 101#00DC050000 R
(1756297981.065914) can0 100#0100000000 R
(1756297981.066772) can0 101#00DC050000 R
(1756297981.074793) can0 100#0100000000 R
(1756297981.075586) can0 101#00DC050000 R
(1756297981.076435) can0 211#0000000000000000 R
(1756297981.083223) can0 210#0000000000000000 R
(1756297981.083976) can0 100#0100000000 R
(1756297981.084637) can0 101#00DC050000 R
(1756297981.091859) can0 100#0100000000 R
(1756297981.092579) can0 101#00DC050000 R
(1756297981.100134) can0 100#0100000000 R
(1756297981.100847) can0 101#00DC050000 R
(1756297981.103908) can0 204#0000 R
(1756297981.104452) can0 203#1D1D R
(1756297981.109024) can0 100#0100000000 R
(1756297981.109501) can0 101#00DC050000 R
(1756297981.117077) can0 100#0100000000 R
(1756297981.118042) can0 101#00DC050000 R
(1756297981.125776) can0 100#0100000000 R
(1756297981.126513) can0 101#00DC050000 R
(1756297981.134122) can0 100#0100000000 R
(1756297981.135047) can0 101#00DC050000 R
(1756297981.135735) can0 200#00470E7F0E7D0E R
(1756297981.136737) can0 200#01990E00000000 R
(1756297981.137806) can0 201#232F000000000000 R
(1756297981.138727) can0 202#113A0000CD010000 R
(1756297981.143033) can0 100#0100000000 R
(1756297981.143563) can0 101#00DC050000 R
(1756297981.151191) can0 100#0100000000 R
(1756297981.151852) can0 101#00DC050000 R
(1756297981.159932) can0 100#0100000000 R
(1756297981.160628) can0 101#00DC050000 R
(1756297981.168098) can0 100#0100000000 R
(1756297981.168955) can0 101#00DC050000 R
(1756297981.176910) can0 100#0100000000 R
(1756297981.177910) can0 101#00DC050000 R
(1756297981.185474) can0 100#0100000000 R
(1756297981.185768) can0 101#00DC050000 R
(1756297981.194103) can0 100#0100000000 R
(1756297981.194612) can0 101#00DC050000 R
(1756297981.202062) can0 100#0100000000 R
(1756297981.202909) can0 101#00DC050000 R
(1756297981.211235) can0 100#0100000000 R
(1756297981.211560) can0 101#00DC050000 R
(1756297981.219295) can0 100#0100000000 R
(1756297981.219909) can0 101#00DC050000 R
(1756297981.228120) can0 100#0100000000 R
(1756297981.228632) can0 101#00DC050000 R
(1756297981.236171) can0 100#0100000000 R
(1756297981.236884) can0 101#00DC050000 R
(1756297981.245037) can0 100#0100000000 R
(1756297981.245604) can0 101#00DC050000 R
(1756297981.253352) can0 100#0100000000 R
(1756297981.253977) can0 101#00DC050000 R
(1756297981.262118) can0 100#0100000000 R
(1756297981.262729) can0 101#00DC050000 R
(1756297981.270196) can0 100#0100000000 R
(1756297981.270934) can0 101#00DC050000 R
(1756297981.275076) can0 211#0000000000000000 R
(1756297981.279038) can0 100#0100000000 R
(1756297981.279697) can0 101#00DC050000 R
(1756297981.283168) can0 210#0000000000000000 R
(1756297981.287308) can0 100#0100000000 R
(1756297981.288093) can0 101#00DC050000 R
(1756297981.296023) can0 100#0100000000 R
(1756297981.296854) can0 101#00DC050000 R
(1756297981.304277) can0 100#0100000000 R
(1756297981.305006) can0 101#00DC050000 R
(1756297981.305503) can0 204#0000 R
(1756297981.306042) can0 203#D71C R
(1756297981.313488) can0 100#0100000000 R
(1756297981.313795) can0 101#00DC050000 R
(1756297981.321465) can0 100#0100000000 R
(1756297981.322081) can0 101#00DC050000 R
(1756297981.330181) can0 100#0100000000 R
(1756297981.330860) can0 101#00DC050000 R
(1756297981.337381) can0 200#003E0E880E7D0E R
(1756297981.338275) can0 200#01A20E00000000 R
(1756297981.339016) can0 100#0100000000 R
(1756297981.339793) can0 101#00DC050000 R
(1756297981.340714) can0 201#0C2F000000000000 R
(1756297981.341869) can0 202#113A0000CD010000 R
(1756297981.347562) can0 100#0100000000 R
(1756297981.347827) can0 101#00DC050000 R
(1756297981.355788) can0 100#0100000000 R
(1756297981.356232) can0 101#00DC050000 R
(1756297981.364531) can0 100#0100000000 R
(1756297981.364905) can0 101#00DC050000 R
(1756297981.372527) can0 100#0100000000 R
(1756297981.373194) can0 101#00DC050000 R
(1756297981.381660) can0 100#0100000000 R
(1756297981.381874) can0 101#00DC050000 R
(1756297981.389521) can0 100#0100000000 R
(1756297981.390196) can0 101#00DC050000 R
(1756297981.398142) can0 100#0100000000 R
(1756297981.398950) can0 101#00DC050000 R
(1756297981.406557) can0 100#0100000000 R
(1756297981.407233) can0 101#00DC050000 R
(1756297981.415508) can0 100#0100000000 R
(1756297981.415986) can0 101#00DC050000 R
(1756297981.423544) can0 100#0100000000 R
(1756297981.424250) can0 101#00DC050000 R
(1756297981.432336) can0 100#0100000000 R
(1756297981.433070) can0 101#00DC050000 R
(1756297981.440677) can0 100#0100000000 R
(1756297981.441334) can0 101#00DC050000 R
(1756297981.449198) can0 100#0100000000 R
(1756297981.449982) can0 101#00DC050000 R
(1756297981.457562) can0 100#0100000000 R
(1756297981.458416) can0 101#00DC050000 R
(1756297981.466348) can0 100#0100000000 R
(1756297981.467085) can0 101#00DC050000 R
(1756297981.474792) can0 100#0100000000 R
(1756297981.475417) can0 101#00DC050000 R
(1756297981.476385) can0 211#0000000000000000 R
(1756297981.483191) can0 210#0000000000000000 R
(1756297981.483932) can0 100#0100000000 R
(1756297981.484664) can0 101#00DC050000 R
(1756297981.491696) can0 100#0100000000 R
(1756297981.492695) can0 101#00DC050000 R
(1756297981.500790) can0 100#0100000000 R
(1756297981.501046) can0 101#00DC050000 R
(1756297981.504018) can0 204#0000 R
(1756297981.504550) can0 203#BD1C R
(1756297981.508620) can0 100#0100000000 R
(1756297981.509406) can0 101#00DC050000 R
(1756297981.517540) can0 100#0100000000 R
(1756297981.518253) can0 101#00DC050000 R
(1756297981.525786) can0 100#0100000000 R
(1756297981.526449) can0 101#00DC050000 R
(1756297981.534437) can0 100#0100000000 R
(1756297981.535142) can0 101#00DC050000 R
(1756297981.538709) can0 200#00500E9A0E730E R
(1756297981.539637) can0 200#017F0E00000000 R
(1756297981.540638) can0 201#A62F000000000000 R
(1756297981.541617) can0 202#3E3A00007D010000 R
(1756297981.542675) can0 100#0100000000 R
(1756297981.543513) can0 101#00DC050000 R
(1756297981.551513) can0 100#0100000000 R
(1756297981.552149) can0 101#00DC050000 R
(1756297981.559764) can0 100#0100000000 R
(1756297981.560509) can0 101#00DC050000 R
(1756297981.568531) can0 100#0100000000 R
(1756297981.569256) can0 101#00DC050000 R
(1756297981.576781) can0 100#0100000000 R
(1756297981.577525) can0 101#00DC050000 R
(1756297981.585544) can0 100#0100000000 R
(1756297981.586208) can0 101#00DC050000 R
(1756297981.593726) can0 100#0100000000 R
(1756297981.594622) can0 101#00DC050000 R
(1756297981.602453) can0 100#0100000000 R
(1756297981.603330) can0 101#00DC050000 R
(1756297981.610911) can0 100#0100000000 R
(1756297981.611695) can0 101#00DC050000 R
(1756297981.619714) can0 100#0100000000 R
(1756297981.620257) can0 101#00DC050000 R
(1756297981.628078) can0 100#0100000000 R
(1756297981.628616) can0 101#00DC050000 R
(1756297981.636888) can0 100#0100000000 R
(1756297981.637454) can0 101#00DC050000 R
(1756297981.644880) can0 100#0100000000 R
(1756297981.645626) can0 101#00DC050000 R
(1756297981.653759) can0 100#0100000000 R
(1756297981.654341) can0 101#00DC050000 R
(1756297981.661939) can0 100#0100000000 R
(1756297981.662883) can0 101#00DC050000 R
(1756297981.670733) can0 100#0100000000 R
(1756297981.671774) can0 101#00DC050000 R
(1756297981.675559) can0 211#0000000000000000 R
(1756297981.679116) can0 100#0100000000 R
(1756297981.679668) can0 101#00DC050000 R
(1756297981.683368) can0 210#0000000000000000 R
(1756297981.687794) can0 100#0100000000 R
(1756297981.688493) can0 101#00DC050000 R
(1756297981.695977) can0 100#0100000000 R
(1756297981.696655) can0 101#00DC050000 R
(1756297981.704147) can0 204#0000 R
(1756297981.704714) can0 100#0100000000 R
(1756297981.705702) can0 101#00DC050000 R
(1756297981.706008) can0 203#031D R
(1756297981.713087) can0 100#0100000000 R
(1756297981.713769) can0 101#00DC050000 R
(1756297981.721964) can0 100#0100000000 R
(1756297981.722520) can0 101#00DC050000 R
(1756297981.730122) can0 100#0100000000 R
(1756297981.730851) can0 101#00DC050000 R
(1756297981.738849) can0 100#0100000000 R
(1756297981.739627) can0 101#00DC050000 R
(1756297981.742029) can0 200#00470E7F0E7D0E R
(1756297981.743042) can0 200#01990E00000000 R
(1756297981.743743) can0 201#1D2F000000000000 R
(1756297981.744736) can0 202#083A0000CD010000 R
(1756297981.747127) can0 100#0100000000 R
(1756297981.748039) can0 101#00DC050000 R
(1756297981.755926) can0 100#0100000000 R
(1756297981.756476) can0 101#00DC050000 R
(1756297981.764148) can0 100#0100000000 R
(1756297981.764827) can0 101#00DC050000 R
(1756297981.772921) can0 100#0100000000 R
(1756297981.773704) can0 101#00DC050000 R
(1756297981.781321) can0 100#0100000000 R
(1756297981.782029) can0 101#00DC050000 R
(1756297981.790254) can0 100#0100000000 R
(1756297981.790656) can0 101#00DC050000 R
(1756297981.798114) can0 100#0100000000 R
(1756297981.798903) can0 101#00DC050000 R
(1756297981.806881) can0 100#0100000000 R
(1756297981.807782) can0 101#00DC050000 R
(1756297981.815179) can0 100#0100000000 R
(1756297981.815999) can0 101#00DC050000 R
(1756297981.824235) can0 100#0100000000 R
(1756297981.824651) can0 101#00DC050000 R
(1756297981.832124) can0 100#0100000000 R
(1756297981.833000) can0 101#00DC050000 R
(1756297981.840831) can0 100#0100000000 R
(1756297981.841636) can0 101#00DC050000 R
(1756297981.849650) can0 100#0100000000 R
(1756297981.849912) can0 101#00DC050000 R
(1756297981.858046) can0 100#0100000000 R
(1756297981.858701) can0 101#00DC050000 R
(1756297981.866207) can0 100#0100000000 R
(1756297981.867012) can0 101#00DC050000 R
(1756297981.874985) can0 100#0100000000 R
(1756297981.875652) can0 101#00DC050000 R
(1756297981.876671) can0 211#0000000000000000 R
(1756297981.883319) can0 210#0000000000000000 R
(1756297981.884018) can0 100#0100000000 R
(1756297981.884853) can0 101#00DC050000 R
(1756297981.892082) can0 100#0100000000 R
(1756297981.892796) can0 101#00DC050000 R
(1756297981.900345) can0 100#0100000000 R
(1756297981.901042) can0 101#00DC050000 R
(1756297981.904364) can0 204#0000 R
(1756297981.904549) can0 203#481D R
(1756297981.909453) can0 100#0100000000 R
(1756297981.909735) can0 101#00DC050000 R
(1756297981.917519) can0 100#0100000000 R
(1756297981.918096) can0 101#00DC050000 R
(1756297981.926065) can0 100#0100000000 R
(1756297981.927071) can0 101#00DC050000 R
(1756297981.934358) can0 100#0100000000 R
(1756297981.935072) can0 101#00DC050000 R
(1756297981.943581) can0 100#0100000000 R
(1756297981.943824) can0 101#00DC050000 R
(1756297981.944850) can0 200#003E0E880E970E R
(1756297981.945754) can0 200#019A0E00000000 R
(1756297981.946807) can0 201#182F000000000000 R
(1756297981.947918) can0 202#233A0000A5010000 R
(1756297981.951377) can0 100#0100000000 R
(1756297981.952137) can0 101#00DC050000 R
(1756297981.960119) can0 100#0100000000 R
(1756297981.960833) can0 101#00DC050000 R
(1756297981.968387) can0 100#0100000000 R
(1756297981.969169) can0 101#00DC050000 R
(1756297981.977613) can0 100#0100000000 R
(1756297981.977844) can0 101#00DC050000 R
(1756297981.985437) can0 100#0100000000 R
(1756297981.986215) can0 101#00DC050000 R
(1756297981.994218) can0 100#0100000000 R
(1756297981.995061) can0 101#00DC050000 R
(1756297982.002628) can0 100#0100000000 R
(1756297982.003232) can0 101#00DC050000 R
(1756297982.011135) can0 100#0100000000 R
(1756297982.011919) can0 101#00DC050000 R
(1756297982.019442) can0 100#0100000000 R
(1756297982.020175) can0 101#00DC050000 R
(1756297982.028213) can0 100#0100000000 R
(1756297982.028911) can0 101#00DC050000 R
(1756297982.036572) can0 100#0100000000 R
(1756297982.037257) can0 101#00DC050000 R
(1756297982.045295) can0 100#0100000000 R
(1756297982.046045) can0 101#00DC050000 R
(1756297982.053890) can0 100#0100000000 R
(1756297982.054314) can0 101#00DC050000 R
(1756297982.062378) can0 100#0100000000 R
(1756297982.063034) can0 101#00DC050000 R
(1756297982.070840) can0 100#0100000000 R
(1756297982.071316) can0 101#00DC050000 R
(1756297982.075237) can0 211#0000000000000000 R
(1756297982.079398) can0 100#0100000000 R
(1756297982.080047) can0 101#00DC050000 R
(1756297982.083407) can0 210#0000000000000000 R
(1756297982.087656) can0 100#0100000000 R
(1756297982.088424) can0 101#00DC050000 R
(1756297982.096394) can0 100#0100000000 R
(1756297982.097103) can0 101#00DC050000 R
(1756297982.104889) can0 100#0100000000 R
(1756297982.105383) can0 101#00DC050000 R
(1756297982.105834) can0 204#0000 R
(1756297982.106468) can0 203#201D R
(1756297982.113847) can0 100#0100000000 R
(1756297982.114098) can0 101#00DC050000 R
(1756297982.121846) can0 100#0100000000 R
(1756297982.122369) can0 101#00DC050000 R
(1756297982.130479) can0 100#0100000000 R
(1756297982.131146) can0 101#00DC050000 R
(1756297982.138784) can0 100#0100000000 R
(1756297982.139385) can0 101#00DC050000 R
(1756297982.146692) can0 200#00500E9A0E730E R
(1756297982.147759) can0 100#0100000000 R
(1756297982.148278) can0 101#00DC050000 R
(1756297982.149123) can0 200#017F0E00000000 R
(1756297982.150165) can0 201#452F000000000000 R
(1756297982.151096) can0 202#3E3A0000CD010000 R
(1756297982.155778) can0 100#0100000000 R
(1756297982.156532) can0 101#00DC050000 R
(1756297982.164909) can0 100#0100000000 R
(1756297982.165164) can0 101#00DC050000 R
(1756297982.172953) can0 100#0100000000 R
(1756297982.173407) can0 101#00DC050000 R
(1756297982.181681) can0 100#0100000000 R
(1756297982.182240) can0 101#00DC050000 R
(1756297982.189892) can0 100#0100000000 R
(1756297982.190905) can0 101#00DC050000 R
(1756297982.198773) can0 100#0100000000 R
(1756297982.199267) can0 101#00DC050000 R
(1756297982.206835) can0 100#0100000000 R
(1756297982.207557) can0 101#00DC050000 R
(1756297982.215593) can0 100#0100000000 R
(1756297982.216291) can0 101#00DC050000 R
(1756297982.223856) can0 100#0100000000 R
(1756297982.224881) can0 101#00DC050000 R
(1756297982.232661) can0 100#0100000000 R
(1756297982.233387) can0 101#00DC050000 R
(1756297982.240885) can0 100#0100000000 R
(1756297982.241889) can0 101#00DC050000 R
(1756297982.249705) can0 100#0100000000 R
(1756297982.250393) can0 101#00DC050000 R
(1756297982.257923) can0 100#0100000000 R
(1756297982.258947) can0 101#00DC050000 R
(1756297982.266980) can0 100#0100000000 R
(1756297982.267385) can0 101#00DC050000 R
(1756297982.275359) can0 100#0100000000 R
(1756297982.275626) can0 101#00DC050000 R
(1756297982.276976) can0 211#0000000000000000 R
(1756297982.283434) can0 210#0000000000000000 R
(1756297982.284137) can0 100#0100000000 R
(1756297982.285056) can0 101#00DC050000 R
(1756297982.292020) can0 100#0100000000 R
(1756297982.292934) can0 101#00DC050000 R
(1756297982.300974) can0 100#0100000000 R
(1756297982.301463) can0 101#00DC050000 R
(1756297982.304128) can0 204#0000 R
(1756297982.304686) can0 203#971C R
(1756297982.309055) can0 100#0100000000 R
(1756297982.309771) can0 101#00DC050000 R
(1756297982.317901) can0 100#0100000000 R
(1756297982.318484) can0 101#00DC050000 R
(1756297982.326021) can0 100#0100000000 R
(1756297982.326982) can0 101#00DC050000 R
(1756297982.334828) can0 100#0100000000 R
(1756297982.335591) can0 101#00DC050000 R
(1756297982.343432) can0 100#0100000000 R
(1756297982.343755) can0 101#00DC050000 R
(1756297982.349918) can0 200#00500E9A0E730E R
(1756297982.350390) can0 200#01880E00000000 R
(1756297982.351378) can0 201#732F000000000000 R
(1756297982.352300) can0 100#0100000000 R
(1756297982.352915) can0 101#00DC050000 R
(1756297982.353847) can0 202#3E3A0000A5010000 R
(1756297982.360126) can0 100#0100000000 R
(1756297982.360802) can0 101#00DC050000 R
(1756297982.369164) can0 100#0100000000 R
(1756297982.369475) can0 101#00DC050000 R
(1756297982.377279) can0 100#0100000000 R
(1756297982.377930) can0 101#00DC050000 R
(1756297982.385922) can0 100#0100000000 R
(1756297982.386651) can0 101#00DC050000 R
(1756297982.394325) can0 100#0100000000 R
(1756297982.394867) can0 101#00DC050000 R
(1756297982.403256) can0 100#0100000000 R
(1756297982.403572) can0 101#00DC050000 R
(1756297982.411288) can0 100#0100000000 R
(1756297982.412053) can0 101#00DC050000 R
(1756297982.420076) can0 100#0100000000 R
(1756297982.420615) can0 101#00DC050000 R
(1756297982.428178) can0 100#0100000000 R
(1756297982.428901) can0 101#00DC050000 R
(1756297982.437127) can0 100#0100000000 R
(1756297982.437709) can0 101#00DC050000 R
(1756297982.445293) can0 100#0100000000 R
(1756297982.445993) can0 101#00DC050000 R
(1756297982.454102) can0 100#0100000000 R
(1756297982.454735) can0 101#00DC050000 R
(1756297982.462143) can0 100#0100000000 R
(1756297982.462948) can0 101#00DC050000 R
(1756297982.470875) can0 100#0100000000 R
(1756297982.471717) can0 101#00DC050000 R
(1756297982.475354) can0 211#0000000000000000 R
(1756297982.479342) can0 100#0100000000 R
(1756297982.480053) can0 101#00DC050000 R
(1756297982.483480) can0 210#0000000000000000 R
(1756297982.488095) can0 100#0100000000 R
(1756297982.489091) can0 101#00DC050000 R
(1756297982.496431) can0 100#0100000000 R
(1756297982.497198) can0 101#00DC050000 R
(1756297982.504165) can0 204#0000 R
(1756297982.504832) can0 203#C01C R
(1756297982.505561) can0 100#0100000000 R
(1756297982.506172) can0 101#00DC050000 R
(1756297982.513281) can0 100#0100000000 R
(1756297982.514033) can0 101#00DC050000 R
(1756297982.522155) can0 100#0100000000 R
(1756297982.522900) can0 101#00DC050000 R
(1756297982.530243) can0 100#0100000000 R
(1756297982.531009) can0 101#00DC050000 R
(1756297982.539234) can0 100#0100000000 R
(1756297982.539931) can0 101#00DC050000 R
(1756297982.547296) can0 100#0100000000 R
(1756297982.548101) can0 101#00DC050000 R
(1756297982.551920) can0 200#00470E7F0E970E R
(1756297982.552620) can0 200#019A0E00000000 R
(1756297982.553645) can0 201#622F000000000000 R
(1756297982.554733) can0 202#233A0000A5010000 R
(1756297982.556065) can0 100#0100000000 R
(1756297982.556890) can0 101#00DC050000 R
(1756297982.564338) can0 100#0100000000 R
(1756297982.565100) can0 101#00DC050000 R
(1756297982.573397) can0 100#0100000000 R
(1756297982.573877) can0 101#00DC050000 R
(1756297982.581429) can0 100#0100000000 R
(1756297982.582210) can0 101#00DC050000 R
(1756297982.590306) can0 100#0100000000 R
(1756297982.590946) can0 101#00DC050000 R
(1756297982.598713) can0 100#0100000000 R
(1756297982.599295) can0 101#00DC050000 R
(1756297982.607133) can0 100#0100000000 R
(1756297982.607868) can0 101#00DC050000 R
(1756297982.615681) can0 100#0100000000 R
(1756297982.616234) can0 101#00DC050000 R
(1756297982.624286) can0 100#0100000000 R
(1756297982.625001) can0 101#00DC050000 R
(1756297982.632773) can0 100#0100000000 R
(1756297982.633236) can0 101#00DC050000 R
(1756297982.641474) can0 100#0100000000 R
(1756297982.642024) can0 101#00DC050000 R
(1756297982.649951) can0 100#0100000000 R
(1756297982.650239) can0 101#00DC050000 R
(1756297982.658591) can0 100#0100000000 R
(1756297982.659029) can0 101#00DC050000 R
(1756297982.666905) can0 100#0100000000 R
(1756297982.667335) can0 101#00DC050000 R
(1756297982.675491) can0 211#0000000000000000 R
(1756297982.676224) can0 100#0100000000 R
(1756297982.676864) can0 101#00DC050000 R
(1756297982.683619) can0 210#0000000000000000 R
(1756297982.684575) can0 100#0100000000 R
(1756297982.685004) can0 101#00DC050000 R
(1756297982.692466) can0 100#0100000000 R
(1756297982.693113) can0 101#00DC050000 R
(1756297982.700907) can0 100#0100000000 R
(1756297982.701361) can0 101#00DC050000 R
(1756297982.704184) can0 204#0000 R
(1756297982.704757) can0 203#061D R
(1756297982.709473) can0 100#0100000000 R
(1756297982.710101) can0 101#00DC050000 R
(1756297982.717886) can0 100#0100000000 R
(1756297982.718443) can0 101#00DC050000 R
(1756297982.726375) can0 100#0100000000 R
(1756297982.727107) can0 101#00DC050000 R
(1756297982.734870) can0 100#0100000000 R
(1756297982.735443) can0 101#00DC050000 R
(1756297982.743650) can0 100#0100000000 R
(1756297982.744189) can0 101#00DC050000 R
(1756297982.751854) can0 100#0100000000 R
(1756297982.752497) can0 101#00DC050000 R
(1756297982.754081) can0 200#00590E910E690E R
(1756297982.754853) can0 200#01890E00000000 R
(1756297982.755778) can0 201#732F000000000000 R
(1756297982.756767) can0 202#353A0000CD010000 R
(1756297982.760592) can0 100#0100000000 R
(1756297982.761220) can0 101#00DC050000 R
(1756297982.768788) can0 100#0100000000 R
(1756297982.769563) can0 101#00DC050000 R
(1756297982.777736) can0 100#0100000000 R
(1756297982.778212) can0 101#00DC050000 R
(1756297982.785780) can0 100#0100000000 R
(1756297982.786551) can0 101#00DC050000 R
(1756297982.794802) can0 100#0100000000 R
(1756297982.795268) can0 101#00DC050000 R
(1756297982.802899) can0 100#0100000000 R
(1756297982.803579) can0 101#00DC050000 R
(1756297982.811997) can0 100#0100000000 R
(1756297982.812284) can0 101#00DC050000 R
(1756297982.819933) can0 100#0100000000 R
(1756297982.820586) can0 101#00DC050000 R
(1756297982.828856) can0 100#0100000000 R
(1756297982.829311) can0 101#00DC050000 R
(1756297982.836942) can0 100#0100000000 R
(1756297982.837924) can0 101#00DC050000 R
(1756297982.845644) can0 100#0100000000 R
(1756297982.846375) can0 101#00DC050000 R
(1756297982.854254) can0 100#0100000000 R
(1756297982.854577) can0 101#00DC050000 R
(1756297982.862837) can0 100#0100000000 R
(1756297982.863275) can0 101#00DC050000 R
(1756297982.870922) can0 100#0100000000 R
(1756297982.871620) can0 101#00DC050000 R
(1756297982.875447) can0 211#0000000000000000 R
(1756297982.879605) can0 100#0100000000 R
(1756297982.880326) can0 101#00DC050000 R
(1756297982.883430) can0 210#0000000000000000 R
(1756297982.888065) can0 100#0100000000 R
(1756297982.889053) can0 101#00DC050000 R
(1756297982.896749) can0 100#0100000000 R
(1756297982.897445) can0 101#00DC050000 R
(1756297982.905053) can0 100#0100000000 R
(1756297982.905747) can0 101#00DC050000 R
(1756297982.906230) can0 204#0000 R
(1756297982.906707) can0 203#481D R
(1756297982.913988) can0 100#0100000000 R
(1756297982.914473) can0 101#00DC050000 R
(1756297982.922234) can0 100#0100000000 R
(1756297982.922650) can0 101#00DC050000 R
(1756297982.930834) can0 100#0100000000 R
(1756297982.931532) can0 101#00DC050000 R
(1756297982.939134) can0 100#0100000000 R
(1756297982.939816) can0 101#00DC050000 R
(1756297982.947992) can0 100#0100000000 R
(1756297982.948481) can0 101#00DC050000 R
(1756297982.955741) can0 200#00470E7F0E7D0E R
(1756297982.956507) can0 100#0100000000 R
(1756297982.957297) can0 101#00DC050000 R
(1756297982.958093) can0 200#01990E00000000 R
(1756297982.959120) can0 201#6D2F000000000000 R
(1756297982.960063) can0 202#113A0000A5010000 R
(1756297982.964730) can0 100#0100000000 R
(1756297982.965584) can0 101#00DC050000 R
(1756297982.973390) can0 100#0100000000 R
(1756297982.973912) can0 101#00DC050000 R
(1756297982.981841) can0 100#0100000000 R
(1756297982.982698) can0 101#00DC050000 R
(1756297982.990100) can0 100#0100000000 R
(1756297982.990838) can0 101#00DC050000 R
(1756297982.999006) can0 100#0100000000 R
(1756297982.999544) can0 101#00DC050000 R
(1756297983.007118) can0 100#0100000000 R
(1756297983.007926) can0 101#00DC050000 R
(1756297983.015936) can0 100#0100000000 R
(1756297983.016657) can0 101#00DC050000 R
(1756297983.024172) can0 100#0100000000 R
(1756297983.024900) can0 101#00DC050000 R
(1756297983.033041) can0 100#0100000000 R
(1756297983.033743) can0 101#00DC050000 R
(1756297983.041289) can0 100#0100000000 R
(1756297983.042023) can0 101#00DC050000 R
(1756297983.050253) can0 100#0100000000 R
(1756297983.050648) can0 101#00DC050000 R
(1756297983.058674) can0 100#0100000000 R
(1756297983.058890) can0 101#00DC050000 R
(1756297983.067076) can0 100#0100000000 R
(1756297983.067787) can0 101#00DC050000 R
(1756297983.075126) can0 100#0100000000 R
(1756297983.075986) can0 101#00DC050000 R
(1756297983.076930) can0 211#0000000000000000 R
(1756297983.083591) can0 210#0000000000000000 R
(1756297983.084413) can0 100#0100000000 R
(1756297983.085094) can0 101#00DC050000 R
(1756297983.092212) can0 100#0100000000 R
(1756297983.092950) can0 101#00DC050000 R
(1756297983.101167) can0 100#0100000000 R
(1756297983.101767) can0 101#00DC050000 R
(1756297983.104338) can0 204#0000 R
(1756297983.104865) can0 203#D71C R
(1756297983.109507) can0 100#0100000000 R
(1756297983.110220) can0 101#00DC050000 R
(1756297983.118136) can0 100#0100000000 R
(1756297983.118912) can0 101#00DC050000 R
(1756297983.126317) can0 100#0100000000 R
(1756297983.127083) can0 101#00DC050000 R
(1756297983.135109) can0 100#0100000000 R
(1756297983.135842) can0 101#00DC050000 R
(1756297983.143281) can0 100#0100000000 R
(1756297983.144018) can0 101#00DC050000 R
(1756297983.152189) can0 100#0100000000 R
(1756297983.152863) can0 101#00DC050000 R
(1756297983.155917) can0 200#00470E7F0E850E R
(1756297983.156970) can0 200#019A0E00000000 R
(1756297983.157896) can0 201#182F000000000000 R
(1756297983.158870) can0 202#233A0000CD010000 R
(1756297983.160311) can0 100#0100000000 R
(1756297983.161112) can0 101#00DC050000 R
(1756297983.169538) can0 100#0100000000 R
(1756297983.169952) can0 101#00DC050000 R
(1756297983.177520) can0 100#0100000000 R
(1756297983.178224) can0 101#00DC050000 R
(1756297983.186076) can0 100#0100000000 R
(1756297983.187255) can0 101#00DC050000 R
(1756297983.194516) can0 100#0100000000 R
(1756297983.195173) can0 101#00DC050000 R
(1756297983.203171) can0 100#0100000000 R
(1756297983.203995) can0 101#00DC050000 R
(1756297983.211684) can0 100#0100000000 R
(1756297983.212199) can0 101#00DC050000 R
(1756297983.220320) can0 100#0100000000 R
(1756297983.221048) can0 101#00DC050000 R
(1756297983.228525) can0 100#0100000000 R
(1756297983.229188) can0 101#00DC050000 R
(1756297983.237225) can0 100#0100000000 R
(1756297983.237897) can0 101#00DC050000 R
(1756297983.245780) can0 100#0100000000 R
(1756297983.246153) can0 101#00DC050000 R
(1756297983.254436) can0 100#0100000000 R
(1756297983.254971) can0 101#00DC050000 R
(1756297983.262437) can0 100#0100000000 R
(1756297983.263193) can0 101#00DC050000 R
(1756297983.271205) can0 100#0100000000 R
(1756297983.271937) can0 101#00DC050000 R
(1756297983.275467) can0 211#0000000000000000 R
(1756297983.279478) can0 100#0100000000 R
(1756297983.280226) can0 101#00DC050000 R
(1756297983.283513) can0 210#0000000000000000 R
(1756297983.288264) can0 100#0100000000 R
(1756297983.288977) can0 101#00DC050000 R
(1756297983.296660) can0 100#0100000000 R
(1756297983.297469) can0 101#00DC050000 R
(1756297983.304411) can0 204#0000 R
(1756297983.304942) can0 203#971C R
(1756297983.305751) can0 100#0100000000 R
(1756297983.306459) can0 101#00DC050000 R
(1756297983.313690) can0 100#0100000000 R
(1756297983.314295) can0 101#00DC050000 R
(1756297983.322364) can0 100#0100000000 R
(1756297983.323112) can0 101#00DC050000 R
(1756297983.330903) can0 100#0100000000 R
(1756297983.331410) can0 101#00DC050000 R
(1756297983.339359) can0 100#0100000000 R
(1756297983.340140) can0 101#00DC050000 R
(1756297983.347967) can0 100#0100000000 R
(1756297983.348433) can0 101#00DC050000 R
(1756297983.356424) can0 100#0100000000 R
(1756297983.357173) can0 101#00DC050000 R
(1756297983.358976) can0 200#00470E7F0E7D0E R
(1756297983.359576) can0 200#01990E00000000 R
(1756297983.360652) can0 201#512F000000000000 R
(1756297983.361616) can0 202#083A0000A5010000 R
(1756297983.365133) can0 100#0100000000 R
(1756297983.365412) can0 101#00DC050000 R
(1756297983.373819) can0 100#0100000000 R
(1756297983.374139) can0 101#00DC050000 R
(1756297983.381832) can0 100#0100000000 R
(1756297983.382539) can0 101#00DC050000 R
(1756297983.390932) can0 100#0100000000 R
(1756297983.391176) can0 101#00DC050000 R
(1756297983.398870) can0 100#0100000000 R
(1756297983.399511) can0 101#00DC050000 R
(1756297983.407566) can0 100#0100000000 R
(1756297983.408285) can0 101#00DC050000 R
(1756297983.415849) can0 100#0100000000 R
(1756297983.416550) can0 101#00DC050000 R
(1756297983.424873) can0 100#0100000000 R
(1756297983.425252) can0 101#00DC050000 R
(1756297983.432988) can0 100#0100000000 R
(1756297983.433611) can0 101#00DC050000 R
(1756297983.441905) can0 100#0100000000 R
(1756297983.442338) can0 101#00DC050000 R
(1756297983.450008) can0 100#0100000000 R
(1756297983.450587) can0 101#00DC050000 R
(1756297983.458883) can0 100#0100000000 R
(1756297983.459347) can0 101#00DC050000 R
(1756297983.467032) can0 100#0100000000 R
(1756297983.467738) can0 101#00DC050000 R
(1756297983.475781) can0 211#0000000000000000 R
(1756297983.476402) can0 100#0100000000 R
(1756297983.477158) can0 101#00DC050000 R
(1756297983.483899) can0 210#0000000000000000 R
(1756297983.484395) can0 100#0100000000 R
(1756297983.485198) can0 101#00DC050000 R
(1756297983.492928) can0 100#0100000000 R
(1756297983.493349) can0 101#00DC050000 R
(1756297983.501027) can0 100#0100000000 R
(1756297983.501698) can0 101#00DC050000 R
(1756297983.504417) can0 204#0000 R
(1756297983.504916) can0 203#BD1C R
(1756297983.509833) can0 100#0100000000 R
(1756297983.510477) can0 101#00DC050000 R
(1756297983.518091) can0 100#0100000000 R
(1756297983.519046) can0 101#00DC050000 R
(1756297983.526896) can0 100#0100000000 R
(1756297983.527494) can0 101#00DC050000 R
(1756297983.535126) can0 100#0100000000 R
(1756297983.535698) can0 101#00DC050000 R
(1756297983.543837) can0 100#0100000000 R
(1756297983.544563) can0 101#00DC050000 R
(1756297983.552290) can0 100#0100000000 R
(1756297983.552793) can0 101#00DC050000 R
(1756297983.561262) can0 200#00590E7F0E730E R
(1756297983.561506) can0 100#0100000000 R
(1756297983.562506) can0 101#00DC050000 R
(1756297983.563265) can0 200#01910E00000000 R
(1756297983.564105) can0 201#342F000000000000 R
(1756297983.565094) can0 202#2C3A0000CD010000 R
(1756297983.569113) can0 100#0100000000 R
(1756297983.569811) can0 101#00DC050000 R
(1756297983.577877) can0 100#0100000000 R
(1756297983.578854) can0 101#00DC050000 R
(1756297983.586076) can0 100#0100000000 R
(1756297983.587054) can0 101#00DC050000 R
(1756297983.595006) can0 100#0100000000 R
(1756297983.595589) can0 101#00DC050000 R
(1756297983.603236) can0 100#0100000000 R
(1756297983.604100) can0 101#00DC050000 R
(1756297983.612199) can0 100#0100000000 R
(1756297983.612567) can0 101#00DC050000 R
(1756297983.620267) can0 100#0100000000 R
(1756297983.621022) can0 101#00DC050000 R
(1756297983.628889) can0 100#0100000000 R
(1756297983.629687) can0 101#00DC050000 R
(1756297983.637219) can0 100#0100000000 R
(1756297983.637931) can0 101#00DC050000 R
(1756297983.645953) can0 100#0100000000 R
(1756297983.646730) can0 101#00DC050000 R
(1756297983.654210) can0 100#0100000000 R
(1756297983.654985) can0 101#00DC050000 R
(1756297983.662955) can0 100#0100000000 R
(1756297983.663803) can0 101#00DC050000 R
(1756297983.671181) can0 100#0100000000 R
(1756297983.672034) can0 101#00DC050000 R
(1756297983.675565) can0 211#0000000000000000 R
(1756297983.680329) can0 100#0100000000 R
(1756297983.680702) can0 101#00DC050000 R
(1756297983.683659) can0 210#0000000000000000 R
(1756297983.688285) can0 100#0100000000 R
(1756297983.689022) can0 101#00DC050000 R
(1756297983.697159) can0 100#0100000000 R
(1756297983.697786) can0 101#00DC050000 R
(1756297983.705166) can0 100#0100000000 R
(1756297983.705944) can0 101#00DC050000 R
(1756297983.706450) can0 204#0000 R
(1756297983.706997) can0 203#031D R
(1756297983.714026) can0 100#0100000000 R
(1756297983.714770) can0 101#00DC050000 R
(1756297983.722274) can0 100#0100000000 R
(1756297983.722988) can0 101#00DC050000 R
(1756297983.731137) can0 100#0100000000 R
(1756297983.732063) can0 101#00DC050000 R
(1756297983.739266) can0 100#0100000000 R
(1756297983.740085) can0 101#00DC050000 R
(1756297983.748189) can0 100#0100000000 R
(1756297983.748912) can0 101#00DC050000 R
(1756297983.756335) can0 100#0100000000 R
(1756297983.757101) can0 101#00DC050000 R
(1756297983.763115) can0 200#00470E7F0E7D0E R
(1756297983.764291) can0 200#01990E00000000 R
(1756297983.764816) can0 201#1D2F000000000000 R
(1756297983.765744) can0 100#0100000000 R
(1756297983.766329) can0 101#00DC050000 R
(1756297983.767417) can0 202#083A0000A5010000 R
(1756297983.773558) can0 100#0100000000 R
(1756297983.774247) can0 101#00DC050000 R
(1756297983.782255) can0 100#0100000000 R
(1756297983.782920) can0 101#00DC050000 R
(1756297983.790350) can0 100#0100000000 R
(1756297983.791125) can0 101#00DC050000 R
(1756297983.799071) can0 100#0100000000 R
(1756297983.799985) can0 101#00DC050000 R
(1756297983.807564) can0 100#0100000000 R
(1756297983.808197) can0 101#00DC050000 R
(1756297983.816141) can0 100#0100000000 R
(1756297983.817031) can0 101#00DC050000 R
(1756297983.824713) can0 100#0100000000 R
(1756297983.825212) can0 101#00DC050000 R
(1756297983.833660) can0 100#0100000000 R
(1756297983.833938) can0 101#00DC050000 R
(1756297983.841544) can0 100#0100000000 R
(1756297983.842260) can0 101#00DC050000 R
(1756297983.850414) can0 100#0100000000 R
(1756297983.851163) can0 101#00DC050000 R
(1756297983.858559) can0 100#0100000000 R
(1756297983.859562) can0 101#00DC050000 R
(1756297983.867432) can0 100#0100000000 R
(1756297983.868193) can0 101#00DC050000 R
(1756297983.875650) can0 211#0000000000000000 R
(1756297983.876441) can0 100#0100000000 R
(1756297983.877179) can0 101#00DC050000 R
(1756297983.883912) can0 210#0000000000000000 R
(1756297983.884600) can0 100#0100000000 R
(1756297983.885286) can0 101#00DC050000 R
(1756297983.892808) can0 100#0100000000 R
(1756297983.893331) can0 101#00DC050000 R
(1756297983.901367) can0 100#0100000000 R
(1756297983.902106) can0 101#00DC050000 R
(1756297983.904871) can0 204#0000 R
(1756297983.905031) can0 203#1D1D R
(1756297983.909659) can0 100#0100000000 R
(1756297983.910363) can0 101#00DC050000 R
(1756297983.918346) can0 100#0100000000 R
(1756297983.919122) can0 101#00DC050000 R
(1756297983.926798) can0 100#0100000000 R
(1756297983.927422) can0 101#00DC050000 R
(1756297983.935456) can0 100#0100000000 R
(1756297983.936077) can0 101#00DC050000 R
(1756297983.943897) can0 100#0100000000 R
(1756297983.944442) can0 101#00DC050000 R
(1756297983.952499) can0 100#0100000000 R
(1756297983.953233) can0 101#00DC050000 R
(1756297983.960852) can0 100#0100000000 R
(1756297983.961471) can0 101#00DC050000 R
(1756297983.965087) can0 200#00470E880E840E R
(1756297983.965827) can0 200#01920E00000000 R
(1756297983.966805) can0 201#5C2F000000000000 R
(1756297983.967761) can0 202#1A3A0000A5010000 R
(1756297983.969459) can0 100#0100000000 R
(1756297983.970163) can0 101#00DC050000 R
(1756297983.977713) can0 100#0100000000 R
(1756297983.978710) can0 101#00DC050000 R
(1756297983.986886) can0 100#0100000000 R
(1756297983.987164) can0 101#00DC050000 R
(1756297983.994760) can0 100#0100000000 R
(1756297983.995542) can0 101#00DC050000 R
(1756297984.003728) can0 100#0100000000 R
(1756297984.004204) can0 101#00DC050000 R
(1756297984.011863) can0 100#0100000000 R
(1756297984.012582) can0 101#00DC050000 R
(1756297984.020964) can0 100#0100000000 R
(1756297984.021226) can0 101#00DC050000 R
(1756297984.028887) can0 100#0100000000 R
(1756297984.029862) can0 101#00DC050000 R
(1756297984.037501) can0 100#0100000000 R
(1756297984.038234) can0 101#00DC050000 R
(1756297984.045848) can0 100#0100000000 R
(1756297984.046499) can0 101#00DC050000 R
(1756297984.054957) can0 100#0100000000 R
(1756297984.055278) can0 101#00DC050000 R
(1756297984.062873) can0 100#0100000000 R
(1756297984.063865) can0 101#00DC050000 R
(1756297984.071815) can0 100#0100000000 R
(1756297984.072335) can0 101#00DC050000 R
(1756297984.075794) can0 211#0000000000000000 R
(1756297984.080010) can0 100#0100000000 R
(1756297984.081045) can0 101#00DC050000 R
(1756297984.083974) can0 210#0000000000000000 R
(1756297984.088709) can0 100#0100000000 R
(1756297984.089742) can0 101#00DC050000 R
(1756297984.097115) can0 100#0100000000 R
(1756297984.097675) can0 101#00DC050000 R
(1756297984.104698) can0 204#0000 R
(1756297984.105131) can0 203#D71C R
(1756297984.105840) can0 100#0100000000 R
(1756297984.106886) can0 101#00DC050000 R
(1756297984.114177) can0 100#0100000000 R
(1756297984.114820) can0 101#00DC050000 R
(1756297984.123078) can0 100#0100000000 R
(1756297984.123372) can0 101#00DC050000 R
(1756297984.131104) can0 100#0100000000 R
(1756297984.131710) can0 101#00DC050000 R
(1756297984.140038) can0 100#0100000000 R
(1756297984.140449) can0 101#00DC050000 R
(1756297984.148009) can0 100#0100000000 R
(1756297984.148776) can0 101#00DC050000 R
(1756297984.156845) can0 100#0100000000 R
(1756297984.157792) can0 101#00DC050000 R
(1756297984.165122) can0 100#0100000000 R
(1756297984.165778) can0 101#00DC050000 R
(1756297984.166882) can0 200#00470E7F0E7D0E R
(1756297984.167866) can0 200#01990E00000000 R
(1756297984.168891) can0 201#2E2F000000000000 R
(1756297984.169918) can0 202#233A0000CD010000 R
(1756297984.173752) can0 100#0100000000 R
(1756297984.174532) can0 101#00DC050000 R
(1756297984.182176) can0 100#0100000000 R
(1756297984.182827) can0 101#00DC050000 R
(1756297984.191158) can0 100#0100000000 R
(1756297984.191542) can0 101#00DC050000 R
(1756297984.199120) can0 100#0100000000 R
(1756297984.200089) can0 101#00DC050000 R
(1756297984.207845) can0 100#0100000000 R
(1756297984.208875) can0 101#00DC050000 R
(1756297984.216099) can0 100#0100000000 R
(1756297984.216773) can0 101#00DC050000 R
(1756297984.224762) can0 100#0100000000 R
(1756297984.225526) can0 101#00DC050000 R
(1756297984.233098) can0 100#0100000000 R
(1756297984.233836) can0 101#00DC050000 R
(1756297984.241965) can0 100#0100000000 R
(1756297984.242667) can0 101#00DC050000 R
(1756297984.250249) can0 100#0100000000 R
(1756297984.250941) can0 101#00DC050000 R
(1756297984.259002) can0 100#0100000000 R
(1756297984.259800) can0 101#00DC050000 R
(1756297984.267276) can0 100#0100000000 R
(1756297984.267993) can0 101#00DC050000 R
(1756297984.275725) can0 211#0000000000000000 R
(1756297984.276571) can0 100#0100000000 R
(1756297984.277285) can0 101#00DC050000 R
(1756297984.283866) can0 210#0000000000000000 R
(1756297984.284597) can0 100#0100000000 R
(1756297984.285410) can0 101#00DC050000 R
(1756297984.293000) can0 100#0100000000 R
(1756297984.293699) can0 101#00DC050000 R
(1756297984.301175) can0 100#0100000000 R
(1756297984.301954) can0 101#00DC050000 R
(1756297984.304552) can0 204#0000 R
(1756297984.305068) can0 203#971C R
(1756297984.310149) can0 100#0100000000 R
(1756297984.310802) can0 101#00DC050000 R
(1756297984.318280) can0 100#0100000000 R
(1756297984.318947) can0 101#00DC050000 R
(1756297984.327146) can0 100#0100000000 R
(1756297984.327708) can0 101#00DC050000 R
(1756297984.335392) can0 100#0100000000 R
(1756297984.336003) can0 101#00DC050000 R
(1756297984.344194) can0 100#0100000000 R
(1756297984.344898) can0 101#00DC050000 R
(1756297984.352353) can0 100#0100000000 R
(1756297984.353018) can0 101#00DC050000 R
(1756297984.361393) can0 100#0100000000 R
(1756297984.361798) can0 101#00DC050000 R
(1756297984.369491) can0 100#0100000000 R
(1756297984.370197) can0 101#00DC050000 R
(1756297984.371012) can0 200#003E0E9A0E9E0E R
(1756297984.372217) can0 200#01780E00000000 R
(1756297984.373107) can0 201#2E2F000000000000 R
(1756297984.373953) can0 202#2C3A0000CD010000 R
(1756297984.378111) can0 100#0100000000 R
(1756297984.379022) can0 101#00DC050000 R
(1756297984.386434) can0 100#0100000000 R
(1756297984.387158) can0 101#00DC050000 R
(1756297984.395612) can0 100#0100000000 R
(1756297984.395810) can0 101#00DC050000 R
(1756297984.403453) can0 100#0100000000 R
(1756297984.404182) can0 101#00DC050000 R
(1756297984.412378) can0 100#0100000000 R
(1756297984.412812) can0 101#00DC050000 R
(1756297984.420399) can0 100#0100000000 R
(1756297984.421169) can0 101#00DC050000 R
(1756297984.429202) can0 100#0100000000 R
(1756297984.429961) can0 101#00DC050000 R
(1756297984.437424) can0 100#0100000000 R
(1756297984.438132) can0 101#00DC050000 R
(1756297984.446197) can0 100#0100000000 R
(1756297984.446943) can0 101#00DC050000 R
