(1755180781.466276) can0 101#00DC050000 R
(1755180781.474190) can0 100#0100000000 R
(1755180781.474938) can0 101#00DC050000 R
(1755180781.482560) can0 100#0100000000 R
(1755180781.483336) can0 101#00DC050000 R
(1755180781.491302) can0 100#0100000000 R
(1755180781.491949) can0 101#00DC050000 R
(1755180781.499595) can0 100#0100000000 R
(1755180781.500234) can0 101#00DC050000 R
(1755180781.508317) can0 100#0100000000 R
(1755180781.509001) can0 101#00DC050000 R
(1755180781.516656) can0 100#0100000000 R
(1755180781.517410) can0 101#00DC050000 R
(1755180781.524302) can0 211#0000000000000000 R
(1755180781.525262) can0 100#0100000000 R
(1755180781.526113) can0 101#00DC050000 R
(1755180781.532480) can0 210#0000000000000000 R
(1755180781.533484) can0 200#00980EE30EE00E R
(1755180781.534190) can0 100#0100000000 R
(1755180781.534940) can0 101#00DC050000 R
(1755180781.535854) can0 200#01E20E00000000 R
(1755180781.536858) can0 201#122F000000000000 R
(1755180781.537842) can0 202#753B0000A5010000 R
(1755180781.542344) can0 100#0100000000 R
(1755180781.543076) can0 101#00DC050000 R
(1755180781.550563) can0 100#0100000000 R
(1755180781.551409) can0 101#00DC050000 R
(1755180781.553078) can0 204#0000 R
(1755180781.553562) can0 203#971C R
(1755180781.559403) can0 100#0100000000 R
(1755180781.560053) can0 101#00DC050000 R
(1755180781.567603) can0 100#0100000000 R
(1755180781.568338) can0 101#00DC050000 R
(1755180781.576398) can0 100#0100000000 R
(1755180781.577047) can0 101#00DC050000 R
(1755180781.584697) can0 100#0100000000 R
(1755180781.585431) can0 101#00DC050000 R
(1755180781.593408) can0 100#0100000000 R
(1755180781.594143) can0 101#00DC050000 R
(1755180781.601637) can0 100#0100000000 R
(1755180781.602415) can0 101#00DC050000 R
(1755180781.610439) can0 100#0100000000 R
(1755180781.611155) can0 101#00DC050000 R
(1755180781.618712) can0 100#0100000000 R
(1755180781.619438) can0 101#00DC050000 R
(1755180781.627441) can0 100#0100000000 R
(1755180781.628159) can0 101#00DC050000 R
(1755180781.635763) can0 100#0100000000 R
(1755180781.636472) can0 101#00DC050000 R
(1755180781.644437) can0 100#0100000000 R
(1755180781.645164) can0 101#00DC050000 R
(1755180781.652868) can0 100#0100000000 R
(1755180781.653473) can0 101#00DC050000 R
(1755180781.661474) can0 100#0100000000 R
(1755180781.662241) can0 101#00DC050000 R
(1755180781.669836) can0 100#0100000000 R
(1755180781.670503) can0 101#00DC050000 R
(1755180781.678515) can0 100#0100000000 R
(1755180781.679229) can0 101#00DC050000 R
(1755180781.686949) can0 100#0100000000 R
(1755180781.687665) can0 101#00DC050000 R
(1755180781.695572) can0 100#0100000000 R
(1755180781.696279) can0 101#00DC050000 R
(1755180781.703947) can0 100#0100000000 R
(1755180781.704603) can0 101#00DC050000 R
(1755180781.712528) can0 100#0100000000 R
(1755180781.713292) can0 101#00DC050000 R
(1755180781.720916) can0 100#0100000000 R
(1755180781.721602) can0 101#00DC050000 R
(1755180781.724188) can0 211#0000000000000000 R
(1755180781.729564) can0 100#0100000000 R
(1755180781.730358) can0 101#00DC050000 R
(1755180781.732520) can0 210#0000000000000000 R
(1755180781.734470) can0 200#00980EE30EE00E R
(1755180781.735408) can0 200#01E20E00000000 R
(1755180781.736317) can0 201#292F000000000000 R
(1755180781.737357) can0 202#753B0000A5010000 R
(1755180781.738060) can0 100#0100000000 R
(1755180781.738875) can0 101#00DC050000 R
(1755180781.746615) can0 100#0100000000 R
(1755180781.747379) can0 101#00DC050000 R
(1755180781.753128) can0 204#0000 R
(1755180781.753627) can0 203#C01C R
(1755180781.754880) can0 100#0100000000 R
(1755180781.755582) can0 101#00DC050000 R
(1755180781.763641) can0 100#0100000000 R
(1755180781.764409) can0 101#00DC050000 R
(1755180781.772051) can0 100#0100000000 R
(1755180781.772761) can0 101#00DC050000 R
(1755180781.780636) can0 100#0100000000 R
(1755180781.781436) can0 101#00DC050000 R
(1755180781.788969) can0 100#0100000000 R
(1755180781.789762) can0 101#00DC050000 R
(1755180781.797629) can0 100#0100000000 R
(1755180781.798397) can0 101#00DC050000 R
(1755180781.805927) can0 100#0100000000 R
(1755180781.806668) can0 101#00DC050000 R
(1755180781.814675) can0 100#0100000000 R
(1755180781.815401) can0 101#00DC050000 R
(1755180781.822968) can0 100#0100000000 R
(1755180781.823751) can0 101#00DC050000 R
(1755180781.831786) can0 100#0100000000 R
(1755180781.832416) can0 101#00DC050000 R
(1755180781.839978) can0 100#0100000000 R
(1755180781.840773) can0 101#00DC050000 R
(1755180781.848851) can0 100#0100000000 R
(1755180781.849472) can0 101#00DC050000 R
(1755180781.857009) can0 100#0100000000 R
(1755180781.857852) can0 101#00DC050000 R
(1755180781.865831) can0 100#0100000000 R
(1755180781.866530) can0 101#00DC050000 R
(1755180781.874001) can0 100#0100000000 R
(1755180781.874946) can0 101#00DC050000 R
(1755180781.882881) can0 100#0100000000 R
(1755180781.883521) can0 101#00DC050000 R
(1755180781.891155) can0 100#0100000000 R
(1755180781.891880) can0 101#00DC050000 R
(1755180781.899910) can0 100#0100000000 R
(1755180781.900616) can0 101#00DC050000 R
(1755180781.908111) can0 100#0100000000 R
(1755180781.908961) can0 101#00DC050000 R
(1755180781.916943) can0 100#0100000000 R
(1755180781.917569) can0 101#00DC050000 R
(1755180781.924254) can0 211#0000000000000000 R
(1755180781.925080) can0 100#0100000000 R
(1755180781.925843) can0 101#00DC050000 R
(1755180781.932430) can0 210#0000000000000000 R
(1755180781.933878) can0 100#0100000000 R
(1755180781.934641) can0 101#00DC050000 R
(1755180781.935468) can0 200#00A10EDA0ECF0E R
(1755180781.936336) can0 200#01EA0E00000000 R
(1755180781.937392) can0 201#5C2F000000000000 R
(1755180781.938277) can0 202#753B0000A5010000 R
(1755180781.942220) can0 100#0100000000 R
(1755180781.942875) can0 101#00DC050000 R
(1755180781.950904) can0 100#0100000000 R
(1755180781.951664) can0 101#00DC050000 R
(1755180781.953907) can0 204#0000 R
(1755180781.954410) can0 203#061D R
(1755180781.959208) can0 100#0100000000 R
(1755180781.959915) can0 101#00DC050000 R
(1755180781.967948) can0 100#0100000000 R
(1755180781.968706) can0 101#00DC050000 R
(1755180781.976344) can0 100#0100000000 R
(1755180781.977012) can0 101#00DC050000 R
(1755180781.984996) can0 100#0100000000 R
(1755180781.985739) can0 101#00DC050000 R
(1755180781.993271) can0 100#0100000000 R
(1755180781.993952) can0 101#00DC050000 R
(1755180782.002034) can0 100#0100000000 R
(1755180782.002735) can0 101#00DC050000 R
(1755180782.010297) can0 100#0100000000 R
(1755180782.011054) can0 101#00DC050000 R
(1755180782.019024) can0 100#0100000000 R
(1755180782.019831) can0 101#00DC050000 R
(1755180782.027281) can0 100#0100000000 R
(1755180782.028011) can0 101#00DC050000 R
(1755180782.036070) can0 100#0100000000 R
(1755180782.036838) can0 101#00DC050000 R
(1755180782.044260) can0 100#0100000000 R
(1755180782.045083) can0 101#00DC050000 R
(1755180782.053038) can0 100#0100000000 R
(1755180782.053832) can0 101#00DC050000 R
(1755180782.061414) can0 100#0100000000 R
(1755180782.062153) can0 101#00DC050000 R
(1755180782.070112) can0 100#0100000000 R
(1755180782.070846) can0 101#00DC050000 R
(1755180782.078404) can0 100#0100000000 R
(1755180782.079247) can0 101#00DC050000 R
(1755180782.087123) can0 100#0100000000 R
(1755180782.087852) can0 101#00DC050000 R
(1755180782.095347) can0 100#0100000000 R
(1755180782.096090) can0 101#00DC050000 R
(1755180782.104142) can0 100#0100000000 R
(1755180782.104848) can0 101#00DC050000 R
(1755180782.112401) can0 100#0100000000 R
(1755180782.113124) can0 101#00DC050000 R
(1755180782.121205) can0 100#0100000000 R
(1755180782.121905) can0 101#00DC050000 R
(1755180782.124195) can0 211#0000000000000000 R
(1755180782.129388) can0 100#0100000000 R
(1755180782.130118) can0 101#00DC050000 R
(1755180782.132436) can0 210#0000000000000000 R
(1755180782.136461) can0 200#00980EE30ED70E R
(1755180782.137335) can0 200#01EB0E00000000 R
(1755180782.138309) can0 201#292F000000000000 R
(1755180782.139097) can0 100#0100000000 R
(1755180782.139914) can0 101#00DC050000 R
(1755180782.140827) can0 202#753B0000A5010000 R
(1755180782.146403) can0 100#0100000000 R
(1755180782.147130) can0 101#00DC050000 R
(1755180782.153082) can0 204#0000 R
(1755180782.153667) can0 203#201D R
(1755180782.155136) can0 100#0100000000 R
(1755180782.155926) can0 101#00DC050000 R
(1755180782.163478) can0 100#0100000000 R
(1755180782.164248) can0 101#00DC050000 R
(1755180782.172165) can0 100#0100000000 R
(1755180782.172995) can0 101#00DC050000 R
(1755180782.180630) can0 100#0100000000 R
(1755180782.181402) can0 101#00DC050000 R
(1755180782.189204) can0 100#0100000000 R
(1755180782.189949) can0 101#00DC050000 R
(1755180782.197613) can0 100#0100000000 R
(1755180782.198393) can0 101#00DC050000 R
(1755180782.206239) can0 100#0100000000 R
(1755180782.206990) can0 101#00DC050000 R
(1755180782.214483) can0 100#0100000000 R
(1755180782.215274) can0 101#00DC050000 R
(1755180782.223260) can0 100#0100000000 R
(1755180782.224064) can0 101#00DC050000 R
(1755180782.231589) can0 100#0100000000 R
(1755180782.232346) can0 101#00DC050000 R
(1755180782.240343) can0 100#0100000000 R
(1755180782.241027) can0 101#00DC050000 R
(1755180782.248600) can0 100#0100000000 R
(1755180782.249282) can0 101#00DC050000 R
(1755180782.257344) can0 100#0100000000 R
(1755180782.258106) can0 101#00DC050000 R
(1755180782.265591) can0 100#0100000000 R
(1755180782.266380) can0 101#00DC050000 R
(1755180782.274366) can0 100#0100000000 R
(1755180782.275109) can0 101#00DC050000 R
(1755180782.282733) can0 100#0100000000 R
(1755180782.283339) can0 101#00DC050000 R
(1755180782.291354) can0 100#0100000000 R
(1755180782.292091) can0 101#00DC050000 R
(1755180782.299680) can0 100#0100000000 R
(1755180782.300428) can0 101#00DC050000 R
(1755180782.308411) can0 100#0100000000 R
(1755180782.309147) can0 101#00DC050000 R
(1755180782.316760) can0 100#0100000000 R
(1755180782.317415) can0 101#00DC050000 R
(1755180782.324287) can0 211#0000000000000000 R
(1755180782.325418) can0 100#0100000000 R
(1755180782.326188) can0 101#00DC050000 R
(1755180782.332524) can0 210#0000000000000000 R
(1755180782.333829) can0 100#0100000000 R
(1755180782.334598) can0 101#00DC050000 R
(1755180782.338904) can0 200#00980EE30EE80E R
(1755180782.339870) can0 200#01DA0E00000000 R
(1755180782.340875) can0 201#732F000000000000 R
(1755180782.341814) can0 202#753B0000A5010000 R
(1755180782.342522) can0 100#0100000000 R
(1755180782.343323) can0 101#00DC050000 R
(1755180782.350819) can0 100#0100000000 R
(1755180782.351441) can0 101#00DC050000 R
(1755180782.353126) can0 204#0000 R
(1755180782.353569) can0 203#D71C R
(1755180782.359480) can0 100#0100000000 R
(1755180782.360223) can0 101#00DC050000 R
(1755180782.367829) can0 100#0100000000 R
(1755180782.368524) can0 101#00DC050000 R
(1755180782.376478) can0 100#0100000000 R
(1755180782.377226) can0 101#00DC050000 R
(1755180782.384760) can0 100#0100000000 R
(1755180782.385515) can0 101#00DC050000 R
(1755180782.393596) can0 100#0100000000 R
(1755180782.394282) can0 101#00DC050000 R
(1755180782.401857) can0 100#0100000000 R
(1755180782.402525) can0 101#00DC050000 R
(1755180782.410504) can0 100#0100000000 R
(1755180782.411271) can0 101#00DC050000 R
(1755180782.418899) can0 100#0100000000 R
(1755180782.419602) can0 101#00DC050000 R
(1755180782.427571) can0 100#0100000000 R
(1755180782.428337) can0 101#00DC050000 R
(1755180782.435936) can0 100#0100000000 R
(1755180782.436661) can0 101#00DC050000 R
(1755180782.444554) can0 100#0100000000 R
(1755180782.445327) can0 101#00DC050000 R
(1755180782.452949) can0 100#0100000000 R
(1755180782.453594) can0 101#00DC050000 R
(1755180782.461614) can0 100#0100000000 R
(1755180782.462404) can0 101#00DC050000 R
(1755180782.469942) can0 100#0100000000 R
(1755180782.470685) can0 101#00DC050000 R
(1755180782.478676) can0 100#0100000000 R
(1755180782.479348) can0 101#00DC050000 R
(1755180782.486974) can0 100#0100000000 R
(1755180782.487737) can0 101#00DC050000 R
(1755180782.495716) can0 100#0100000000 R
(1755180782.496474) can0 101#00DC050000 R
(1755180782.503924) can0 100#0100000000 R
(1755180782.504685) can0 101#00DC050000 R
(1755180782.512667) can0 100#0100000000 R
(1755180782.513378) can0 101#00DC050000 R
(1755180782.521034) can0 100#0100000000 R
(1755180782.521752) can0 101#00DC050000 R
(1755180782.524226) can0 211#0000000000000000 R
(1755180782.529768) can0 100#0100000000 R
(1755180782.530458) can0 101#00DC050000 R
(1755180782.532452) can0 210#0000000000000000 R
(1755180782.538027) can0 100#0100000000 R
(1755180782.538823) can0 101#00DC050000 R
(1755180782.540415) can0 200#00AA0EE30EC50E R
(1755180782.541420) can0 200#01E20E00000000 R
(1755180782.542311) can0 201#232F000000000000 R
(1755180782.543266) can0 202#873B0000CD010000 R
(1755180782.546839) can0 100#0100000000 R
(1755180782.547459) can0 101#00DC050000 R
(1755180782.553109) can0 204#0000 R
(1755180782.553554) can0 203#971C R
(1755180782.555142) can0 100#0100000000 R
(1755180782.555822) can0 101#00DC050000 R
(1755180782.563765) can0 100#0100000000 R
(1755180782.564495) can0 101#00DC050000 R
(1755180782.572077) can0 100#0100000000 R
(1755180782.572845) can0 101#00DC050000 R
(1755180782.580948) can0 100#0100000000 R
(1755180782.581532) can0 101#00DC050000 R
(1755180782.589075) can0 100#0100000000 R
(1755180782.589819) can0 101#00DC050000 R
(1755180782.597903) can0 100#0100000000 R
(1755180782.598604) can0 101#00DC050000 R
(1755180782.606139) can0 100#0100000000 R
(1755180782.606856) can0 101#00DC050000 R
(1755180782.614867) can0 100#0100000000 R
(1755180782.615601) can0 101#00DC050000 R
(1755180782.623072) can0 100#0100000000 R
(1755180782.623834) can0 101#00DC050000 R
(1755180782.631922) can0 100#0100000000 R
(1755180782.632607) can0 101#00DC050000 R
(1755180782.640141) can0 100#0100000000 R
(1755180782.640949) can0 101#00DC050000 R
(1755180782.648950) can0 100#0100000000 R
(1755180782.649623) can0 101#00DC050000 R
(1755180782.657128) can0 100#0100000000 R
(1755180782.657916) can0 101#00DC050000 R
(1755180782.665869) can0 100#0100000000 R
(1755180782.666680) can0 101#00DC050000 R
(1755180782.674141) can0 100#0100000000 R
(1755180782.674893) can0 101#00DC050000 R
(1755180782.682923) can0 100#0100000000 R
(1755180782.683666) can0 101#00DC050000 R
(1755180782.691193) can0 100#0100000000 R
(1755180782.692020) can0 101#00DC050000 R
(1755180782.700002) can0 100#0100000000 R
(1755180782.700747) can0 101#00DC050000 R
(1755180782.708364) can0 100#0100000000 R
(1755180782.709118) can0 101#00DC050000 R
(1755180782.717033) can0 100#0100000000 R
(1755180782.717816) can0 101#00DC050000 R
(1755180782.724212) can0 211#0000000000000000 R
(1755180782.725276) can0 100#0100000000 R
(1755180782.726052) can0 101#00DC050000 R
(1755180782.732421) can0 210#0000000000000000 R
(1755180782.733990) can0 100#0100000000 R
(1755180782.734740) can0 101#00DC050000 R
(1755180782.741470) can0 200#00A10EFF0ECC0E R
(1755180782.742332) can0 200#01C80E00000000 R
(1755180782.743147) can0 100#0100000000 R
(1755180782.743838) can0 101#00DC050000 R
(1755180782.744853) can0 201#292F000000000000 R
(1755180782.745819) can0 202#903B0000CD010000 R
(1755180782.751057) can0 100#0100000000 R
(1755180782.751747) can0 101#00DC050000 R
(1755180782.753079) can0 204#0000 R
(1755180782.753528) can0 203#061D R
(1755180782.759379) can0 100#0100000000 R
(1755180782.760091) can0 101#00DC050000 R
(1755180782.768110) can0 100#0100000000 R
(1755180782.768896) can0 101#00DC050000 R
(1755180782.776367) can0 100#0100000000 R
(1755180782.777117) can0 101#00DC050000 R
(1755180782.785060) can0 100#0100000000 R
(1755180782.785893) can0 101#00DC050000 R
(1755180782.793318) can0 100#0100000000 R
(1755180782.794064) can0 101#00DC050000 R
(1755180782.802142) can0 100#0100000000 R
(1755180782.802832) can0 101#00DC050000 R
(1755180782.810441) can0 100#0100000000 R
(1755180782.811110) can0 101#00DC050000 R
(1755180782.819100) can0 100#0100000000 R
(1755180782.819860) can0 101#00DC050000 R
(1755180782.827432) can0 100#0100000000 R
(1755180782.828199) can0 101#00DC050000 R
(1755180782.836235) can0 100#0100000000 R
(1755180782.836942) can0 101#00DC050000 R
(1755180782.844457) can0 100#0100000000 R
(1755180782.845197) can0 101#00DC050000 R
(1755180782.853197) can0 100#0100000000 R
(1755180782.853912) can0 101#00DC050000 R
(1755180782.861425) can0 100#0100000000 R
(1755180782.862169) can0 101#00DC050000 R
(1755180782.870238) can0 100#0100000000 R
(1755180782.870970) can0 101#00DC050000 R
(1755180782.878501) can0 100#0100000000 R
(1755180782.879204) can0 101#00DC050000 R
(1755180782.887272) can0 100#0100000000 R
(1755180782.888018) can0 101#00DC050000 R
(1755180782.895487) can0 100#0100000000 R
(1755180782.896222) can0 101#00DC050000 R
(1755180782.904331) can0 100#0100000000 R
(1755180782.905021) can0 101#00DC050000 R
(1755180782.912634) can0 100#0100000000 R
(1755180782.913379) can0 101#00DC050000 R
(1755180782.921319) can0 100#0100000000 R
(1755180782.922049) can0 101#00DC050000 R
(1755180782.924212) can0 211#0000000000000000 R
(1755180782.929533) can0 100#0100000000 R
(1755180782.930269) can0 101#00DC050000 R
(1755180782.932486) can0 210#0000000000000000 R
(1755180782.938320) can0 100#0100000000 R
(1755180782.939096) can0 101#00DC050000 R
(1755180782.942634) can0 200#00A10EDA0ECF0E R
(1755180782.943473) can0 200#01EA0E00000000 R
(1755180782.944554) can0 201#5C2F000000000000 R
(1755180782.945445) can0 202#753B0000A5010000 R
(1755180782.946635) can0 100#0100000000 R
(1755180782.947377) can0 101#00DC050000 R
(1755180782.953041) can0 204#0000 R
(1755180782.953585) can0 203#481D R
(1755180782.955294) can0 100#0100000000 R
(1755180782.956020) can0 101#00DC050000 R
(1755180782.963588) can0 100#0100000000 R
(1755180782.964375) can0 101#00DC050000 R
(1755180782.972401) can0 100#0100000000 R
(1755180782.973160) can0 101#00DC050000 R
(1755180782.980681) can0 100#0100000000 R
(1755180782.981341) can0 101#00DC050000 R
(1755180782.989445) can0 100#0100000000 R
(1755180782.990103) can0 101#00DC050000 R
(1755180782.997644) can0 100#0100000000 R
(1755180782.998409) can0 101#00DC050000 R
(1755180783.006414) can0 100#0100000000 R
(1755180783.007124) can0 101#00DC050000 R
(1755180783.014660) can0 100#0100000000 R
(1755180783.015402) can0 101#00DC050000 R
(1755180783.023379) can0 100#0100000000 R
(1755180783.024160) can0 101#00DC050000 R
(1755180783.031711) can0 100#0100000000 R
(1755180783.032491) can0 101#00DC050000 R
(1755180783.040441) can0 100#0100000000 R
(1755180783.041180) can0 101#00DC050000 R
(1755180783.048935) can0 100#0100000000 R
(1755180783.049543) can0 101#00DC050000 R
(1755180783.057453) can0 100#0100000000 R
(1755180783.058211) can0 101#00DC050000 R
(1755180783.065933) can0 100#0100000000 R
(1755180783.066606) can0 101#00DC050000 R
(1755180783.074500) can0 100#0100000000 R
(1755180783.075204) can0 101#00DC050000 R
(1755180783.082795) can0 100#0100000000 R
(1755180783.083518) can0 101#00DC050000 R
(1755180783.091497) can0 100#0100000000 R
(1755180783.092255) can0 101#00DC050000 R
(1755180783.099858) can0 100#0100000000 R
(1755180783.100643) can0 101#00DC050000 R
(1755180783.108531) can0 100#0100000000 R
(1755180783.109267) can0 101#00DC050000 R
(1755180783.116953) can0 100#0100000000 R
(1755180783.117554) can0 101#00DC050000 R
(1755180783.124235) can0 211#0000000000000000 R
(1755180783.125578) can0 100#0100000000 R
(1755180783.126307) can0 101#00DC050000 R
(1755180783.132484) can0 210#0000000000000000 R
(1755180783.133912) can0 100#0100000000 R
(1755180783.134673) can0 101#00DC050000 R
(1755180783.142574) can0 100#0100000000 R
(1755180783.143349) can0 101#00DC050000 R
(1755180783.145668) can0 200#00980EE30EE80E R
(1755180783.146543) can0 200#01E30E00000000 R
(1755180783.147596) can0 201#122F000000000000 R
(1755180783.148500) can0 202#753B0000A5010000 R
(1755180783.150835) can0 100#0100000000 R
(1755180783.151555) can0 101#00DC050000 R
(1755180783.153037) can0 204#0000 R
(1755180783.153565) can0 203#201D R
(1755180783.159554) can0 100#0100000000 R
(1755180783.160333) can0 101#00DC050000 R
(1755180783.168006) can0 100#0100000000 R
(1755180783.168766) can0 101#00DC050000 R
(1755180783.176580) can0 100#0100000000 R
(1755180783.177422) can0 101#00DC050000 R
(1755180783.184976) can0 100#0100000000 R
(1755180783.185715) can0 101#00DC050000 R
(1755180783.193626) can0 100#0100000000 R
(1755180783.194411) can0 101#00DC050000 R
(1755180783.201992) can0 100#0100000000 R
(1755180783.202829) can0 101#00DC050000 R
(1755180783.210665) can0 100#0100000000 R
(1755180783.211500) can0 101#00DC050000 R
(1755180783.219103) can0 100#0100000000 R
(1755180783.219824) can0 101#00DC050000 R
(1755180783.227768) can0 100#0100000000 R
(1755180783.228406) can0 101#00DC050000 R
(1755180783.236071) can0 100#0100000000 R
(1755180783.236935) can0 101#00DC050000 R
(1755180783.244739) can0 100#0100000000 R
(1755180783.245468) can0 101#00DC050000 R
(1755180783.253073) can0 100#0100000000 R
(1755180783.253755) can0 101#00DC050000 R
(1755180783.261771) can0 100#0100000000 R
(1755180783.262518) can0 101#00DC050000 R
(1755180783.270041) can0 100#0100000000 R
(1755180783.270822) can0 101#00DC050000 R
(1755180783.278906) can0 100#0100000000 R
(1755180783.279601) can0 101#00DC050000 R
(1755180783.287028) can0 100#0100000000 R
(1755180783.287823) can0 101#00DC050000 R
(1755180783.295885) can0 100#0100000000 R
(1755180783.296547) can0 101#00DC050000 R
(1755180783.304172) can0 100#0100000000 R
(1755180783.304843) can0 101#00DC050000 R
(1755180783.312933) can0 100#0100000000 R
(1755180783.313604) can0 101#00DC050000 R
(1755180783.321076) can0 100#0100000000 R
(1755180783.321804) can0 101#00DC050000 R
(1755180783.324221) can0 211#0000000000000000 R
(1755180783.329918) can0 100#0100000000 R
(1755180783.330599) can0 101#00DC050000 R
(1755180783.332450) can0 210#0000000000000000 R
(1755180783.338140) can0 100#0100000000 R
(1755180783.338842) can0 101#00DC050000 R
(1755180783.346968) can0 100#0100000000 R
(1755180783.347616) can0 101#00DC050000 R
(1755180783.348448) can0 200#00980EE30EE00E R
(1755180783.349412) can0 200#01EB0E00000000 R
(1755180783.350336) can0 201#292F000000000000 R
(1755180783.351402) can0 202#753B0000A5010000 R
(1755180783.353311) can0 204#0000 R
(1755180783.353741) can0 203#D71C R
(1755180783.355249) can0 100#0100000000 R
(1755180783.355982) can0 101#00DC050000 R
(1755180783.363923) can0 100#0100000000 R
(1755180783.364685) can0 101#00DC050000 R
(1755180783.372152) can0 100#0100000000 R
(1755180783.372919) can0 101#00DC050000 R
(1755180783.381008) can0 100#0100000000 R
(1755180783.381648) can0 101#00DC050000 R
(1755180783.389157) can0 100#0100000000 R
(1755180783.389902) can0 101#00DC050000 R
(1755180783.397973) can0 100#0100000000 R
(1755180783.398713) can0 101#00DC050000 R
(1755180783.406208) can0 100#0100000000 R
(1755180783.406925) can0 101#00DC050000 R
(1755180783.415009) can0 100#0100000000 R
(1755180783.415803) can0 101#00DC050000 R
(1755180783.423220) can0 100#0100000000 R
(1755180783.424041) can0 101#00DC050000 R
(1755180783.432040) can0 100#0100000000 R
(1755180783.432815) can0 101#00DC050000 R
(1755180783.440257) can0 100#0100000000 R
(1755180783.441061) can0 101#00DC050000 R
(1755180783.449045) can0 100#0100000000 R
(1755180783.449886) can0 101#00DC050000 R
(1755180783.457302) can0 100#0100000000 R
(1755180783.458084) can0 101#00DC050000 R
(1755180783.466092) can0 100#0100000000 R
(1755180783.466876) can0 101#00DC050000 R
(1755180783.474364) can0 100#0100000000 R
(1755180783.475125) can0 101#00DC050000 R
(1755180783.483108) can0 100#0100000000 R
(1755180783.483881) can0 101#00DC050000 R
(1755180783.491402) can0 100#0100000000 R
(1755180783.492066) can0 101#00DC050000 R
(1755180783.500157) can0 100#0100000000 R
(1755180783.500869) can0 101#00DC050000 R
(1755180783.508410) can0 100#0100000000 R
(1755180783.509175) can0 101#00DC050000 R
(1755180783.517100) can0 100#0100000000 R
(1755180783.517913) can0 101#00DC050000 R
(1755180783.524193) can0 211#0000000000000000 R
(1755180783.525535) can0 100#0100000000 R
(1755180783.526244) can0 101#00DC050000 R
(1755180783.532496) can0 210#0000000000000000 R
(1755180783.534210) can0 100#0100000000 R
(1755180783.534917) can0 101#00DC050000 R
(1755180783.542406) can0 100#0100000000 R
(1755180783.543152) can0 101#00DC050000 R
(1755180783.549809) can0 200#00980EE30EE80E R
(1755180783.550702) can0 200#01DA0E00000000 R
(1755180783.551359) can0 100#0100000000 R
(1755180783.552214) can0 101#00DC050000 R
(1755180783.553125) can0 201#732F000000000000 R
(1755180783.554146) can0 202#753B0000CD010000 R
(1755180783.554642) can0 204#0000 R
(1755180783.555134) can0 203#C01C R
(1755180783.559412) can0 100#0100000000 R
(1755180783.560172) can0 101#00DC050000 R
(1755180783.568267) can0 100#0100000000 R
(1755180783.568955) can0 101#00DC050000 R
(1755180783.576476) can0 100#0100000000 R
(1755180783.577214) can0 101#00DC050000 R
(1755180783.585239) can0 100#0100000000 R
(1755180783.585998) can0 101#00DC050000 R
(1755180783.593478) can0 100#0100000000 R
(1755180783.594245) can0 101#00DC050000 R
(1755180783.602271) can0 100#0100000000 R
(1755180783.603099) can0 101#00DC050000 R
(1755180783.610490) can0 100#0100000000 R
(1755180783.611250) can0 101#00DC050000 R
(1755180783.619247) can0 100#0100000000 R
(1755180783.620075) can0 101#00DC050000 R
(1755180783.627484) can0 100#0100000000 R
(1755180783.628277) can0 101#00DC050000 R
(1755180783.636354) can0 100#0100000000 R
(1755180783.637053) can0 101#00DC050000 R
(1755180783.644549) can0 100#0100000000 R
(1755180783.645280) can0 101#00DC050000 R
(1755180783.653360) can0 100#0100000000 R
(1755180783.654022) can0 101#00DC050000 R
(1755180783.661605) can0 100#0100000000 R
(1755180783.662331) can0 101#00DC050000 R
(1755180783.670402) can0 100#0100000000 R
(1755180783.671126) can0 101#00DC050000 R
(1755180783.678580) can0 100#0100000000 R
(1755180783.679356) can0 101#00DC050000 R
(1755180783.687398) can0 100#0100000000 R
(1755180783.688098) can0 101#00DC050000 R
(1755180783.695692) can0 100#0100000000 R
(1755180783.696387) can0 101#00DC050000 R
(1755180783.704422) can0 100#0100000000 R
(1755180783.705145) can0 101#00DC050000 R
(1755180783.712810) can0 100#0100000000 R
(1755180783.713526) can0 101#00DC050000 R
(1755180783.721398) can0 100#0100000000 R
(1755180783.722213) can0 101#00DC050000 R
(1755180783.724253) can0 211#0000000000000000 R
(1755180783.729904) can0 100#0100000000 R
(1755180783.730530) can0 101#00DC050000 R
(1755180783.732515) can0 210#0000000000000000 R
(1755180783.738447) can0 100#0100000000 R
(1755180783.739224) can0 101#00DC050000 R
(1755180783.746731) can0 100#0100000000 R
(1755180783.747401) can0 101#00DC050000 R
(1755180783.751474) can0 200#00980EE30ED70E R
(1755180783.752394) can0 200#01E20E00000000 R
(1755180783.753406) can0 201#122F000000000000 R
(1755180783.754288) can0 202#753B0000A5010000 R
(1755180783.754912) can0 204#0000 R
(1755180783.755599) can0 100#0100000000 R
(1755180783.756333) can0 101#00DC050000 R
(1755180783.756854) can0 203#061D R
(1755180783.763788) can0 100#0100000000 R
(1755180783.764458) can0 101#00DC050000 R
(1755180783.772491) can0 100#0100000000 R
(1755180783.773210) can0 101#00DC050000 R
(1755180783.780815) can0 100#0100000000 R
(1755180783.781521) can0 101#00DC050000 R
(1755180783.789492) can0 100#0100000000 R
(1755180783.790255) can0 101#00DC050000 R
(1755180783.797911) can0 100#0100000000 R
(1755180783.798533) can0 101#00DC050000 R
(1755180783.806520) can0 100#0100000000 R
(1755180783.807245) can0 101#00DC050000 R
(1755180783.814972) can0 100#0100000000 R
(1755180783.815659) can0 101#00DC050000 R
(1755180783.823569) can0 100#0100000000 R
(1755180783.824308) can0 101#00DC050000 R
(1755180783.831976) can0 100#0100000000 R
(1755180783.832709) can0 101#00DC050000 R
(1755180783.840609) can0 100#0100000000 R
(1755180783.841297) can0 101#00DC050000 R
(1755180783.848888) can0 100#0100000000 R
(1755180783.849587) can0 101#00DC050000 R
(1755180783.857619) can0 100#0100000000 R
(1755180783.858334) can0 101#00DC050000 R
(1755180783.865943) can0 100#0100000000 R
(1755180783.866612) can0 101#00DC050000 R
(1755180783.874618) can0 100#0100000000 R
(1755180783.875447) can0 101#00DC050000 R
(1755180783.882944) can0 100#0100000000 R
(1755180783.883627) can0 101#00DC050000 R
(1755180783.891702) can0 100#0100000000 R
(1755180783.892425) can0 101#00DC050000 R
(1755180783.899949) can0 100#0100000000 R
(1755180783.900699) can0 101#00DC050000 R
(1755180783.908753) can0 100#0100000000 R
(1755180783.909398) can0 101#00DC050000 R
(1755180783.917001) can0 100#0100000000 R
(1755180783.917795) can0 101#00DC050000 R
(1755180783.924251) can0 211#0000000000000000 R
(1755180783.925796) can0 100#0100000000 R
(1755180783.926472) can0 101#00DC050000 R
(1755180783.932479) can0 210#0000000000000000 R
(1755180783.933917) can0 100#0100000000 R
(1755180783.934751) can0 101#00DC050000 R
(1755180783.942794) can0 100#0100000000 R
(1755180783.943420) can0 101#00DC050000 R
(1755180783.951037) can0 100#0100000000 R
(1755180783.951786) can0 101#00DC050000 R
(1755180783.953087) can0 204#0000 R
(1755180783.953894) can0 200#00A10EF60ED50E R
(1755180783.954837) can0 200#01D10E00000000 R
(1755180783.955828) can0 201#8A2F000000000000 R
(1755180783.956721) can0 202#903B0000A5010000 R
(1755180783.957269) can0 203#481D R
(1755180783.959798) can0 100#0100000000 R
(1755180783.960500) can0 101#00DC050000 R
(1755180783.968059) can0 100#0100000000 R
(1755180783.968911) can0 101#00DC050000 R
(1755180783.976922) can0 100#0100000000 R
(1755180783.977537) can0 101#00DC050000 R
(1755180783.985016) can0 100#0100000000 R
(1755180783.985906) can0 101#00DC050000 R
(1755180783.993819) can0 100#0100000000 R
(1755180783.994501) can0 101#00DC050000 R
(1755180784.002081) can0 100#0100000000 R
(1755180784.002867) can0 101#00DC050000 R
(1755180784.010881) can0 100#0100000000 R
(1755180784.011584) can0 101#00DC050000 R
(1755180784.019207) can0 100#0100000000 R
(1755180784.019960) can0 101#00DC050000 R
(1755180784.027910) can0 100#0100000000 R
(1755180784.028652) can0 101#00DC050000 R
(1755180784.036176) can0 100#0100000000 R
(1755180784.036848) can0 101#00DC050000 R
(1755180784.044850) can0 100#0100000000 R
(1755180784.045602) can0 101#00DC050000 R
(1755180784.053176) can0 100#0100000000 R
(1755180784.053882) can0 101#00DC050000 R
(1755180784.061869) can0 100#0100000000 R
(1755180784.062691) can0 101#00DC050000 R
(1755180784.070218) can0 100#0100000000 R
(1755180784.070950) can0 101#00DC050000 R
(1755180784.078869) can0 100#0100000000 R
(1755180784.079636) can0 101#00DC050000 R
(1755180784.087214) can0 100#0100000000 R
(1755180784.087972) can0 101#00DC050000 R
(1755180784.095980) can0 100#0100000000 R
(1755180784.096725) can0 101#00DC050000 R
(1755180784.104201) can0 100#0100000000 R
(1755180784.104952) can0 101#00DC050000 R
(1755180784.113078) can0 100#0100000000 R
(1755180784.113739) can0 101#00DC050000 R
(1755180784.121308) can0 100#0100000000 R
(1755180784.121988) can0 101#00DC050000 R
(1755180784.124190) can0 211#0000000000000000 R
(1755180784.130046) can0 100#0100000000 R
(1755180784.130800) can0 101#00DC050000 R
(1755180784.132480) can0 210#0000000000000000 R
(1755180784.138368) can0 100#0100000000 R
(1755180784.138994) can0 101#00DC050000 R
(1755180784.147011) can0 100#0100000000 R
(1755180784.147873) can0 101#00DC050000 R
(1755180784.153396) can0 204#0000 R
(1755180784.153926) can0 203#201D R
(1755180784.155351) can0 100#0100000000 R
(1755180784.155995) can0 101#00DC050000 R
(1755180784.156864) can0 200#00AA0EED0ED50E R
(1755180784.157803) can0 200#01C80E00000000 R
(1755180784.158730) can0 201#732F000000000000 R
(1755180784.159800) can0 202#903B0000A5010000 R
(1755180784.164079) can0 100#0100000000 R
(1755180784.164918) can0 101#00DC050000 R
(1755180784.172395) can0 100#0100000000 R
(1755180784.173041) can0 101#00DC050000 R
(1755180784.181030) can0 100#0100000000 R
(1755180784.181901) can0 101#00DC050000 R
(1755180784.189330) can0 100#0100000000 R
(1755180784.190080) can0 101#00DC050000 R
(1755180784.198117) can0 100#0100000000 R
(1755180784.198893) can0 101#00DC050000 R
(1755180784.206400) can0 100#0100000000 R
(1755180784.207076) can0 101#00DC050000 R
(1755180784.215173) can0 100#0100000000 R
(1755180784.215850) can0 101#00DC050000 R
(1755180784.223398) can0 100#0100000000 R
(1755180784.224199) can0 101#00DC050000 R
(1755180784.232181) can0 100#0100000000 R
(1755180784.232954) can0 101#00DC050000 R
(1755180784.240412) can0 100#0100000000 R
(1755180784.241217) can0 101#00DC050000 R
(1755180784.249218) can0 100#0100000000 R
(1755180784.249949) can0 101#00DC050000 R
(1755180784.257400) can0 100#0100000000 R
(1755180784.258250) can0 101#00DC050000 R
(1755180784.266209) can0 100#0100000000 R
(1755180784.266954) can0 101#00DC050000 R
(1755180784.274510) can0 100#0100000000 R
(1755180784.275193) can0 101#00DC050000 R
(1755180784.283257) can0 100#0100000000 R
(1755180784.283985) can0 101#00DC050000 R
(1755180784.291483) can0 100#0100000000 R
(1755180784.292196) can0 101#00DC050000 R
(1755180784.300280) can0 100#0100000000 R
(1755180784.301009) can0 101#00DC050000 R
(1755180784.308590) can0 100#0100000000 R
(1755180784.309358) can0 101#00DC050000 R
(1755180784.317325) can0 100#0100000000 R
(1755180784.317990) can0 101#00DC050000 R
(1755180784.324178) can0 211#0000000000000000 R
(1755180784.325618) can0 100#0100000000 R
(1755180784.326357) can0 101#00DC050000 R
(1755180784.332473) can0 210#0000000000000000 R
(1755180784.334343) can0 100#0100000000 R
(1755180784.335075) can0 101#00DC050000 R
(1755180784.342555) can0 100#0100000000 R
(1755180784.343342) can0 101#00DC050000 R
(1755180784.351334) can0 100#0100000000 R
(1755180784.352109) can0 101#00DC050000 R
(1755180784.353096) can0 204#0000 R
(1755180784.353571) can0 203#971C R
(1755180784.358991) can0 200#00980EE30EE00E R
(1755180784.359786) can0 100#0100000000 R
(1755180784.360437) can0 101#00DC050000 R
(1755180784.361341) can0 200#01E20E00000000 R
(1755180784.362336) can0 201#122F000000000000 R
(1755180784.363337) can0 202#753B0000A5010000 R
(1755180784.368412) can0 100#0100000000 R
(1755180784.369070) can0 101#00DC050000 R
(1755180784.376598) can0 100#0100000000 R
(1755180784.377332) can0 101#00DC050000 R
(1755180784.385392) can0 100#0100000000 R
(1755180784.386094) can0 101#00DC050000 R
(1755180784.393653) can0 100#0100000000 R
(1755180784.394437) can0 101#00DC050000 R
(1755180784.402424) can0 100#0100000000 R
(1755180784.403160) can0 101#00DC050000 R
(1755180784.410611) can0 100#0100000000 R
(1755180784.411420) can0 101#00DC050000 R
(1755180784.419447) can0 100#0100000000 R
(1755180784.420134) can0 101#00DC050000 R
(1755180784.427692) can0 100#0100000000 R
(1755180784.428434) can0 101#00DC050000 R
(1755180784.436467) can0 100#0100000000 R
(1755180784.437158) can0 101#00DC050000 R
(1755180784.444823) can0 100#0100000000 R
(1755180784.445513) can0 101#00DC050000 R
(1755180784.453484) can0 100#0100000000 R
(1755180784.454181) can0 101#00DC050000 R
(1755180784.461780) can0 100#0100000000 R
(1755180784.462483) can0 101#00DC050000 R
(1755180784.470440) can0 100#0100000000 R
(1755180784.471227) can0 101#00DC050000 R
(1755180784.478808) can0 100#0100000000 R
(1755180784.479498) can0 101#00DC050000 R
(1755180784.487500) can0 100#0100000000 R
(1755180784.488241) can0 101#00DC050000 R
(1755180784.495822) can0 100#0100000000 R
(1755180784.496488) can0 101#00DC050000 R
(1755180784.504473) can0 100#0100000000 R
(1755180784.505221) can0 101#00DC050000 R
(1755180784.512789) can0 100#0100000000 R
(1755180784.513533) can0 101#00DC050000 R
(1755180784.521568) can0 100#0100000000 R
(1755180784.522261) can0 101#00DC050000 R
(1755180784.524197) can0 211#0000000000000000 R
(1755180784.529862) can0 100#0100000000 R
(1755180784.530564) can0 101#00DC050000 R
(1755180784.532469) can0 210#0000000000000000 R
(1755180784.538544) can0 100#0100000000 R
(1755180784.539329) can0 101#00DC050000 R
(1755180784.546886) can0 100#0100000000 R
(1755180784.547646) can0 101#00DC050000 R
(1755180784.553091) can0 204#0000 R
(1755180784.553566) can0 203#C01C R
(1755180784.555548) can0 100#0100000000 R
(1755180784.556325) can0 101#00DC050000 R
(1755180784.561230) can0 200#00980EE30EE00E R
(1755180784.562135) can0 200#01E20E00000000 R
(1755180784.563103) can0 201#732F000000000000 R
(1755180784.564101) can0 202#753B0000A5010000 R
(1755180784.564842) can0 100#0100000000 R
(1755180784.565571) can0 101#00DC050000 R
(1755180784.572645) can0 100#0100000000 R
(1755180784.573329) can0 101#00DC050000 R
(1755180784.580958) can0 100#0100000000 R
(1755180784.581606) can0 101#00DC050000 R
(1755180784.589674) can0 100#0100000000 R
(1755180784.590430) can0 101#00DC050000 R
(1755180784.597993) can0 100#0100000000 R
(1755180784.598692) can0 101#00DC050000 R
(1755180784.606653) can0 100#0100000000 R
(1755180784.607416) can0 101#00DC050000 R
(1755180784.614982) can0 100#0100000000 R
(1755180784.615796) can0 101#00DC050000 R
(1755180784.623664) can0 100#0100000000 R
(1755180784.624419) can0 101#00DC050000 R
(1755180784.632117) can0 100#0100000000 R
(1755180784.632859) can0 101#00DC050000 R
(1755180784.640791) can0 100#0100000000 R
(1755180784.641465) can0 101#00DC050000 R
(1755180784.649050) can0 100#0100000000 R
(1755180784.649785) can0 101#00DC050000 R
(1755180784.657773) can0 100#0100000000 R
(1755180784.658518) can0 101#00DC050000 R
(1755180784.666167) can0 100#0100000000 R
(1755180784.666923) can0 101#00DC050000 R
(1755180784.674898) can0 100#0100000000 R
(1755180784.675513) can0 101#00DC050000 R
(1755180784.683087) can0 100#0100000000 R
(1755180784.683857) can0 101#00DC050000 R
(1755180784.691858) can0 100#0100000000 R
(1755180784.692580) can0 101#00DC050000 R
(1755180784.700213) can0 100#0100000000 R
(1755180784.700893) can0 101#00DC050000 R
(1755180784.708908) can0 100#0100000000 R
(1755180784.709576) can0 101#00DC050000 R
(1755180784.717154) can0 100#0100000000 R
(1755180784.717862) can0 101#00DC050000 R
(1755180784.724298) can0 211#0000000000000000 R
(1755180784.725912) can0 100#0100000000 R
(1755180784.726633) can0 101#00DC050000 R
(1755180784.732507) can0 210#0000000000000000 R
(1755180784.734160) can0 100#0100000000 R
(1755180784.734883) can0 101#00DC050000 R
(1755180784.742923) can0 100#0100000000 R
(1755180784.743613) can0 101#00DC050000 R
(1755180784.751219) can0 100#0100000000 R
(1755180784.751934) can0 101#00DC050000 R
(1755180784.753099) can0 204#0000 R
(1755180784.753609) can0 203#061D R
(1755180784.759921) can0 100#0100000000 R
(1755180784.760666) can0 101#00DC050000 R
(1755180784.762456) can0 200#00980EE30EE00E R
(1755180784.763337) can0 200#01E20E00000000 R
(1755180784.764398) can0 201#122F000000000000 R
(1755180784.765331) can0 202#753B0000CD010000 R
(1755180784.768190) can0 100#0100000000 R
(1755180784.768939) can0 101#00DC050000 R
(1755180784.776935) can0 100#0100000000 R
(1755180784.777692) can0 101#00DC050000 R
(1755180784.785284) can0 100#0100000000 R
(1755180784.785983) can0 101#00DC050000 R
(1755180784.793980) can0 100#0100000000 R
(1755180784.794717) can0 101#00DC050000 R
(1755180784.802210) can0 100#0100000000 R
(1755180784.802958) can0 101#00DC050000 R
(1755180784.810927) can0 100#0100000000 R
(1755180784.811739) can0 101#00DC050000 R
(1755180784.819283) can0 100#0100000000 R
(1755180784.820007) can0 101#00DC050000 R
(1755180784.827945) can0 100#0100000000 R
(1755180784.828788) can0 101#00DC050000 R
(1755180784.836286) can0 100#0100000000 R
(1755180784.837032) can0 101#00DC050000 R
(1755180784.845028) can0 100#0100000000 R
(1755180784.845781) can0 101#00DC050000 R
(1755180784.853343) can0 100#0100000000 R
(1755180784.854104) can0 101#00DC050000 R
(1755180784.862054) can0 100#0100000000 R
(1755180784.862899) can0 101#00DC050000 R
(1755180784.870384) can0 100#0100000000 R
(1755180784.871041) can0 101#00DC050000 R
(1755180784.879132) can0 100#0100000000 R
(1755180784.879858) can0 101#00DC050000 R
(1755180784.887481) can0 100#0100000000 R
(1755180784.888168) can0 101#00DC050000 R
(1755180784.896152) can0 100#0100000000 R
(1755180784.896907) can0 101#00DC050000 R
(1755180784.904514) can0 100#0100000000 R
(1755180784.905187) can0 101#00DC050000 R
(1755180784.913119) can0 100#0100000000 R
(1755180784.913893) can0 101#00DC050000 R
(1755180784.921422) can0 100#0100000000 R
(1755180784.922129) can0 101#00DC050000 R
(1755180784.924247) can0 211#0000000000000000 R
(1755180784.930156) can0 100#0100000000 R
(1755180784.930901) can0 101#00DC050000 R
(1755180784.932507) can0 210#0000000000000000 R
(1755180784.938464) can0 100#0100000000 R
(1755180784.939208) can0 101#00DC050000 R
(1755180784.947186) can0 100#0100000000 R
(1755180784.947929) can0 101#00DC050000 R
(1755180784.953586) can0 204#0000 R
(1755180784.954061) can0 203#481D R
(1755180784.955376) can0 100#0100000000 R
(1755180784.956232) can0 101#00DC050000 R
(1755180784.964197) can0 200#00980ED10EE10E R
(1755180784.964993) can0 100#0100000000 R
(1755180784.965708) can0 101#00DC050000 R
(1755180784.966594) can0 200#01EA0E00000000 R
(1755180784.967606) can0 201#1D2F000000000000 R
(1755180784.968543) can0 202#623B0000A5010000 R
(1755180784.972420) can0 100#0100000000 R
(1755180784.973188) can0 101#00DC050000 R
(1755180784.981238) can0 100#0100000000 R
(1755180784.981979) can0 101#00DC050000 R
(1755180784.989487) can0 100#0100000000 R
(1755180784.990165) can0 101#00DC050000 R
(1755180784.998277) can0 100#0100000000 R
(1755180784.999006) can0 101#00DC050000 R
(1755180785.006496) can0 100#0100000000 R
(1755180785.007204) can0 101#00DC050000 R
(1755180785.015281) can0 100#0100000000 R
(1755180785.016032) can0 101#00DC050000 R
(1755180785.023508) can0 100#0100000000 R
(1755180785.024250) can0 101#00DC050000 R
(1755180785.032313) can0 100#0100000000 R
(1755180785.033065) can0 101#00DC050000 R
(1755180785.040506) can0 100#0100000000 R
(1755180785.041283) can0 101#00DC050000 R
(1755180785.049371) can0 100#0100000000 R
(1755180785.050040) can0 101#00DC050000 R
(1755180785.057538) can0 100#0100000000 R
(1755180785.058339) can0 101#00DC050000 R
(1755180785.066352) can0 100#0100000000 R
(1755180785.067039) can0 101#00DC050000 R
(1755180785.074640) can0 100#0100000000 R
(1755180785.075313) can0 101#00DC050000 R
(1755180785.083317) can0 100#0100000000 R
(1755180785.084081) can0 101#00DC050000 R
(1755180785.091782) can0 100#0100000000 R
(1755180785.092446) can0 101#00DC050000 R
(1755180785.100371) can0 100#0100000000 R
(1755180785.101211) can0 101#00DC050000 R
(1755180785.108658) can0 100#0100000000 R
(1755180785.109399) can0 101#00DC050000 R
(1755180785.117391) can0 100#0100000000 R
(1755180785.118181) can0 101#00DC050000 R
(1755180785.124276) can0 211#0000000000000000 R
(1755180785.125764) can0 100#0100000000 R
(1755180785.126397) can0 101#00DC050000 R
(1755180785.132413) can0 210#0000000000000000 R
(1755180785.134393) can0 100#0100000000 R
(1755180785.135172) can0 101#00DC050000 R
(1755180785.142692) can0 100#0100000000 R
(1755180785.143468) can0 101#00DC050000 R
(1755180785.151487) can0 100#0100000000 R
(1755180785.152219) can0 101#00DC050000 R
(1755180785.153059) can0 204#0000 R
(1755180785.153558) can0 203#D71C R
(1755180785.159853) can0 100#0100000000 R
(1755180785.160601) can0 101#00DC050000 R
(1755180785.166477) can0 200#00980EE30EE00E R
(1755180785.167318) can0 200#01E20E00000000 R
(1755180785.168364) can0 201#732F000000000000 R
(1755180785.169097) can0 100#0100000000 R
(1755180785.169850) can0 101#00DC050000 R
(1755180785.170877) can0 202#753B0000A5010000 R
(1755180785.176855) can0 100#0100000000 R
(1755180785.177479) can0 101#00DC050000 R
(1755180785.185554) can0 100#0100000000 R
(1755180785.186220) can0 101#00DC050000 R
(1755180785.193846) can0 100#0100000000 R
(1755180785.194517) can0 101#00DC050000 R
(1755180785.202542) can0 100#0100000000 R
(1755180785.203223) can0 101#00DC050000 R
(1755180785.210818) can0 100#0100000000 R
(1755180785.211501) can0 101#00DC050000 R
(1755180785.219580) can0 100#0100000000 R
(1755180785.220266) can0 101#00DC050000 R
(1755180785.227775) can0 100#0100000000 R
(1755180785.228555) can0 101#00DC050000 R
(1755180785.236626) can0 100#0100000000 R
(1755180785.237331) can0 101#00DC050000 R
(1755180785.244969) can0 100#0100000000 R
(1755180785.245762) can0 101#00DC050000 R
(1755180785.253590) can0 100#0100000000 R
(1755180785.254307) can0 101#00DC050000 R
(1755180785.261989) can0 100#0100000000 R
(1755180785.262791) can0 101#00DC050000 R
(1755180785.270666) can0 100#0100000000 R
(1755180785.271332) can0 101#00DC050000 R
(1755180785.278933) can0 100#0100000000 R
(1755180785.279690) can0 101#00DC050000 R
(1755180785.287669) can0 100#0100000000 R
(1755180785.288366) can0 101#00DC050000 R
(1755180785.296061) can0 100#0100000000 R
(1755180785.296880) can0 101#00DC050000 R
(1755180785.304780) can0 100#0100000000 R
(1755180785.305370) can0 101#00DC050000 R
(1755180785.312979) can0 100#0100000000 R
(1755180785.313760) can0 101#00DC050000 R
(1755180785.321741) can0 100#0100000000 R
(1755180785.322386) can0 101#00DC050000 R
(1755180785.324175) can0 211#0000000000000000 R
(1755180785.330025) can0 100#0100000000 R
(1755180785.330713) can0 101#00DC050000 R
(1755180785.332569) can0 210#0000000000000000 R
(1755180785.338718) can0 100#0100000000 R
(1755180785.339461) can0 101#00DC050000 R
(1755180785.347055) can0 100#0100000000 R
(1755180785.347849) can0 101#00DC050000 R
(1755180785.353060) can0 204#0000 R
(1755180785.353624) can0 203#971C R
(1755180785.355779) can0 100#0100000000 R
(1755180785.356449) can0 101#00DC050000 R
(1755180785.363980) can0 100#0100000000 R
(1755180785.364821) can0 101#00DC050000 R
(1755180785.368496) can0 200#00AA0EE30EC50E R
(1755180785.369377) can0 200#01D80E00000000 R
(1755180785.370365) can0 201#6D2F000000000000 R
(1755180785.371331) can0 202#873B0000A5010000 R
(1755180785.372822) can0 100#0100000000 R
(1755180785.373480) can0 101#00DC050000 R
(1755180785.381069) can0 100#0100000000 R
(1755180785.381879) can0 101#00DC050000 R
(1755180785.389902) can0 100#0100000000 R
(1755180785.390510) can0 101#00DC050000 R
(1755180785.398120) can0 100#0100000000 R
(1755180785.398882) can0 101#00DC050000 R
(1755180785.406880) can0 100#0100000000 R
(1755180785.407576) can0 101#00DC050000 R
(1755180785.415114) can0 100#0100000000 R
(1755180785.415879) can0 101#00DC050000 R
(1755180785.423871) can0 100#0100000000 R
(1755180785.424623) can0 101#00DC050000 R
(1755180785.432154) can0 100#0100000000 R
(1755180785.432896) can0 101#00DC050000 R
(1755180785.440895) can0 100#0100000000 R
(1755180785.441607) can0 101#00DC050000 R
(1755180785.449198) can0 100#0100000000 R
(1755180785.449963) can0 101#00DC050000 R
(1755180785.457929) can0 100#0100000000 R
(1755180785.458674) can0 101#00DC050000 R
(1755180785.466195) can0 100#0100000000 R
(1755180785.466927) can0 101#00DC050000 R
(1755180785.474919) can0 100#0100000000 R
(1755180785.475669) can0 101#00DC050000 R
(1755180785.483228) can0 100#0100000000 R
(1755180785.483967) can0 101#00DC050000 R
(1755180785.491964) can0 100#0100000000 R
(1755180785.492691) can0 101#00DC050000 R
(1755180785.500413) can0 100#0100000000 R
(1755180785.501036) can0 101#00DC050000 R
(1755180785.508975) can0 100#0100000000 R
(1755180785.509766) can0 101#00DC050000 R
(1755180785.517277) can0 100#0100000000 R
(1755180785.518042) can0 101#00DC050000 R
(1755180785.524278) can0 211#0000000000000000 R
(1755180785.525947) can0 100#0100000000 R
(1755180785.526681) can0 101#00DC050000 R
(1755180785.532466) can0 210#0000000000000000 R
(1755180785.534226) can0 100#0100000000 R
(1755180785.535052) can0 101#00DC050000 R
(1755180785.543071) can0 100#0100000000 R
(1755180785.543844) can0 101#00DC050000 R
(1755180785.551400) can0 100#0100000000 R
(1755180785.552155) can0 101#00DC050000 R
(1755180785.553108) can0 204#0000 R
(1755180785.553653) can0 203#C01C R
(1755180785.560058) can0 100#0100000000 R
(1755180785.560842) can0 101#00DC050000 R
(1755180785.568444) can0 100#0100000000 R
(1755180785.569132) can0 101#00DC050000 R
(1755180785.570774) can0 200#00980EE30EE00E R
(1755180785.571654) can0 200#01E20E00000000 R
(1755180785.572687) can0 201#122F000000000000 R
(1755180785.573550) can0 202#753B0000CD010000 R
(1755180785.577070) can0 100#0100000000 R
(1755180785.577837) can0 101#00DC050000 R
(1755180785.585402) can0 100#0100000000 R
(1755180785.586217) can0 101#00DC050000 R
(1755180785.594124) can0 100#0100000000 R
(1755180785.594879) can0 101#00DC050000 R
(1755180785.602408) can0 100#0100000000 R
(1755180785.603115) can0 101#00DC050000 R
(1755180785.611146) can0 100#0100000000 R
(1755180785.611873) can0 101#00DC050000 R
(1755180785.619408) can0 100#0100000000 R
(1755180785.620144) can0 101#00DC050000 R
(1755180785.628157) can0 100#0100000000 R
(1755180785.628927) can0 101#00DC050000 R
(1755180785.636404) can0 100#0100000000 R
(1755180785.637139) can0 101#00DC050000 R
(1755180785.645135) can0 100#0100000000 R
(1755180785.645919) can0 101#00DC050000 R
(1755180785.653408) can0 100#0100000000 R
(1755180785.654229) can0 101#00DC050000 R
(1755180785.662222) can0 100#0100000000 R
(1755180785.662960) can0 101#00DC050000 R
(1755180785.670429) can0 100#0100000000 R
(1755180785.671262) can0 101#00DC050000 R
(1755180785.679168) can0 100#0100000000 R
(1755180785.680012) can0 101#00DC050000 R
(1755180785.687497) can0 100#0100000000 R
(1755180785.688210) can0 101#00DC050000 R
(1755180785.696269) can0 100#0100000000 R
(1755180785.696943) can0 101#00DC050000 R
(1755180785.704554) can0 100#0100000000 R
(1755180785.705325) can0 101#00DC050000 R
(1755180785.713285) can0 100#0100000000 R
(1755180785.714042) can0 101#00DC050000 R
(1755180785.721541) can0 100#0100000000 R
(1755180785.722252) can0 101#00DC050000 R
(1755180785.724214) can0 211#0000000000000000 R
(1755180785.730313) can0 100#0100000000 R
(1755180785.731046) can0 101#00DC050000 R
(1755180785.732481) can0 210#0000000000000000 R
(1755180785.738507) can0 100#0100000000 R
(1755180785.739232) can0 101#00DC050000 R
(1755180785.747344) can0 100#0100000000 R
(1755180785.748092) can0 101#00DC050000 R
(1755180785.753778) can0 204#0000 R
(1755180785.754230) can0 203#061D R
(1755180785.755750) can0 100#0100000000 R
(1755180785.756430) can0 101#00DC050000 R
(1755180785.764370) can0 100#0100000000 R
(1755180785.765114) can0 101#00DC050000 R
(1755180785.772630) can0 100#0100000000 R
(1755180785.773321) can0 101#00DC050000 R
(1755180785.774163) can0 200#00980EE30ECF0E R
(1755180785.775138) can0 200#01F30E00000000 R
(1755180785.776133) can0 201#292F000000000000 R
(1755180785.777103) can0 202#753B0000A5010000 R
(1755180785.781369) can0 100#0100000000 R
(1755180785.782121) can0 101#00DC050000 R
(1755180785.789652) can0 100#0100000000 R
(1755180785.790333) can0 101#00DC050000 R
(1755180785.798404) can0 100#0100000000 R
(1755180785.799138) can0 101#00DC050000 R
(1755180785.806628) can0 100#0100000000 R
(1755180785.807398) can0 101#00DC050000 R
(1755180785.815387) can0 100#0100000000 R
(1755180785.816157) can0 101#00DC050000 R
(1755180785.823769) can0 100#0100000000 R
(1755180785.824436) can0 101#00DC050000 R
(1755180785.832403) can0 100#0100000000 R
(1755180785.833229) can0 101#00DC050000 R
(1755180785.840760) can0 100#0100000000 R
(1755180785.841475) can0 101#00DC050000 R
(1755180785.849403) can0 100#0100000000 R
(1755180785.850172) can0 101#00DC050000 R
(1755180785.857767) can0 100#0100000000 R
(1755180785.858478) can0 101#00DC050000 R
(1755180785.866449) can0 100#0100000000 R
(1755180785.867151) can0 101#00DC050000 R
(1755180785.874769) can0 100#0100000000 R
(1755180785.875515) can0 101#00DC050000 R
(1755180785.883502) can0 100#0100000000 R
(1755180785.884198) can0 101#00DC050000 R
(1755180785.891797) can0 100#0100000000 R
(1755180785.892609) can0 101#00DC050000 R
(1755180785.900461) can0 100#0100000000 R
(1755180785.901242) can0 101#00DC050000 R
(1755180785.908794) can0 100#0100000000 R
(1755180785.909510) can0 101#00DC050000 R
(1755180785.917503) can0 100#0100000000 R
(1755180785.918252) can0 101#00DC050000 R
(1755180785.924259) can0 211#0000000000000000 R
(1755180785.925951) can0 100#0100000000 R
(1755180785.926773) can0 101#00DC050000 R
(1755180785.932473) can0 210#0000000000000000 R
(1755180785.934524) can0 100#0100000000 R
(1755180785.935295) can0 101#00DC050000 R
(1755180785.942884) can0 100#0100000000 R
(1755180785.943535) can0 101#00DC050000 R
(1755180785.951609) can0 100#0100000000 R
(1755180785.952290) can0 101#00DC050000 R
(1755180785.953096) can0 204#0000 R
(1755180785.953556) can0 203#201D R
(1755180785.959917) can0 100#0100000000 R
(1755180785.960673) can0 101#00DC050000 R
(1755180785.968653) can0 100#0100000000 R
(1755180785.969332) can0 101#00DC050000 R
(1755180785.975460) can0 200#00AA0EED0EBB0E R
(1755180785.976303) can0 200#01E20E00000000 R
(1755180785.977143) can0 100#0100000000 R
(1755180785.977906) can0 101#00DC050000 R
(1755180785.978873) can0 201#292F000000000000 R
(1755180785.979830) can0 202#903B0000A5010000 R
(1755180785.985637) can0 100#0100000000 R
(1755180785.986420) can0 101#00DC050000 R
(1755180785.993894) can0 100#0100000000 R
(1755180785.994721) can0 101#00DC050000 R
(1755180786.002691) can0 100#0100000000 R
(1755180786.003360) can0 101#00DC050000 R
(1755180786.010904) can0 100#0100000000 R
(1755180786.011747) can0 101#00DC050000 R
(1755180786.019768) can0 100#0100000000 R
(1755180786.020433) can0 101#00DC050000 R
(1755180786.027994) can0 100#0100000000 R
(1755180786.028772) can0 101#00DC050000 R
(1755180786.036682) can0 100#0100000000 R
(1755180786.037429) can0 101#00DC050000 R
(1755180786.044941) can0 100#0100000000 R
(1755180786.045756) can0 101#00DC050000 R
(1755180786.053758) can0 100#0100000000 R
(1755180786.054476) can0 101#00DC050000 R
(1755180786.062031) can0 100#0100000000 R
(1755180786.062836) can0 101#00DC050000 R
(1755180786.070836) can0 100#0100000000 R
(1755180786.071465) can0 101#00DC050000 R
(1755180786.078988) can0 100#0100000000 R
(1755180786.079758) can0 101#00DC050000 R
(1755180786.087758) can0 100#0100000000 R
(1755180786.088506) can0 101#00DC050000 R
(1755180786.096092) can0 100#0100000000 R
(1755180786.096831) can0 101#00DC050000 R
(1755180786.104761) can0 100#0100000000 R
(1755180786.105504) can0 101#00DC050000 R
(1755180786.113151) can0 100#0100000000 R
(1755180786.113895) can0 101#00DC050000 R
(1755180786.121856) can0 100#0100000000 R
(1755180786.122548) can0 101#00DC050000 R
(1755180786.124188) can0 211#0000000000000000 R
(1755180786.130183) can0 100#0100000000 R
(1755180786.130951) can0 101#00DC050000 R
(1755180786.132480) can0 210#0000000000000000 R
(1755180786.138793) can0 100#0100000000 R
(1755180786.139583) can0 101#00DC050000 R
(1755180786.147103) can0 100#0100000000 R
(1755180786.147904) can0 101#00DC050000 R
(1755180786.153005) can0 204#0000 R
(1755180786.153531) can0 203#D71C R
(1755180786.155836) can0 100#0100000000 R
(1755180786.156585) can0 101#00DC050000 R
(1755180786.164150) can0 100#0100000000 R
(1755180786.164967) can0 101#00DC050000 R
(1755180786.172953) can0 100#0100000000 R
(1755180786.173700) can0 101#00DC050000 R
(1755180786.177620) can0 200#00980EF50EE80E R
(1755180786.178482) can0 200#01D10E00000000 R
(1755180786.179476) can0 201#6D2F000000000000 R
(1755180786.180406) can0 202#873B0000A5010000 R
(1755180786.181265) can0 100#0100000000 R
(1755180786.182015) can0 101#00DC050000 R
(1755180786.189877) can0 100#0100000000 R
(1755180786.190687) can0 101#00DC050000 R
(1755180786.198234) can0 100#0100000000 R
(1755180786.198989) can0 101#00DC050000 R
(1755180786.207005) can0 100#0100000000 R
(1755180786.207789) can0 101#00DC050000 R
(1755180786.215210) can0 100#0100000000 R
(1755180786.215950) can0 101#00DC050000 R
(1755180786.223937) can0 100#0100000000 R
(1755180786.224719) can0 101#00DC050000 R
(1755180786.232301) can0 100#0100000000 R
(1755180786.233051) can0 101#00DC050000 R
(1755180786.241041) can0 100#0100000000 R
(1755180786.241828) can0 101#00DC050000 R
(1755180786.249302) can0 100#0100000000 R
(1755180786.250069) can0 101#00DC050000 R
(1755180786.258071) can0 100#0100000000 R
(1755180786.258825) can0 101#00DC050000 R
(1755180786.266396) can0 100#0100000000 R
(1755180786.267165) can0 101#00DC050000 R
(1755180786.275082) can0 100#0100000000 R
(1755180786.275768) can0 101#00DC050000 R
(1755180786.283395) can0 100#0100000000 R
(1755180786.284026) can0 101#00DC050000 R
(1755180786.292134) can0 100#0100000000 R
(1755180786.292881) can0 101#00DC050000 R
(1755180786.300390) can0 100#0100000000 R
(1755180786.301080) can0 101#00DC050000 R
(1755180786.309136) can0 100#0100000000 R
(1755180786.309806) can0 101#00DC050000 R
(1755180786.317411) can0 100#0100000000 R
(1755180786.318172) can0 101#00DC050000 R
(1755180786.324198) can0 211#0000000000000000 R
(1755180786.326223) can0 100#0100000000 R
(1755180786.326913) can0 101#00DC050000 R
(1755180786.332527) can0 210#0000000000000000 R
(1755180786.334440) can0 100#0100000000 R
(1755180786.335144) can0 101#00DC050000 R
(1755180786.343202) can0 100#0100000000 R
(1755180786.343905) can0 101#00DC050000 R
(1755180786.351480) can0 100#0100000000 R
(1755180786.352141) can0 101#00DC050000 R
(1755180786.353094) can0 204#0000 R
(1755180786.353565) can0 203#971C R
(1755180786.360202) can0 100#0100000000 R
(1755180786.360892) can0 101#00DC050000 R
(1755180786.368450) can0 100#0100000000 R
(1755180786.369169) can0 101#00DC050000 R
(1755180786.377282) can0 100#0100000000 R
(1755180786.377958) can0 101#00DC050000 R
(1755180786.380260) can0 200#00A10EF60ECC0E R
(1755180786.381252) can0 200#01D10E00000000 R
(1755180786.382196) can0 201#2E2F000000000000 R
(1755180786.383170) can0 202#903B0000A5010000 R
(1755180786.385472) can0 100#0100000000 R
(1755180786.386261) can0 101#00DC050000 R
(1755180786.394259) can0 100#0100000000 R
(1755180786.394910) can0 101#00DC050000 R
(1755180786.402533) can0 100#0100000000 R
(1755180786.403294) can0 101#00DC050000 R
(1755180786.411286) can0 100#0100000000 R
(1755180786.411976) can0 101#00DC050000 R
(1755180786.419640) can0 100#0100000000 R
(1755180786.420326) can0 101#00DC050000 R
(1755180786.428317) can0 100#0100000000 R
(1755180786.429045) can0 101#00DC050000 R
(1755180786.436528) can0 100#0100000000 R
(1755180786.437253) can0 101#00DC050000 R
(1755180786.445355) can0 100#0100000000 R
(1755180786.446019) can0 101#00DC050000 R
(1755180786.453536) can0 100#0100000000 R
(1755180786.454286) can0 101#00DC050000 R
(1755180786.462377) can0 100#0100000000 R
(1755180786.463023) can0 101#00DC050000 R
(1755180786.470574) can0 100#0100000000 R
(1755180786.471303) can0 101#00DC050000 R
(1755180786.479329) can0 100#0100000000 R
(1755180786.480052) can0 101#00DC050000 R
(1755180786.487579) can0 100#0100000000 R
(1755180786.488306) can0 101#00DC050000 R
(1755180786.496326) can0 100#0100000000 R
(1755180786.497135) can0 101#00DC050000 R
(1755180786.504726) can0 100#0100000000 R
(1755180786.505441) can0 101#00DC050000 R
(1755180786.513366) can0 100#0100000000 R
(1755180786.514161) can0 101#00DC050000 R
(1755180786.521834) can0 100#0100000000 R
(1755180786.522487) can0 101#00DC050000 R
(1755180786.524194) can0 211#0000000000000000 R
(1755180786.530410) can0 100#0100000000 R
(1755180786.531143) can0 101#00DC050000 R
(1755180786.532480) can0 210#0000000000000000 R
(1755180786.538819) can0 100#0100000000 R
(1755180786.539498) can0 101#00DC050000 R
(1755180786.547421) can0 100#0100000000 R
(1755180786.548159) can0 101#00DC050000 R
(1755180786.553848) can0 204#0000 R
(1755180786.554365) can0 203#C01C R
(1755180786.555753) can0 100#0100000000 R
(1755180786.556505) can0 101#00DC050000 R
(1755180786.564448) can0 100#0100000000 R
(1755180786.565192) can0 101#00DC050000 R
(1755180786.572755) can0 100#0100000000 R
(1755180786.573432) can0 101#00DC050000 R
(1755180786.581483) can0 100#0100000000 R
(1755180786.582244) can0 101#00DC050000 R
(1755180786.583110) can0 200#00A10EDA0ECF0E R
(1755180786.583982) can0 200#01EA0E00000000 R
(1755180786.585042) can0 201#122F000000000000 R
(1755180786.585984) can0 202#753B0000A5010000 R
(1755180786.589928) can0 100#0100000000 R
(1755180786.590654) can0 101#00DC050000 R
(1755180786.598463) can0 100#0100000000 R
(1755180786.599240) can0 101#00DC050000 R
(1755180786.606827) can0 100#0100000000 R
(1755180786.607524) can0 101#00DC050000 R
(1755180786.615508) can0 100#0100000000 R
(1755180786.616342) can0 101#00DC050000 R
(1755180786.623809) can0 100#0100000000 R
(1755180786.624533) can0 101#00DC050000 R
(1755180786.632559) can0 100#0100000000 R
(1755180786.633334) can0 101#00DC050000 R
(1755180786.640877) can0 100#0100000000 R
(1755180786.641628) can0 101#00DC050000 R
(1755180786.649526) can0 100#0100000000 R
(1755180786.650291) can0 101#00DC050000 R
(1755180786.657896) can0 100#0100000000 R
(1755180786.658650) can0 101#00DC050000 R
(1755180786.666628) can0 100#0100000000 R
(1755180786.667399) can0 101#00DC050000 R
(1755180786.674886) can0 100#0100000000 R
(1755180786.675634) can0 101#00DC050000 R
(1755180786.683570) can0 100#0100000000 R
(1755180786.684342) can0 101#00DC050000 R
(1755180786.691940) can0 100#0100000000 R
(1755180786.692760) can0 101#00DC050000 R
(1755180786.700685) can0 100#0100000000 R
(1755180786.701423) can0 101#00DC050000 R
(1755180786.708951) can0 100#0100000000 R
(1755180786.709734) can0 101#00DC050000 R
(1755180786.717728) can0 100#0100000000 R
(1755180786.718449) can0 101#00DC050000 R
(1755180786.724191) can0 211#0000000000000000 R
(1755180786.725984) can0 100#0100000000 R
(1755180786.726741) can0 101#00DC050000 R
(1755180786.732475) can0 210#0000000000000000 R
(1755180786.734702) can0 100#0100000000 R
(1755180786.735453) can0 101#00DC050000 R
(1755180786.743021) can0 100#0100000000 R
(1755180786.743818) can0 101#00DC050000 R
(1755180786.751863) can0 100#0100000000 R
(1755180786.752474) can0 101#00DC050000 R
(1755180786.753060) can0 204#0000 R
(1755180786.753676) can0 203#481D R
(1755180786.759944) can0 100#0100000000 R
(1755180786.760871) can0 101#00DC050000 R
(1755180786.768873) can0 100#0100000000 R
(1755180786.769482) can0 101#00DC050000 R
(1755180786.777071) can0 100#0100000000 R
(1755180786.777820) can0 101#00DC050000 R
(1755180786.784383) can0 200#00A10EDA0EF10E R
(1755180786.785330) can0 200#01DA0E00000000 R
(1755180786.786119) can0 100#0100000000 R
(1755180786.786847) can0 101#00DC050000 R
(1755180786.787794) can0 201#182F000000000000 R
(1755180786.788747) can0 202#7E3B0000CD010000 R
(1755180786.794134) can0 100#0100000000 R
(1755180786.794864) can0 101#00DC050000 R
(1755180786.802861) can0 100#0100000000 R
(1755180786.803484) can0 101#00DC050000 R
(1755180786.811047) can0 100#0100000000 R
(1755180786.811853) can0 101#00DC050000 R
(1755180786.819872) can0 100#0100000000 R
(1755180786.820606) can0 101#00DC050000 R
(1755180786.828129) can0 100#0100000000 R
(1755180786.828796) can0 101#00DC050000 R
(1755180786.836895) can0 100#0100000000 R
(1755180786.837564) can0 101#00DC050000 R
(1755180786.845211) can0 100#0100000000 R
(1755180786.845896) can0 101#00DC050000 R
(1755180786.853870) can0 100#0100000000 R
(1755180786.854553) can0 101#00DC050000 R
(1755180786.862197) can0 100#0100000000 R
(1755180786.862886) can0 101#00DC050000 R
(1755180786.870983) can0 100#0100000000 R
(1755180786.871687) can0 101#00DC050000 R
(1755180786.879207) can0 100#0100000000 R
(1755180786.879900) can0 101#00DC050000 R
(1755180786.887922) can0 100#0100000000 R
(1755180786.888674) can0 101#00DC050000 R
(1755180786.896251) can0 100#0100000000 R
(1755180786.897040) can0 101#00DC050000 R
(1755180786.904873) can0 100#0100000000 R
(1755180786.905683) can0 101#00DC050000 R
(1755180786.913271) can0 100#0100000000 R
(1755180786.914059) can0 101#00DC050000 R
(1755180786.921940) can0 100#0100000000 R
(1755180786.922748) can0 101#00DC050000 R
(1755180786.924242) can0 211#0000000000000000 R
(1755180786.930216) can0 100#0100000000 R
(1755180786.931018) can0 101#00DC050000 R
(1755180786.932421) can0 210#0000000000000000 R
(1755180786.938978) can0 100#0100000000 R
(1755180786.939817) can0 101#00DC050000 R
(1755180786.947326) can0 100#0100000000 R
(1755180786.948062) can0 101#00DC050000 R
(1755180786.953064) can0 204#0000 R
(1755180786.953613) can0 203#201D R
(1755180786.956026) can0 100#0100000000 R
(1755180786.956839) can0 101#00DC050000 R
(1755180786.964402) can0 100#0100000000 R
(1755180786.965216) can0 101#00DC050000 R
(1755180786.973091) can0 100#0100000000 R
(1755180786.973820) can0 101#00DC050000 R
(1755180786.981436) can0 100#0100000000 R
(1755180786.982193) can0 101#00DC050000 R
(1755180786.986492) can0 200#00980EFF0EDE0E R
(1755180786.987375) can0 200#01D10E00000000 R
(1755180786.988390) can0 201#6D2F000000000000 R
(1755180786.989275) can0 202#903B00007D010000 R
(1755180786.990152) can0 100#0100000000 R
(1755180786.990942) can0 101#00DC050000 R
(1755180786.998385) can0 100#0100000000 R
(1755180786.999115) can0 101#00DC050000 R
(1755180787.007115) can0 100#0100000000 R
(1755180787.007887) can0 101#00DC050000 R
(1755180787.015379) can0 100#0100000000 R
(1755180787.016150) can0 101#00DC050000 R
(1755180787.024125) can0 100#0100000000 R
(1755180787.024897) can0 101#00DC050000 R
(1755180787.032497) can0 100#0100000000 R
(1755180787.033204) can0 101#00DC050000 R
(1755180787.041215) can0 100#0100000000 R
(1755180787.041885) can0 101#00DC050000 R
(1755180787.049400) can0 100#0100000000 R
(1755180787.050132) can0 101#00DC050000 R
(1755180787.058217) can0 100#0100000000 R
(1755180787.058929) can0 101#00DC050000 R
(1755180787.066504) can0 100#0100000000 R
(1755180787.067187) can0 101#00DC050000 R
(1755180787.075213) can0 100#0100000000 R
(1755180787.075975) can0 101#00DC050000 R
(1755180787.083542) can0 100#0100000000 R
(1755180787.084226) can0 101#00DC050000 R
(1755180787.092241) can0 100#0100000000 R
(1755180787.092977) can0 101#00DC050000 R
(1755180787.100644) can0 100#0100000000 R
(1755180787.101318) can0 101#00DC050000 R
(1755180787.109264) can0 100#0100000000 R
(1755180787.110018) can0 101#00DC050000 R
(1755180787.117520) can0 100#0100000000 R
(1755180787.118283) can0 101#00DC050000 R
(1755180787.124204) can0 211#0000000000000000 R
(1755180787.126308) can0 100#0100000000 R
(1755180787.127098) can0 101#00DC050000 R
(1755180787.132456) can0 210#0000000000000000 R
(1755180787.134537) can0 100#0100000000 R
(1755180787.135286) can0 101#00DC050000 R
(1755180787.143350) can0 100#0100000000 R
(1755180787.144010) can0 101#00DC050000 R
(1755180787.151729) can0 100#0100000000 R
(1755180787.152352) can0 101#00DC050000 R
(1755180787.153082) can0 204#0000 R
(1755180787.153659) can0 203#D71C R
(1755180787.160343) can0 100#0100000000 R
(1755180787.161088) can0 101#00DC050000 R
(1755180787.168549) can0 100#0100000000 R
(1755180787.169293) can0 101#00DC050000 R
(1755180787.177388) can0 100#0100000000 R
(1755180787.178030) can0 101#00DC050000 R
(1755180787.185585) can0 100#0100000000 R
(1755180787.186306) can0 101#00DC050000 R
(1755180787.188751) can0 200#00A10EE30EC60E R
(1755180787.189665) can0 200#01EA0E00000000 R
(1755180787.190583) can0 201#782F000000000000 R
(1755180787.191548) can0 202#7E3B0000A5010000 R
(1755180787.194308) can0 100#0100000000 R
(1755180787.195067) can0 101#00DC050000 R
(1755180787.202773) can0 100#0100000000 R
(1755180787.203424) can0 101#00DC050000 R
(1755180787.211347) can0 100#0100000000 R
(1755180787.212115) can0 101#00DC050000 R
(1755180787.219680) can0 100#0100000000 R
(1755180787.220379) can0 101#00DC050000 R
(1755180787.228349) can0 100#0100000000 R
(1755180787.229141) can0 101#00DC050000 R
(1755180787.236681) can0 100#0100000000 R
(1755180787.237381) can0 101#00DC050000 R
(1755180787.245407) can0 100#0100000000 R
(1755180787.246129) can0 101#00DC050000 R
(1755180787.253671) can0 100#0100000000 R
(1755180787.254415) can0 101#00DC050000 R
(1755180787.262432) can0 100#0100000000 R
(1755180787.263249) can0 101#00DC050000 R
(1755180787.270747) can0 100#0100000000 R
(1755180787.271444) can0 101#00DC050000 R
(1755180787.279435) can0 100#0100000000 R
(1755180787.280175) can0 101#00DC050000 R
(1755180787.287758) can0 100#0100000000 R
(1755180787.288486) can0 101#00DC050000 R
(1755180787.296470) can0 100#0100000000 R
(1755180787.297294) can0 101#00DC050000 R
(1755180787.304794) can0 100#0100000000 R
(1755180787.305485) can0 101#00DC050000 R
(1755180787.313488) can0 100#0100000000 R
(1755180787.314252) can0 101#00DC050000 R
(1755180787.321826) can0 100#0100000000 R
(1755180787.322526) can0 101#00DC050000 R
(1755180787.324168) can0 211#0000000000000000 R
(1755180787.330507) can0 100#0100000000 R
(1755180787.331249) can0 101#00DC050000 R
(1755180787.332456) can0 210#0000000000000000 R
(1755180787.338879) can0 100#0100000000 R
(1755180787.339652) can0 101#00DC050000 R
(1755180787.347559) can0 100#0100000000 R
(1755180787.348303) can0 101#00DC050000 R
(1755180787.353096) can0 204#0000 R
(1755180787.353533) can0 203#C01C R
(1755180787.355893) can0 100#0100000000 R
(1755180787.356619) can0 101#00DC050000 R
(1755180787.364555) can0 100#0100000000 R
(1755180787.365298) can0 101#00DC050000 R
(1755180787.372940) can0 100#0100000000 R
(1755180787.373563) can0 101#00DC050000 R
(1755180787.381622) can0 100#0100000000 R
(1755180787.382386) can0 101#00DC050000 R
(1755180787.389946) can0 100#0100000000 R
(1755180787.390737) can0 101#00DC050000 R
(1755180787.391481) can0 200#00A10EE30EC60E R
(1755180787.392430) can0 200#01E00E00000000 R
(1755180787.393353) can0 201#622F000000000000 R
(1755180787.394331) can0 202#7E3B0000A5010000 R
(1755180787.398645) can0 100#0100000000 R
(1755180787.399417) can0 101#00DC050000 R
(1755180787.406976) can0 100#0100000000 R
(1755180787.407743) can0 101#00DC050000 R
(1755180787.415753) can0 100#0100000000 R
(1755180787.416410) can0 101#00DC050000 R
(1755180787.423945) can0 100#0100000000 R
(1755180787.424758) can0 101#00DC050000 R
(1755180787.432836) can0 100#0100000000 R
(1755180787.433435) can0 101#00DC050000 R
(1755180787.441123) can0 100#0100000000 R
(1755180787.441760) can0 101#00DC050000 R
(1755180787.449855) can0 100#0100000000 R
(1755180787.450420) can0 101#00DC050000 R
(1755180787.457945) can0 100#0100000000 R
(1755180787.458735) can0 101#00DC050000 R
(1755180787.466778) can0 100#0100000000 R
(1755180787.467477) can0 101#00DC050000 R
(1755180787.474986) can0 100#0100000000 R
(1755180787.475732) can0 101#00DC050000 R
(1755180787.483742) can0 100#0100000000 R
(1755180787.484486) can0 101#00DC050000 R
(1755180787.491990) can0 100#0100000000 R
(1755180787.492786) can0 101#00DC050000 R
(1755180787.500782) can0 100#0100000000 R
(1755180787.501520) can0 101#00DC050000 R
(1755180787.509051) can0 100#0100000000 R
(1755180787.509769) can0 101#00DC050000 R
(1755180787.517782) can0 100#0100000000 R
(1755180787.518546) can0 101#00DC050000 R
(1755180787.524281) can0 211#0000000000000000 R
(1755180787.526232) can0 100#0100000000 R
(1755180787.526982) can0 101#00DC050000 R
(1755180787.532492) can0 210#0000000000000000 R
(1755180787.534874) can0 100#0100000000 R
(1755180787.535559) can0 101#00DC050000 R
(1755180787.543155) can0 100#0100000000 R
(1755180787.543814) can0 101#00DC050000 R
(1755180787.551887) can0 100#0100000000 R
(1755180787.552616) can0 101#00DC050000 R
(1755180787.553110) can0 204#0000 R
(1755180787.553662) can0 203#061D R
(1755180787.560120) can0 100#0100000000 R
(1755180787.560860) can0 101#00DC050000 R
(1755180787.568895) can0 100#0100000000 R
(1755180787.569691) can0 101#00DC050000 R
(1755180787.577214) can0 100#0100000000 R
(1755180787.577870) can0 101#00DC050000 R
(1755180787.585957) can0 100#0100000000 R
(1755180787.586740) can0 101#00DC050000 R
(1755180787.593276) can0 200#00A10EC80ED00E R
(1755180787.594179) can0 200#01FB0E00000000 R
(1755180787.594873) can0 100#0100000000 R
(1755180787.595659) can0 101#00DC050000 R
(1755180787.596726) can0 201#012F000000000000 R
(1755180787.597566) can0 202#623B0000A5010000 R
(1755180787.602969) can0 100#0100000000 R
(1755180787.603727) can0 101#00DC050000 R
(1755180787.611198) can0 100#0100000000 R
(1755180787.611903) can0 101#00DC050000 R
(1755180787.620021) can0 100#0100000000 R
(1755180787.620739) can0 101#00DC050000 R
(1755180787.628311) can0 100#0100000000 R
(1755180787.629061) can0 101#00DC050000 R
(1755180787.637017) can0 100#0100000000 R
(1755180787.637801) can0 101#00DC050000 R
(1755180787.645322) can0 100#0100000000 R
(1755180787.645991) can0 101#00DC050000 R
(1755180787.654056) can0 100#0100000000 R
(1755180787.654812) can0 101#00DC050000 R
(1755180787.662400) can0 100#0100000000 R
(1755180787.663095) can0 101#00DC050000 R
(1755180787.671058) can0 100#0100000000 R
(1755180787.671834) can0 101#00DC050000 R
(1755180787.679372) can0 100#0100000000 R
(1755180787.680035) can0 101#00DC050000 R
(1755180787.688123) can0 100#0100000000 R
(1755180787.688820) can0 101#00DC050000 R
(1755180787.696378) can0 100#0100000000 R
(1755180787.697110) can0 101#00DC050000 R
(1755180787.705131) can0 100#0100000000 R
(1755180787.705805) can0 101#00DC050000 R
(1755180787.713402) can0 100#0100000000 R
(1755180787.714076) can0 101#00DC050000 R
(1755180787.722122) can0 100#0100000000 R
(1755180787.722883) can0 101#00DC050000 R
(1755180787.724270) can0 211#0000000000000000 R
(1755180787.730422) can0 100#0100000000 R
(1755180787.731229) can0 101#00DC050000 R
(1755180787.732491) can0 210#0000000000000000 R
(1755180787.739187) can0 100#0100000000 R
(1755180787.739928) can0 101#00DC050000 R
(1755180787.747396) can0 100#0100000000 R
(1755180787.748232) can0 101#00DC050000 R
(1755180787.753067) can0 204#0000 R
(1755180787.753562) can0 203#481D R
(1755180787.756185) can0 100#0100000000 R
(1755180787.756869) can0 101#00DC050000 R
(1755180787.764462) can0 100#0100000000 R
(1755180787.765149) can0 101#00DC050000 R
(1755180787.773152) can0 100#0100000000 R
(1755180787.773907) can0 101#00DC050000 R
(1755180787.781441) can0 100#0100000000 R
(1755180787.782176) can0 101#00DC050000 R
(1755180787.790165) can0 100#0100000000 R
(1755180787.790887) can0 101#00DC050000 R
(1755180787.794441) can0 200#00A10EDA0EC60E R
(1755180787.795333) can0 200#01F30E00000000 R
(1755180787.796332) can0 201#0C2F000000000000 R
(1755180787.797351) can0 202#753B0000A5010000 R
(1755180787.798486) can0 100#0100000000 R
(1755180787.799222) can0 101#00DC050000 R
(1755180787.807304) can0 100#0100000000 R
(1755180787.807951) can0 101#00DC050000 R
(1755180787.815578) can0 100#0100000000 R
(1755180787.816324) can0 101#00DC050000 R
(1755180787.824276) can0 100#0100000000 R
(1755180787.824993) can0 101#00DC050000 R
(1755180787.832511) can0 100#0100000000 R
(1755180787.833266) can0 101#00DC050000 R
(1755180787.841266) can0 100#0100000000 R
(1755180787.842010) can0 101#00DC050000 R
(1755180787.849731) can0 100#0100000000 R
(1755180787.850380) can0 101#00DC050000 R
(1755180787.858281) can0 100#0100000000 R
(1755180787.859115) can0 101#00DC050000 R
(1755180787.866589) can0 100#0100000000 R
(1755180787.867304) can0 101#00DC050000 R
(1755180787.875325) can0 100#0100000000 R
(1755180787.876069) can0 101#00DC050000 R
(1755180787.883558) can0 100#0100000000 R
(1755180787.884329) can0 101#00DC050000 R
(1755180787.892411) can0 100#0100000000 R
(1755180787.893134) can0 101#00DC050000 R
(1755180787.900723) can0 100#0100000000 R
(1755180787.901345) can0 101#00DC050000 R
(1755180787.909406) can0 100#0100000000 R
(1755180787.910070) can0 101#00DC050000 R
(1755180787.917657) can0 100#0100000000 R
(1755180787.918350) can0 101#00DC050000 R
(1755180787.924145) can0 211#0000000000000000 R
(1755180787.926401) can0 100#0100000000 R
(1755180787.927157) can0 101#00DC050000 R
(1755180787.932464) can0 210#0000000000000000 R
(1755180787.934733) can0 100#0100000000 R
(1755180787.935505) can0 101#00DC050000 R
(1755180787.943413) can0 100#0100000000 R
(1755180787.944164) can0 101#00DC050000 R
(1755180787.951841) can0 100#0100000000 R
(1755180787.952459) can0 101#00DC050000 R
(1755180787.953155) can0 204#0000 R
(1755180787.953836) can0 203#201D R
(1755180787.960462) can0 100#0100000000 R
(1755180787.961175) can0 101#00DC050000 R
(1755180787.968849) can0 100#0100000000 R
(1755180787.969516) can0 101#00DC050000 R
(1755180787.977409) can0 100#0100000000 R
(1755180787.978271) can0 101#00DC050000 R
(1755180787.985831) can0 100#0100000000 R
(1755180787.986467) can0 101#00DC050000 R
(1755180787.994453) can0 100#0100000000 R
(1755180787.995199) can0 101#00DC050000 R
(1755180787.996403) can0 200#00980ED10EE10E R
(1755180787.997286) can0 200#01F30E00000000 R
(1755180787.998275) can0 201#672F000000000000 R
(1755180787.999195) can0 202#623B0000A5010000 R
(1755180788.002757) can0 100#0100000000 R
(1755180788.003467) can0 101#00DC050000 R
(1755180788.011533) can0 100#0100000000 R
(1755180788.012270) can0 101#00DC050000 R
(1755180788.019839) can0 100#0100000000 R
(1755180788.020543) can0 101#00DC050000 R
(1755180788.028533) can0 100#0100000000 R
(1755180788.029274) can0 101#00DC050000 R
(1755180788.036977) can0 100#0100000000 R
(1755180788.037722) can0 101#00DC050000 R
(1755180788.045607) can0 100#0100000000 R
(1755180788.046351) can0 101#00DC050000 R
(1755180788.053873) can0 100#0100000000 R
(1755180788.054592) can0 101#00DC050000 R
(1755180788.062565) can0 100#0100000000 R
(1755180788.063340) can0 101#00DC050000 R
(1755180788.071017) can0 100#0100000000 R
(1755180788.071758) can0 101#00DC050000 R
(1755180788.079702) can0 100#0100000000 R
(1755180788.080335) can0 101#00DC050000 R
(1755180788.087924) can0 100#0100000000 R
(1755180788.088673) can0 101#00DC050000 R
(1755180788.096705) can0 100#0100000000 R
(1755180788.097444) can0 101#00DC050000 R
(1755180788.104887) can0 100#0100000000 R
(1755180788.105653) can0 101#00DC050000 R
(1755180788.113725) can0 100#0100000000 R
(1755180788.114427) can0 101#00DC050000 R
(1755180788.122024) can0 100#0100000000 R
(1755180788.122633) can0 101#00DC050000 R
(1755180788.124253) can0 211#0000000000000000 R
(1755180788.130844) can0 100#0100000000 R
(1755180788.131455) can0 101#00DC050000 R
(1755180788.132497) can0 210#0000000000000000 R
(1755180788.139022) can0 100#0100000000 R
(1755180788.139868) can0 101#00DC050000 R
(1755180788.147721) can0 100#0100000000 R
(1755180788.148497) can0 101#00DC050000 R
(1755180788.153038) can0 204#0000 R
(1755180788.153584) can0 203#971C R
(1755180788.155963) can0 100#0100000000 R
(1755180788.156790) can0 101#00DC050000 R
(1755180788.164835) can0 100#0100000000 R
(1755180788.165543) can0 101#00DC050000 R
(1755180788.173067) can0 100#0100000000 R
(1755180788.173808) can0 101#00DC050000 R
(1755180788.181824) can0 100#0100000000 R
(1755180788.182487) can0 101#00DC050000 R
(1755180788.190019) can0 100#0100000000 R
(1755180788.190818) can0 101#00DC050000 R
(1755180788.198831) can0 100#0100000000 R
(1755180788.199546) can0 101#00DC050000 R
(1755180788.200359) can0 200#00A10EC80ED00E R
(1755180788.201259) can0 200#01F10E00000000 R
(1755180788.202306) can0 201#512F000000000000 R
(1755180788.203297) can0 202#623B0000A5010000 R
(1755180788.207112) can0 100#0100000000 R
(1755180788.207866) can0 101#00DC050000 R
(1755180788.215838) can0 100#0100000000 R
(1755180788.216620) can0 101#00DC050000 R
(1755180788.224138) can0 100#0100000000 R
(1755180788.224870) can0 101#00DC050000 R
(1755180788.232880) can0 100#0100000000 R
(1755180788.233624) can0 101#00DC050000 R
(1755180788.241228) can0 100#0100000000 R
(1755180788.241955) can0 101#00DC050000 R
(1755180788.249879) can0 100#0100000000 R
(1755180788.250705) can0 101#00DC050000 R
(1755180788.258195) can0 100#0100000000 R
(1755180788.258907) can0 101#00DC050000 R
(1755180788.266918) can0 100#0100000000 R
(1755180788.267644) can0 101#00DC050000 R
(1755180788.275240) can0 100#0100000000 R
(1755180788.276041) can0 101#00DC050000 R
(1755180788.283858) can0 100#0100000000 R
(1755180788.284650) can0 101#00DC050000 R
(1755180788.292166) can0 100#0100000000 R
(1755180788.292906) can0 101#00DC050000 R
(1755180788.300981) can0 100#0100000000 R
(1755180788.301799) can0 101#00DC050000 R
(1755180788.309184) can0 100#0100000000 R
(1755180788.309939) can0 101#00DC050000 R
(1755180788.318015) can0 100#0100000000 R
(1755180788.318785) can0 101#00DC050000 R
(1755180788.324194) can0 211#0000000000000000 R
(1755180788.326350) can0 100#0100000000 R
(1755180788.327161) can0 101#00DC050000 R
(1755180788.332472) can0 210#0000000000000000 R
(1755180788.335003) can0 100#0100000000 R
(1755180788.335788) can0 101#00DC050000 R
(1755180788.343344) can0 100#0100000000 R
(1755180788.343965) can0 101#00DC050000 R
(1755180788.351981) can0 100#0100000000 R
(1755180788.352799) can0 101#00DC050000 R
(1755180788.353249) can0 204#0000 R
(1755180788.353874) can0 203#C01C R
(1755180788.360333) can0 100#0100000000 R
(1755180788.360983) can0 101#00DC050000 R
(1755180788.369099) can0 100#0100000000 R
(1755180788.369728) can0 101#00DC050000 R
(1755180788.377366) can0 100#0100000000 R
(1755180788.378080) can0 101#00DC050000 R
(1755180788.386092) can0 100#0100000000 R
(1755180788.386816) can0 101#00DC050000 R
(1755180788.394353) can0 100#0100000000 R
(1755180788.395073) can0 101#00DC050000 R
(1755180788.400823) can0 200#00980EE30EE00E R
(1755180788.401652) can0 200#01D90E00000000 R
(1755180788.402604) can0 201#562F000000000000 R
(1755180788.403409) can0 100#0100000000 R
(1755180788.404248) can0 101#00DC050000 R
(1755180788.405072) can0 202#753B00007D010000 R
(1755180788.411394) can0 100#0100000000 R
(1755180788.412134) can0 101#00DC050000 R
(1755180788.420174) can0 100#0100000000 R
(1755180788.420873) can0 101#00DC050000 R
(1755180788.428435) can0 100#0100000000 R
(1755180788.429125) can0 101#00DC050000 R
(1755180788.437124) can0 100#0100000000 R
(1755180788.437913) can0 101#00DC050000 R
(1755180788.445390) can0 100#0100000000 R
(1755180788.446215) can0 101#00DC050000 R
(1755180788.454210) can0 100#0100000000 R
(1755180788.454856) can0 101#00DC050000 R
(1755180788.462441) can0 100#0100000000 R
(1755180788.463163) can0 101#00DC050000 R
(1755180788.471221) can0 100#0100000000 R
(1755180788.471945) can0 101#00DC050000 R
(1755180788.479516) can0 100#0100000000 R
(1755180788.480250) can0 101#00DC050000 R
(1755180788.488232) can0 100#0100000000 R
(1755180788.488889) can0 101#00DC050000 R
(1755180788.496488) can0 100#0100000000 R
(1755180788.497213) can0 101#00DC050000 R
(1755180788.505187) can0 100#0100000000 R
(1755180788.505956) can0 101#00DC050000 R
(1755180788.513455) can0 100#0100000000 R
(1755180788.514225) can0 101#00DC050000 R
(1755180788.522210) can0 100#0100000000 R
(1755180788.522972) can0 101#00DC050000 R
(1755180788.524217) can0 211#0000000000000000 R
(1755180788.530479) can0 100#0100000000 R
(1755180788.531229) can0 101#00DC050000 R
(1755180788.532481) can0 210#0000000000000000 R
(1755180788.539311) can0 100#0100000000 R
(1755180788.540052) can0 101#00DC050000 R
(1755180788.547646) can0 100#0100000000 R
(1755180788.548350) can0 101#00DC050000 R
(1755180788.553087) can0 204#0000 R
(1755180788.553576) can0 203#061D R
(1755180788.556362) can0 100#0100000000 R
(1755180788.557092) can0 101#00DC050000 R
(1755180788.564641) can0 100#0100000000 R
(1755180788.565386) can0 101#00DC050000 R
(1755180788.573384) can0 100#0100000000 R
(1755180788.574060) can0 101#00DC050000 R
(1755180788.581548) can0 100#0100000000 R
(1755180788.582315) can0 101#00DC050000 R
(1755180788.590314) can0 100#0100000000 R
(1755180788.591039) can0 101#00DC050000 R
(1755180788.598634) can0 100#0100000000 R
(1755180788.599334) can0 101#00DC050000 R
(1755180788.603891) can0 200#00980EDA0EE00E R
(1755180788.604854) can0 200#01EB0E00000000 R
(1755180788.605780) can0 201#562F000000000000 R
(1755180788.606735) can0 202#753B0000A5010000 R
(1755180788.607442) can0 100#0100000000 R
(1755180788.608250) can0 101#00DC050000 R
(1755180788.615639) can0 100#0100000000 R
(1755180788.616333) can0 101#00DC050000 R
(1755180788.624355) can0 100#0100000000 R
(1755180788.625111) can0 101#00DC050000 R
(1755180788.632715) can0 100#0100000000 R
(1755180788.633461) can0 101#00DC050000 R
(1755180788.641356) can0 100#0100000000 R
(1755180788.642168) can0 101#00DC050000 R
(1755180788.649654) can0 100#0100000000 R
(1755180788.650387) can0 101#00DC050000 R
(1755180788.658410) can0 100#0100000000 R
(1755180788.659159) can0 101#00DC050000 R
(1755180788.666741) can0 100#0100000000 R
(1755180788.667437) can0 101#00DC050000 R
(1755180788.675396) can0 100#0100000000 R
(1755180788.676184) can0 101#00DC050000 R
(1755180788.683728) can0 100#0100000000 R
(1755180788.684456) can0 101#00DC050000 R
(1755180788.692437) can0 100#0100000000 R
(1755180788.693193) can0 101#00DC050000 R
(1755180788.700779) can0 100#0100000000 R
(1755180788.701463) can0 101#00DC050000 R
(1755180788.709463) can0 100#0100000000 R
(1755180788.710237) can0 101#00DC050000 R
(1755180788.717792) can0 100#0100000000 R
(1755180788.718520) can0 101#00DC050000 R
(1755180788.724188) can0 211#0000000000000000 R
(1755180788.726531) can0 100#0100000000 R
(1755180788.727272) can0 101#00DC050000 R
(1755180788.732486) can0 210#0000000000000000 R
(1755180788.734759) can0 100#0100000000 R
(1755180788.735533) can0 101#00DC050000 R
(1755180788.743519) can0 100#0100000000 R
(1755180788.744280) can0 101#00DC050000 R
(1755180788.751909) can0 100#0100000000 R
(1755180788.752564) can0 101#00DC050000 R
(1755180788.753307) can0 204#0000 R
(1755180788.753837) can0 203#481D R
(1755180788.760568) can0 100#0100000000 R
(1755180788.761281) can0 101#00DC050000 R
(1755180788.768889) can0 100#0100000000 R
(1755180788.769707) can0 101#00DC050000 R
(1755180788.777735) can0 100#0100000000 R
(1755180788.778348) can0 101#00DC050000 R
(1755180788.785902) can0 100#0100000000 R
(1755180788.786706) can0 101#00DC050000 R
(1755180788.794656) can0 100#0100000000 R
(1755180788.795332) can0 101#00DC050000 R
(1755180788.802989) can0 100#0100000000 R
(1755180788.803717) can0 101#00DC050000 R
(1755180788.805406) can0 200#00980EE30ECF0E R
(1755180788.806324) can0 200#01EA0E00000000 R
(1755180788.807346) can0 201#0C2F000000000000 R
(1755180788.808249) can0 202#753B0000A5010000 R
(1755180788.811672) can0 100#0100000000 R
(1755180788.812404) can0 101#00DC050000 R
(1755180788.819945) can0 100#0100000000 R
(1755180788.820657) can0 101#00DC050000 R
(1755180788.828716) can0 100#0100000000 R
(1755180788.829423) can0 101#00DC050000 R
(1755180788.836964) can0 100#0100000000 R
(1755180788.837716) can0 101#00DC050000 R
(1755180788.845784) can0 100#0100000000 R
(1755180788.846440) can0 101#00DC050000 R
(1755180788.853930) can0 100#0100000000 R
(1755180788.854703) can0 101#00DC050000 R
(1755180788.862785) can0 100#0100000000 R
(1755180788.863450) can0 101#00DC050000 R
(1755180788.871064) can0 100#0100000000 R
(1755180788.871720) can0 101#00DC050000 R
(1755180788.879778) can0 100#0100000000 R
(1755180788.880454) can0 101#00DC050000 R
(1755180788.888013) can0 100#0100000000 R
(1755180788.888781) can0 101#00DC050000 R
(1755180788.896781) can0 100#0100000000 R
(1755180788.897480) can0 101#00DC050000 R
(1755180788.905167) can0 100#0100000000 R
(1755180788.905867) can0 101#00DC050000 R
(1755180788.913796) can0 100#0100000000 R
(1755180788.914532) can0 101#00DC050000 R
(1755180788.922049) can0 100#0100000000 R
(1755180788.922797) can0 101#00DC050000 R
(1755180788.924235) can0 211#0000000000000000 R
(1755180788.930802) can0 100#0100000000 R
(1755180788.931569) can0 101#00DC050000 R
(1755180788.932582) can0 210#0000000000000000 R
(1755180788.939248) can0 100#0100000000 R
(1755180788.939911) can0 101#00DC050000 R
(1755180788.947824) can0 100#0100000000 R
(1755180788.948638) can0 101#00DC050000 R
(1755180788.953097) can0 204#0000 R
(1755180788.953597) can0 203#D71C R
(1755180788.956097) can0 100#0100000000 R
(1755180788.956829) can0 101#00DC050000 R
(1755180788.964907) can0 100#0100000000 R
(1755180788.965708) can0 101#00DC050000 R
(1755180788.973140) can0 100#0100000000 R
(1755180788.973937) can0 101#00DC050000 R
(1755180788.981889) can0 100#0100000000 R
(1755180788.982701) can0 101#00DC050000 R
(1755180788.990119) can0 100#0100000000 R
(1755180788.990936) can0 101#00DC050000 R
(1755180788.998929) can0 100#0100000000 R
(1755180788.999705) can0 101#00DC050000 R
(1755180789.006435) can0 200#00980EDA0EE00E R
(1755180789.007330) can0 200#01EB0E00000000 R
(1755180789.008152) can0 100#0100000000 R
(1755180789.008897) can0 101#00DC050000 R
(1755180789.009895) can0 201#122F000000000000 R
(1755180789.010841) can0 202#753B0000A5010000 R
(1755180789.015992) can0 100#0100000000 R
(1755180789.016780) can0 101#00DC050000 R
(1755180789.024178) can0 100#0100000000 R
(1755180789.024925) can0 101#00DC050000 R
(1755180789.032942) can0 100#0100000000 R
(1755180789.033814) can0 101#00DC050000 R
(1755180789.041383) can0 100#0100000000 R
(1755180789.042065) can0 101#00DC050000 R
(1755180789.049967) can0 100#0100000000 R
(1755180789.050772) can0 101#00DC050000 R
(1755180789.058415) can0 100#0100000000 R
(1755180789.059099) can0 101#00DC050000 R
(1755180789.066970) can0 100#0100000000 R
(1755180789.067740) can0 101#00DC050000 R
(1755180789.075345) can0 100#0100000000 R
(1755180789.076078) can0 101#00DC050000 R
(1755180789.084000) can0 100#0100000000 R
(1755180789.084836) can0 101#00DC050000 R
(1755180789.092396) can0 100#0100000000 R
(1755180789.093165) can0 101#00DC050000 R
(1755180789.101087) can0 100#0100000000 R
(1755180789.101867) can0 101#00DC050000 R
(1755180789.109412) can0 100#0100000000 R
(1755180789.110098) can0 101#00DC050000 R
(1755180789.118179) can0 100#0100000000 R
(1755180789.119070) can0 101#00DC050000 R
(1755180789.124253) can0 211#0000000000000000 R
(1755180789.126403) can0 100#0100000000 R
(1755180789.127210) can0 101#00DC050000 R
(1755180789.132421) can0 210#0000000000000000 R
(1755180789.135215) can0 100#0100000000 R
(1755180789.135892) can0 101#00DC050000 R
(1755180789.143347) can0 100#0100000000 R
(1755180789.144159) can0 101#00DC050000 R
(1755180789.152098) can0 100#0100000000 R
(1755180789.152910) can0 101#00DC050000 R
(1755180789.153439) can0 204#0000 R
(1755180789.153929) can0 203#971C R
(1755180789.160407) can0 100#0100000000 R
(1755180789.161218) can0 101#00DC050000 R
(1755180789.169210) can0 100#0100000000 R
(1755180789.169935) can0 101#00DC050000 R
(1755180789.177522) can0 100#0100000000 R
(1755180789.178274) can0 101#00DC050000 R
(1755180789.186215) can0 100#0100000000 R
(1755180789.186977) can0 101#00DC050000 R
(1755180789.194550) can0 100#0100000000 R
(1755180789.195278) can0 101#00DC050000 R
(1755180789.203260) can0 100#0100000000 R
(1755180789.203962) can0 101#00DC050000 R
(1755180789.207418) can0 200#00980ED10EE10E R
(1755180789.208340) can0 200#01F30E00000000 R
(1755180789.209362) can0 201#672F000000000000 R
(1755180789.210219) can0 202#623B0000A5010000 R
(1755180789.211459) can0 100#0100000000 R
(1755180789.212234) can0 101#00DC050000 R
(1755180789.220283) can0 100#0100000000 R
(1755180789.220966) can0 101#00DC050000 R
(1755180789.228720) can0 100#0100000000 R
(1755180789.229318) can0 101#00DC050000 R
(1755180789.237234) can0 100#0100000000 R
(1755180789.238005) can0 101#00DC050000 R
(1755180789.245535) can0 100#0100000000 R
(1755180789.246272) can0 101#00DC050000 R
(1755180789.254348) can0 100#0100000000 R
(1755180789.255008) can0 101#00DC050000 R
(1755180789.262725) can0 100#0100000000 R
(1755180789.263371) can0 101#00DC050000 R
(1755180789.271355) can0 100#0100000000 R
(1755180789.272045) can0 101#00DC050000 R
(1755180789.279641) can0 100#0100000000 R
(1755180789.280389) can0 101#00DC050000 R
(1755180789.288416) can0 100#0100000000 R
(1755180789.289051) can0 101#00DC050000 R
(1755180789.296586) can0 100#0100000000 R
(1755180789.297377) can0 101#00DC050000 R
(1755180789.305324) can0 100#0100000000 R
(1755180789.306149) can0 101#00DC050000 R
(1755180789.313777) can0 100#0100000000 R
(1755180789.314527) can0 101#00DC050000 R
(1755180789.322429) can0 100#0100000000 R
(1755180789.323145) can0 101#00DC050000 R
(1755180789.324241) can0 211#0000000000000000 R
(1755180789.330715) can0 100#0100000000 R
(1755180789.331406) can0 101#00DC050000 R
(1755180789.332506) can0 210#0000000000000000 R
(1755180789.339354) can0 100#0100000000 R
(1755180789.340123) can0 101#00DC050000 R
(1755180789.347811) can0 100#0100000000 R
(1755180789.348425) can0 101#00DC050000 R
(1755180789.353073) can0 204#0000 R
(1755180789.353523) can0 203#C01C R
(1755180789.356420) can0 100#0100000000 R
(1755180789.357150) can0 101#00DC050000 R
(1755180789.364747) can0 100#0100000000 R
(1755180789.365438) can0 101#00DC050000 R
(1755180789.373400) can0 100#0100000000 R
(1755180789.374194) can0 101#00DC050000 R
(1755180789.381734) can0 100#0100000000 R
(1755180789.382469) can0 101#00DC050000 R
(1755180789.390520) can0 100#0100000000 R
(1755180789.391191) can0 101#00DC050000 R
(1755180789.398814) can0 100#0100000000 R
(1755180789.399503) can0 101#00DC050000 R
(1755180789.407525) can0 100#0100000000 R
(1755180789.408227) can0 101#00DC050000 R
(1755180789.410896) can0 200#00980EBF0ED10E R
(1755180789.411825) can0 200#01FA0E00000000 R
(1755180789.412837) can0 201#012F000000000000 R
(1755180789.413774) can0 202#593B0000A5010000 R
(1755180789.415809) can0 100#0100000000 R
(1755180789.416517) can0 101#00DC050000 R
(1755180789.424510) can0 100#0100000000 R
(1755180789.425285) can0 101#00DC050000 R
(1755180789.432846) can0 100#0100000000 R
(1755180789.433559) can0 101#00DC050000 R
(1755180789.441555) can0 100#0100000000 R
(1755180789.442309) can0 101#00DC050000 R
(1755180789.449835) can0 100#0100000000 R
(1755180789.450545) can0 101#00DC050000 R
(1755180789.458551) can0 100#0100000000 R
(1755180789.459313) can0 101#00DC050000 R
(1755180789.466982) can0 100#0100000000 R
(1755180789.467780) can0 101#00DC050000 R
(1755180789.475549) can0 100#0100000000 R
(1755180789.476334) can0 101#00DC050000 R
(1755180789.484017) can0 100#0100000000 R
(1755180789.484833) can0 101#00DC050000 R
(1755180789.492686) can0 100#0100000000 R
(1755180789.493335) can0 101#00DC050000 R
(1755180789.500954) can0 100#0100000000 R
(1755180789.501696) can0 101#00DC050000 R
(1755180789.509684) can0 100#0100000000 R
(1755180789.510437) can0 101#00DC050000 R
(1755180789.517990) can0 100#0100000000 R
(1755180789.518768) can0 101#00DC050000 R
(1755180789.524243) can0 211#0000000000000000 R
(1755180789.526706) can0 100#0100000000 R
(1755180789.527449) can0 101#00DC050000 R
(1755180789.532419) can0 210#0000000000000000 R
(1755180789.534969) can0 100#0100000000 R
(1755180789.535771) can0 101#00DC050000 R
(1755180789.543720) can0 100#0100000000 R
(1755180789.544453) can0 101#00DC050000 R
(1755180789.551987) can0 100#0100000000 R
(1755180789.552766) can0 101#00DC050000 R
(1755180789.553431) can0 204#0000 R
(1755180789.553967) can0 203#061D R
(1755180789.560818) can0 100#0100000000 R
(1755180789.561442) can0 101#00DC050000 R
(1755180789.569032) can0 100#0100000000 R
(1755180789.569752) can0 101#00DC050000 R
(1755180789.577768) can0 100#0100000000 R
(1755180789.578441) can0 101#00DC050000 R
(1755180789.586062) can0 100#0100000000 R
(1755180789.586813) can0 101#00DC050000 R
(1755180789.594809) can0 100#0100000000 R
(1755180789.595512) can0 101#00DC050000 R
(1755180789.603103) can0 100#0100000000 R
(1755180789.603848) can0 101#00DC050000 R
(1755180789.611848) can0 100#0100000000 R
(1755180789.612551) can0 101#00DC050000 R
(1755180789.614016) can0 200#00980EE30EE00E R
(1755180789.614926) can0 200#01D90E00000000 R
(1755180789.615941) can0 201#232F000000000000 R
(1755180789.616852) can0 202#753B0000A5010000 R
(1755180789.620102) can0 100#0100000000 R
(1755180789.620901) can0 101#00DC050000 R
(1755180789.628865) can0 100#0100000000 R
(1755180789.629600) can0 101#00DC050000 R
(1755180789.637061) can0 100#0100000000 R
(1755180789.637887) can0 101#00DC050000 R
(1755180789.645888) can0 100#0100000000 R
(1755180789.646697) can0 101#00DC050000 R
(1755180789.654163) can0 100#0100000000 R
(1755180789.654895) can0 101#00DC050000 R
(1755180789.662882) can0 100#0100000000 R
(1755180789.663637) can0 101#00DC050000 R
(1755180789.671210) can0 100#0100000000 R
(1755180789.671849) can0 101#00DC050000 R
(1755180789.679959) can0 100#0100000000 R
(1755180789.680705) can0 101#00DC050000 R
(1755180789.688197) can0 100#0100000000 R
(1755180789.688895) can0 101#00DC050000 R
(1755180789.696950) can0 100#0100000000 R
(1755180789.697766) can0 101#00DC050000 R
(1755180789.705248) can0 100#0100000000 R
(1755180789.706106) can0 101#00DC050000 R
(1755180789.713962) can0 100#0100000000 R
(1755180789.714804) can0 101#00DC050000 R
(1755180789.722196) can0 100#0100000000 R
(1755180789.722935) can0 101#00DC050000 R
(1755180789.724162) can0 211#0000000000000000 R
(1755180789.730938) can0 100#0100000000 R
(1755180789.731685) can0 101#00DC050000 R
(1755180789.732724) can0 210#0000000000000000 R
(1755180789.739194) can0 100#0100000000 R
(1755180789.739936) can0 101#00DC050000 R
(1755180789.747943) can0 100#0100000000 R
(1755180789.748743) can0 101#00DC050000 R
(1755180789.753024) can0 204#0000 R
(1755180789.753622) can0 203#201D R
(1755180789.756219) can0 100#0100000000 R
(1755180789.756988) can0 101#00DC050000 R
(1755180789.764979) can0 100#0100000000 R
(1755180789.765725) can0 101#00DC050000 R
(1755180789.773248) can0 100#0100000000 R
(1755180789.774039) can0 101#00DC050000 R
(1755180789.781981) can0 100#0100000000 R
(1755180789.782729) can0 101#00DC050000 R
(1755180789.790344) can0 100#0100000000 R
(1755180789.791023) can0 101#00DC050000 R
(1755180789.799029) can0 100#0100000000 R
(1755180789.799772) can0 101#00DC050000 R
(1755180789.807358) can0 100#0100000000 R
(1755180789.808101) can0 101#00DC050000 R
(1755180789.816028) can0 200#00A10EF60ED50E R
(1755180789.816831) can0 100#0100000000 R
(1755180789.817618) can0 101#00DC050000 R
(1755180789.818441) can0 200#01D10E00000000 R
(1755180789.819433) can0 201#122F000000000000 R
(1755180789.820430) can0 202#903B0000A5010000 R
(1755180789.824338) can0 100#0100000000 R
(1755180789.825076) can0 101#00DC050000 R
(1755180789.833069) can0 100#0100000000 R
(1755180789.833815) can0 101#00DC050000 R
(1755180789.841350) can0 100#0100000000 R
(1755180789.842090) can0 101#00DC050000 R
(1755180789.850082) can0 100#0100000000 R
(1755180789.850848) can0 101#00DC050000 R
(1755180789.858378) can0 100#0100000000 R
(1755180789.859141) can0 101#00DC050000 R
(1755180789.867184) can0 100#0100000000 R
(1755180789.867859) can0 101#00DC050000 R
(1755180789.875462) can0 100#0100000000 R
(1755180789.876228) can0 101#00DC050000 R
(1755180789.884193) can0 100#0100000000 R
(1755180789.884947) can0 101#00DC050000 R
(1755180789.892482) can0 100#0100000000 R
(1755180789.893175) can0 101#00DC050000 R
(1755180789.901239) can0 100#0100000000 R
(1755180789.902001) can0 101#00DC050000 R
(1755180789.909496) can0 100#0100000000 R
(1755180789.910229) can0 101#00DC050000 R
(1755180789.918274) can0 100#0100000000 R
(1755180789.918937) can0 101#00DC050000 R
(1755180789.924175) can0 211#0000000000000000 R
(1755180789.926487) can0 100#0100000000 R
(1755180789.927220) can0 101#00DC050000 R
(1755180789.932446) can0 210#0000000000000000 R
(1755180789.935338) can0 100#0100000000 R
(1755180789.936047) can0 101#00DC050000 R
(1755180789.943548) can0 100#0100000000 R
(1755180789.944236) can0 101#00DC050000 R
(1755180789.952332) can0 100#0100000000 R
(1755180789.953067) can0 101#00DC050000 R
(1755180789.953519) can0 204#0000 R
(1755180789.954131) can0 203#D71C R
(1755180789.960710) can0 100#0100000000 R
(1755180789.961342) can0 101#00DC050000 R
(1755180789.969349) can0 100#0100000000 R
(1755180789.970097) can0 101#00DC050000 R
(1755180789.977700) can0 100#0100000000 R
(1755180789.978299) can0 101#00DC050000 R
(1755180789.986369) can0 100#0100000000 R
(1755180789.987029) can0 101#00DC050000 R
(1755180789.994608) can0 100#0100000000 R
(1755180789.995308) can0 101#00DC050000 R
(1755180790.003373) can0 100#0100000000 R
(1755180790.004070) can0 101#00DC050000 R
(1755180790.011634) can0 100#0100000000 R
(1755180790.012346) can0 101#00DC050000 R
(1755180790.018282) can0 200#00A10EE30EC60E R
(1755180790.019185) can0 200#01E00E00000000 R
(1755180790.020128) can0 201#5C2F000000000000 R
(1755180790.020876) can0 100#0100000000 R
(1755180790.021649) can0 101#00DC050000 R
(1755180790.022569) can0 202#753B0000A5010000 R
(1755180790.028798) can0 100#0100000000 R
(1755180790.029463) can0 101#00DC050000 R
(1755180790.037431) can0 100#0100000000 R
(1755180790.038120) can0 101#00DC050000 R
(1755180790.045765) can0 100#0100000000 R
