(1755680239.770161) can0 100#0100000000 R
(1755680239.770880) can0 101#00DC050000 R
(1755680239.777124) can0 204#0000 R
(1755680239.777612) can0 203#201D R
(1755680239.778660) can0 100#0100000000 R
(1755680239.779378) can0 101#00DC050000 R
(1755680239.787241) can0 100#0100000000 R
(1755680239.787929) can0 101#00DC050000 R
(1755680239.795687) can0 100#0100000000 R
(1755680239.796439) can0 101#00DC050000 R
(1755680239.804190) can0 100#0100000000 R
(1755680239.804965) can0 101#00DC050000 R
(1755680239.812780) can0 100#0100000000 R
(1755680239.813514) can0 101#00DC050000 R
(1755680239.821366) can0 100#0100000000 R
(1755680239.821966) can0 101#00DC050000 R
(1755680239.826464) can0 200#006B0EBE0E990E R
(1755680239.827420) can0 200#01AB0E00000000 R
(1755680239.828422) can0 201#3A2F000000000000 R
(1755680239.829279) can0 202#B53A0000A5010000 R
(1755680239.830078) can0 100#0100000000 R
(1755680239.830911) can0 101#00DC050000 R
(1755680239.838278) can0 100#0100000000 R
(1755680239.838980) can0 101#00DC050000 R
(1755680239.846773) can0 100#0100000000 R
(1755680239.847558) can0 101#00DC050000 R
(1755680239.855473) can0 100#0100000000 R
(1755680239.856185) can0 101#00DC050000 R
(1755680239.863804) can0 100#0100000000 R
(1755680239.864566) can0 101#00DC050000 R
(1755680239.872347) can0 100#0100000000 R
(1755680239.873101) can0 101#00DC050000 R
(1755680239.880871) can0 100#0100000000 R
(1755680239.881606) can0 101#00DC050000 R
(1755680239.889406) can0 100#0100000000 R
(1755680239.890075) can0 101#00DC050000 R
(1755680239.897999) can0 100#0100000000 R
(1755680239.898729) can0 101#00DC050000 R
(1755680239.906418) can0 100#0100000000 R
(1755680239.907177) can0 101#00DC050000 R
(1755680239.914909) can0 100#0100000000 R
(1755680239.915632) can0 101#00DC050000 R
(1755680239.923445) can0 100#0100000000 R
(1755680239.924191) can0 101#00DC050000 R
(1755680239.931880) can0 100#0100000000 R
(1755680239.932727) can0 101#00DC050000 R
(1755680239.940498) can0 100#0100000000 R
(1755680239.941215) can0 101#00DC050000 R
(1755680239.948187) can0 211#0000000000000000 R
(1755680239.949009) can0 100#0100000000 R
(1755680239.949678) can0 101#00DC050000 R
(1755680239.957449) can0 100#0100000000 R
(1755680239.958189) can0 101#00DC050000 R
(1755680239.959201) can0 210#0000000000000000 R
(1755680239.965893) can0 100#0100000000 R
(1755680239.966729) can0 101#00DC050000 R
(1755680239.974539) can0 100#0100000000 R
(1755680239.975259) can0 101#00DC050000 R
(1755680239.977183) can0 204#0000 R
(1755680239.977700) can0 203#D71C R
(1755680239.983085) can0 100#0100000000 R
(1755680239.983812) can0 101#00DC050000 R
(1755680239.991515) can0 100#0100000000 R
(1755680239.992266) can0 101#00DC050000 R
(1755680239.999921) can0 100#0100000000 R
(1755680240.000813) can0 101#00DC050000 R
(1755680240.008514) can0 100#0100000000 R
(1755680240.009278) can0 101#00DC050000 R
(1755680240.016997) can0 100#0100000000 R
(1755680240.017724) can0 101#00DC050000 R
(1755680240.025541) can0 100#0100000000 R
(1755680240.026273) can0 101#00DC050000 R
(1755680240.028357) can0 200#006B0EA40EB30E R
(1755680240.029190) can0 200#01AB0E00000000 R
(1755680240.030181) can0 201#5C2F000000000000 R
(1755680240.031134) can0 202#A33A0000A5010000 R
(1755680240.033986) can0 100#0100000000 R
(1755680240.034780) can0 101#00DC050000 R
(1755680240.042531) can0 100#0100000000 R
(1755680240.043326) can0 101#00DC050000 R
(1755680240.051028) can0 100#0100000000 R
(1755680240.051802) can0 101#00DC050000 R
(1755680240.059596) can0 100#0100000000 R
(1755680240.060353) can0 101#00DC050000 R
(1755680240.068163) can0 100#0100000000 R
(1755680240.068867) can0 101#00DC050000 R
(1755680240.076731) can0 100#0100000000 R
(1755680240.077420) can0 101#00DC050000 R
(1755680240.085300) can0 100#0100000000 R
(1755680240.085948) can0 101#00DC050000 R
(1755680240.093772) can0 100#0100000000 R
(1755680240.094435) can0 101#00DC050000 R
(1755680240.102141) can0 100#0100000000 R
(1755680240.102924) can0 101#00DC050000 R
(1755680240.110663) can0 100#0100000000 R
(1755680240.111388) can0 101#00DC050000 R
(1755680240.119192) can0 100#0100000000 R
(1755680240.119879) can0 101#00DC050000 R
(1755680240.127920) can0 100#0100000000 R
(1755680240.128579) can0 101#00DC050000 R
(1755680240.136304) can0 100#0100000000 R
(1755680240.136899) can0 101#00DC050000 R
(1755680240.144987) can0 100#0100000000 R
(1755680240.145573) can0 101#00DC050000 R
(1755680240.148457) can0 211#0000000000000000 R
(1755680240.153589) can0 100#0100000000 R
(1755680240.153896) can0 101#00DC050000 R
(1755680240.158528) can0 210#0000000000000000 R
(1755680240.161750) can0 100#0100000000 R
(1755680240.162493) can0 101#00DC050000 R
(1755680240.170283) can0 100#0100000000 R
(1755680240.171002) can0 101#00DC050000 R
(1755680240.177182) can0 204#0000 R
(1755680240.177749) can0 203#971C R
(1755680240.178761) can0 100#0100000000 R
(1755680240.179583) can0 101#00DC050000 R
(1755680240.187495) can0 100#0100000000 R
(1755680240.188063) can0 101#00DC050000 R
(1755680240.196291) can0 100#0100000000 R
(1755680240.196698) can0 101#00DC050000 R
(1755680240.204571) can0 100#0100000000 R
(1755680240.205186) can0 101#00DC050000 R
(1755680240.213029) can0 100#0100000000 R
(1755680240.213616) can0 101#00DC050000 R
(1755680240.221529) can0 100#0100000000 R
(1755680240.222136) can0 101#00DC050000 R
(1755680240.229942) can0 100#0100000000 R
(1755680240.230662) can0 101#00DC050000 R
(1755680240.231514) can0 200#006B0EA40EAB0E R
(1755680240.232467) can0 200#01AA0E00000000 R
(1755680240.233518) can0 201#292F000000000000 R
(1755680240.234384) can0 202#AC3A0000A5010000 R
(1755680240.238503) can0 100#0100000000 R
(1755680240.239105) can0 101#00DC050000 R
(1755680240.247306) can0 100#0100000000 R
(1755680240.247801) can0 101#00DC050000 R
(1755680240.255729) can0 100#0100000000 R
(1755680240.256167) can0 101#00DC050000 R
(1755680240.263869) can0 100#0100000000 R
(1755680240.264699) can0 101#00DC050000 R
(1755680240.272487) can0 100#0100000000 R
(1755680240.273165) can0 101#00DC050000 R
(1755680240.281014) can0 100#0100000000 R
(1755680240.282100) can0 101#00DC050000 R
(1755680240.289794) can0 100#0100000000 R
(1755680240.290368) can0 101#00DC050000 R
(1755680240.298134) can0 100#0100000000 R
(1755680240.298737) can0 101#00DC050000 R
(1755680240.306498) can0 100#0100000000 R
(1755680240.307240) can0 101#00DC050000 R
(1755680240.315189) can0 100#0100000000 R
(1755680240.315906) can0 101#00DC050000 R
(1755680240.323408) can0 100#0100000000 R
(1755680240.324233) can0 101#00DC050000 R
(1755680240.332109) can0 100#0100000000 R
(1755680240.332786) can0 101#00DC050000 R
(1755680240.340482) can0 100#0100000000 R
(1755680240.341291) can0 101#00DC050000 R
(1755680240.348227) can0 211#0000000000000000 R
(1755680240.349085) can0 100#0100000000 R
(1755680240.349832) can0 101#00DC050000 R
(1755680240.357718) can0 100#0100000000 R
(1755680240.358293) can0 101#00DC050000 R
(1755680240.359250) can0 210#0000000000000000 R
(1755680240.366165) can0 100#0100000000 R
(1755680240.366835) can0 101#00DC050000 R
(1755680240.374592) can0 100#0100000000 R
(1755680240.375284) can0 101#00DC050000 R
(1755680240.377932) can0 204#0000 R
(1755680240.378397) can0 203#BD1C R
(1755680240.383128) can0 100#0100000000 R
(1755680240.383808) can0 101#00DC050000 R
(1755680240.391691) can0 100#0100000000 R
(1755680240.392456) can0 101#00DC050000 R
(1755680240.400263) can0 100#0100000000 R
(1755680240.400998) can0 101#00DC050000 R
(1755680240.408934) can0 100#0100000000 R
(1755680240.409474) can0 101#00DC050000 R
(1755680240.417506) can0 100#0100000000 R
(1755680240.417925) can0 101#00DC050000 R
(1755680240.425692) can0 100#0100000000 R
(1755680240.426420) can0 101#00DC050000 R
(1755680240.433041) can0 200#00620EAD0EAB0E R
(1755680240.433890) can0 200#01AA0E00000000 R
(1755680240.434576) can0 100#0100000000 R
(1755680240.435380) can0 101#00DC050000 R
(1755680240.436302) can0 201#6D2F000000000000 R
(1755680240.437271) can0 202#9A3A0000A5010000 R
(1755680240.443141) can0 100#0100000000 R
(1755680240.443499) can0 101#00DC050000 R
(1755680240.451177) can0 100#0100000000 R
(1755680240.452013) can0 101#00DC050000 R
(1755680240.459787) can0 100#0100000000 R
(1755680240.460448) can0 101#00DC050000 R
(1755680240.468352) can0 100#0100000000 R
(1755680240.468999) can0 101#00DC050000 R
(1755680240.477151) can0 100#0100000000 R
(1755680240.477445) can0 101#00DC050000 R
(1755680240.485440) can0 100#0100000000 R
(1755680240.486033) can0 101#00DC050000 R
(1755680240.494184) can0 100#0100000000 R
(1755680240.494541) can0 101#00DC050000 R
(1755680240.502526) can0 100#0100000000 R
(1755680240.503154) can0 101#00DC050000 R
(1755680240.510689) can0 100#0100000000 R
(1755680240.511542) can0 101#00DC050000 R
(1755680240.519389) can0 100#0100000000 R
(1755680240.520070) can0 101#00DC050000 R
(1755680240.527837) can0 100#0100000000 R
(1755680240.528524) can0 101#00DC050000 R
(1755680240.536395) can0 100#0100000000 R
(1755680240.537258) can0 101#00DC050000 R
(1755680240.544854) can0 100#0100000000 R
(1755680240.545596) can0 101#00DC050000 R
(1755680240.548190) can0 211#0000000000000000 R
(1755680240.553878) can0 100#0100000000 R
(1755680240.554111) can0 101#00DC050000 R
(1755680240.558463) can0 210#0000000000000000 R
(1755680240.561953) can0 100#0100000000 R
(1755680240.562599) can0 101#00DC050000 R
(1755680240.570458) can0 100#0100000000 R
(1755680240.571059) can0 101#00DC050000 R
(1755680240.577239) can0 204#0000 R
(1755680240.577765) can0 203#481D R
(1755680240.578821) can0 100#0100000000 R
(1755680240.579637) can0 101#00DC050000 R
(1755680240.587466) can0 100#0100000000 R
(1755680240.588154) can0 101#00DC050000 R
(1755680240.596252) can0 100#0100000000 R
(1755680240.596589) can0 101#00DC050000 R
(1755680240.604531) can0 100#0100000000 R
(1755680240.605148) can0 101#00DC050000 R
(1755680240.612939) can0 100#0100000000 R
(1755680240.613708) can0 101#00DC050000 R
(1755680240.621428) can0 100#0100000000 R
(1755680240.622207) can0 101#00DC050000 R
(1755680240.629949) can0 100#0100000000 R
(1755680240.630712) can0 101#00DC050000 R
(1755680240.634478) can0 200#006B0EA40EB30E R
(1755680240.635691) can0 200#01AB0E00000000 R
(1755680240.636369) can0 201#5C2F000000000000 R
(1755680240.637240) can0 202#A33A0000A5010000 R
(1755680240.638507) can0 100#0100000000 R
(1755680240.639260) can0 101#00DC050000 R
(1755680240.647384) can0 100#0100000000 R
(1755680240.647681) can0 101#00DC050000 R
(1755680240.655627) can0 100#0100000000 R
(1755680240.656309) can0 101#00DC050000 R
(1755680240.664311) can0 100#0100000000 R
(1755680240.664820) can0 101#00DC050000 R
(1755680240.672696) can0 100#0100000000 R
(1755680240.673281) can0 101#00DC050000 R
(1755680240.681038) can0 100#0100000000 R
(1755680240.682141) can0 101#00DC050000 R
(1755680240.689562) can0 100#0100000000 R
(1755680240.690382) can0 101#00DC050000 R
(1755680240.698055) can0 100#0100000000 R
(1755680240.698852) can0 101#00DC050000 R
(1755680240.707067) can0 100#0100000000 R
(1755680240.707353) can0 101#00DC050000 R
(1755680240.715186) can0 100#0100000000 R
(1755680240.715858) can0 101#00DC050000 R
(1755680240.723713) can0 100#0100000000 R
(1755680240.724385) can0 101#00DC050000 R
(1755680240.732237) can0 100#0100000000 R
(1755680240.732958) can0 101#00DC050000 R
(1755680240.740613) can0 100#0100000000 R
(1755680240.741403) can0 101#00DC050000 R
(1755680240.748284) can0 211#0000000000000000 R
(1755680240.749144) can0 100#0100000000 R
(1755680240.749932) can0 101#00DC050000 R
(1755680240.757965) can0 100#0100000000 R
(1755680240.758438) can0 101#00DC050000 R
(1755680240.759458) can0 210#0000000000000000 R
(1755680240.766306) can0 100#0100000000 R
(1755680240.766991) can0 101#00DC050000 R
(1755680240.774963) can0 100#0100000000 R
(1755680240.775520) can0 101#00DC050000 R
(1755680240.777223) can0 204#0000 R
(1755680240.777881) can0 203#1D1D R
(1755680240.783225) can0 100#0100000000 R
(1755680240.783805) can0 101#00DC050000 R
(1755680240.791765) can0 100#0100000000 R
(1755680240.792516) can0 101#00DC050000 R
(1755680240.800217) can0 100#0100000000 R
(1755680240.800945) can0 101#00DC050000 R
(1755680240.808911) can0 100#0100000000 R
(1755680240.809486) can0 101#00DC050000 R
(1755680240.817433) can0 100#0100000000 R
(1755680240.818078) can0 101#00DC050000 R
(1755680240.825961) can0 100#0100000000 R
(1755680240.826624) can0 101#00DC050000 R
(1755680240.834196) can0 100#0100000000 R
(1755680240.835039) can0 101#00DC050000 R
(1755680240.836679) can0 200#006B0EA40EB30E R
(1755680240.837599) can0 200#01AB0E00000000 R
(1755680240.838520) can0 201#122F000000000000 R
(1755680240.839442) can0 202#A33A0000CD010000 R
(1755680240.843079) can0 100#0100000000 R
(1755680240.843450) can0 101#00DC050000 R
(1755680240.851317) can0 100#0100000000 R
(1755680240.851924) can0 101#00DC050000 R
(1755680240.859913) can0 100#0100000000 R
(1755680240.860669) can0 101#00DC050000 R
(1755680240.868287) can0 100#0100000000 R
(1755680240.869026) can0 101#00DC050000 R
(1755680240.877249) can0 100#0100000000 R
(1755680240.877537) can0 101#00DC050000 R
(1755680240.885450) can0 100#0100000000 R
(1755680240.886076) can0 101#00DC050000 R
(1755680240.893990) can0 100#0100000000 R
(1755680240.894649) can0 101#00DC050000 R
(1755680240.902640) can0 100#0100000000 R
(1755680240.903083) can0 101#00DC050000 R
(1755680240.910881) can0 100#0100000000 R
(1755680240.911676) can0 101#00DC050000 R
(1755680240.919723) can0 100#0100000000 R
(1755680240.920079) can0 101#00DC050000 R
(1755680240.928018) can0 100#0100000000 R
(1755680240.928688) can0 101#00DC050000 R
(1755680240.936723) can0 100#0100000000 R
(1755680240.937134) can0 101#00DC050000 R
(1755680240.945148) can0 100#0100000000 R
(1755680240.945729) can0 101#00DC050000 R
(1755680240.948266) can0 211#0000000000000000 R
(1755680240.953464) can0 100#0100000000 R
(1755680240.954173) can0 101#00DC050000 R
(1755680240.958588) can0 210#0000000000000000 R
(1755680240.962023) can0 100#0100000000 R
(1755680240.962807) can0 101#00DC050000 R
(1755680240.970508) can0 100#0100000000 R
(1755680240.971206) can0 101#00DC050000 R
(1755680240.977228) can0 204#0000 R
(1755680240.977728) can0 203#D71C R
(1755680240.979004) can0 100#0100000000 R
(1755680240.979710) can0 101#00DC050000 R
(1755680240.987598) can0 100#0100000000 R
(1755680240.988229) can0 101#00DC050000 R
(1755680240.996144) can0 100#0100000000 R
(1755680240.996776) can0 101#00DC050000 R
(1755680241.004810) can0 100#0100000000 R
(1755680241.005371) can0 101#00DC050000 R
(1755680241.013328) can0 100#0100000000 R
(1755680241.013781) can0 101#00DC050000 R
(1755680241.021429) can0 100#0100000000 R
(1755680241.022178) can0 101#00DC050000 R
(1755680241.030059) can0 100#0100000000 R
(1755680241.030709) can0 101#00DC050000 R
(1755680241.038546) can0 100#0100000000 R
(1755680241.039206) can0 101#00DD050000 R
(1755680241.040074) can0 200#006B0EA40EB30E R
(1755680241.041001) can0 200#01B40E00000000 R
(1755680241.041963) can0 201#2E2F000000000000 R
(1755680241.043103) can0 202#AC3A0000CD010000 R
(1755680241.047153) can0 100#0100000000 R
(1755680241.047901) can0 101#00E2050000 R
(1755680241.055688) can0 100#0100000000 R
(1755680241.056396) can0 101#00E2050000 R
(1755680241.064166) can0 100#0100000000 R
(1755680241.064855) can0 101#00EB050000 R
(1755680241.072698) can0 100#0100000000 R
(1755680241.073498) can0 101#00EB050000 R
(1755680241.081223) can0 100#0100000000 R
(1755680241.082266) can0 101#00F1050000 R
(1755680241.089793) can0 100#0100000000 R
(1755680241.090348) can0 101#00F3050000 R
(1755680241.098467) can0 100#0100000000 R
(1755680241.098879) can0 101#00F6050000 R
(1755680241.107021) can0 100#0100000000 R
(1755680241.107340) can0 101#00FB050000 R
(1755680241.115268) can0 100#0100000000 R
(1755680241.115969) can0 101#00FF050000 R
(1755680241.124038) can0 100#0100000000 R
(1755680241.124442) can0 101#0003060000 R
(1755680241.132312) can0 100#0100000000 R
(1755680241.133105) can0 101#0003060000 R
(1755680241.140668) can0 100#0100000000 R
(1755680241.141440) can0 101#0005060000 R
(1755680241.148211) can0 211#0000000000000000 R
(1755680241.149189) can0 100#0100000000 R
(1755680241.149954) can0 101#0006060000 R
(1755680241.158112) can0 100#0100000000 R
(1755680241.158471) can0 101#0009060000 R
(1755680241.159464) can0 210#0000000000000000 R
(1755680241.166315) can0 100#0100000000 R
(1755680241.167026) can0 101#0007060000 R
(1755680241.174762) can0 100#0100000000 R
(1755680241.175512) can0 101#0007060000 R
(1755680241.178222) can0 204#0000 R
(1755680241.178543) can0 203#971C R
(1755680241.183267) can0 100#0100000000 R
(1755680241.184266) can0 101#0007060000 R
(1755680241.191648) can0 100#0100000000 R
(1755680241.192628) can0 101#0008060000 R
(1755680241.200277) can0 100#0100000000 R
(1755680241.201070) can0 101#0008060000 R
(1755680241.209309) can0 100#0100000000 R
(1755680241.209592) can0 101#0008060000 R
(1755680241.217767) can0 100#0100000000 R
(1755680241.218060) can0 101#0009060000 R
(1755680241.226063) can0 100#0100000000 R
(1755680241.226696) can0 101#0009060000 R
(1755680241.234584) can0 100#0100000000 R
(1755680241.235077) can0 101#000A060000 R
(1755680241.241791) can0 200#00620EAD0EAB0E R
(1755680241.242717) can0 200#01B30E00000000 R
(1755680241.243368) can0 100#0100000000 R
(1755680241.244265) can0 101#000A060000 R
(1755680241.245123) can0 201#6D2F000000000000 R
(1755680241.246144) can0 202#9A3A0000A5010000 R
(1755680241.251321) can0 100#0100000000 R
(1755680241.252159) can0 101#000B060000 R
(1755680241.259968) can0 100#0100000000 R
(1755680241.260712) can0 101#000B060000 R
(1755680241.268411) can0 100#0100000000 R
(1755680241.269108) can0 101#000D060000 R
(1755680241.276889) can0 100#0100000000 R
(1755680241.277671) can0 101#000F060000 R
(1755680241.285426) can0 100#0100000000 R
(1755680241.286163) can0 101#000F060000 R
(1755680241.294346) can0 100#0100000000 R
(1755680241.294623) can0 101#0013060000 R
(1755680241.302602) can0 100#0100000000 R
(1755680241.303228) can0 101#0013060000 R
(1755680241.310926) can0 100#0100000000 R
(1755680241.311699) can0 101#0013060000 R
(1755680241.319522) can0 100#0100000000 R
(1755680241.320219) can0 101#0017060000 R
(1755680241.328072) can0 100#0100000000 R
(1755680241.328728) can0 101#001A060000 R
(1755680241.336699) can0 100#0100000000 R
(1755680241.337420) can0 101#0019060000 R
(1755680241.345293) can0 100#0100000000 R
(1755680241.345721) can0 101#001C060000 R
(1755680241.348301) can0 211#0000000000000000 R
(1755680241.353731) can0 100#0100000000 R
(1755680241.354399) can0 101#001A060000 R
(1755680241.358782) can0 210#0000000000000000 R
(1755680241.362163) can0 100#0100000000 R
(1755680241.362841) can0 101#001A060000 R
(1755680241.370463) can0 100#0100000000 R
(1755680241.371220) can0 101#001D060000 R
(1755680241.377285) can0 204#0000 R
(1755680241.377817) can0 203#061D R
(1755680241.379302) can0 100#0100000000 R
(1755680241.379796) can0 101#001D060000 R
(1755680241.388040) can0 100#0100000000 R
(1755680241.388340) can0 101#001C060000 R
(1755680241.396060) can0 100#0100000000 R
(1755680241.396714) can0 101#001D060000 R
(1755680241.404987) can0 100#0100000000 R
(1755680241.405304) can0 101#001C060000 R
(1755680241.413069) can0 100#0100000000 R
(1755680241.413808) can0 101#001C060000 R
(1755680241.421674) can0 100#0100000000 R
(1755680241.422508) can0 101#001E060000 R
(1755680241.430009) can0 100#0100000000 R
(1755680241.430817) can0 101#001E060000 R
(1755680241.438983) can0 100#0100000000 R
(1755680241.439443) can0 101#001F060000 R
(1755680241.443395) can0 200#00620EAD0EAB0E R
(1755680241.444352) can0 200#01B30E00000000 R
(1755680241.445297) can0 201#122F000000000000 R
(1755680241.446280) can0 202#9A3A0000BD020000 R
(1755680241.447282) can0 100#0100000000 R
(1755680241.447916) can0 101#0022060000 R
(1755680241.456079) can0 100#0100000000 R
(1755680241.456429) can0 101#0021060000 R
(1755680241.464546) can0 100#0100000000 R
(1755680241.464850) can0 101#0021060000 R
(1755680241.472983) can0 100#0100000000 R
(1755680241.473534) can0 101#0020060000 R
(1755680241.481143) can0 100#0100000000 R
(1755680241.482006) can0 101#0020060000 R
(1755680241.489774) can0 100#0100000000 R
(1755680241.490400) can0 101#0022060000 R
(1755680241.498161) can0 100#0100000000 R
(1755680241.498993) can0 101#0021060000 R
(1755680241.506773) can0 100#0100000000 R
(1755680241.507454) can0 101#0022060000 R
(1755680241.515298) can0 100#0100000000 R
(1755680241.516021) can0 101#0022060000 R
(1755680241.524232) can0 100#0100000000 R
(1755680241.524525) can0 101#0022060000 R
(1755680241.532650) can0 100#0100000000 R
(1755680241.533125) can0 101#0022060000 R
(1755680241.540779) can0 100#0100000000 R
(1755680241.541569) can0 101#0022060000 R
(1755680241.548100) can0 211#CA13DF41874A573F R
(1755680241.549284) can0 100#0100000000 R
(1755680241.549976) can0 101#0020060000 R
(1755680241.557861) can0 100#0100000000 R
(1755680241.558637) can0 101#0022060000 R
(1755680241.559449) can0 210#8BD4CA4132C0433F R
(1755680241.566359) can0 100#0100000000 R
(1755680241.566975) can0 101#0024060000 R
(1755680241.574933) can0 100#0100000000 R
(1755680241.575601) can0 101#0022060000 R
(1755680241.577312) can0 204#0000 R
(1755680241.577701) can0 203#481D R
(1755680241.583367) can0 100#0100000000 R
(1755680241.584004) can0 101#0022060000 R
(1755680241.592048) can0 100#0100000000 R
(1755680241.592766) can0 101#0022060000 R
(1755680241.600299) can0 100#0100000000 R
(1755680241.601037) can0 101#0022060000 R
(1755680241.608974) can0 100#0100000000 R
(1755680241.609568) can0 101#0022060000 R
(1755680241.617476) can0 100#0100000000 R
(1755680241.618112) can0 101#001F060000 R
(1755680241.626130) can0 100#0100000000 R
(1755680241.626598) can0 101#0022060000 R
(1755680241.634571) can0 100#0100000000 R
(1755680241.635149) can0 101#0021060000 R
(1755680241.643030) can0 100#0100000000 R
(1755680241.643750) can0 101#0022060000 R
(1755680241.645284) can0 200#00740EAD0E990E R
(1755680241.646157) can0 200#01A10E00000000 R
(1755680241.647394) can0 201#2E2F000000000000 R
(1755680241.648046) can0 202#A33A00001D020000 R
(1755680241.651556) can0 100#0100000000 R
(1755680241.652212) can0 101#0022060000 R
(1755680241.659905) can0 100#0100000000 R
(1755680241.660623) can0 101#0022060000 R
(1755680241.668732) can0 100#0100000000 R
(1755680241.669220) can0 101#0022060000 R
(1755680241.677065) can0 100#0100000000 R
(1755680241.677808) can0 101#0022060000 R
(1755680241.685476) can0 100#0100000000 R
(1755680241.686270) can0 101#0022060000 R
(1755680241.694372) can0 100#0100000000 R
(1755680241.694763) can0 101#0021060000 R
(1755680241.702577) can0 100#0100000000 R
(1755680241.703253) can0 101#0020060000 R
(1755680241.711127) can0 100#0100000000 R
(1755680241.711862) can0 101#0022060000 R
(1755680241.719507) can0 100#0100000000 R
(1755680241.720179) can0 101#0020060000 R
(1755680241.728285) can0 100#0100000000 R
(1755680241.728829) can0 101#0022060000 R
(1755680241.737026) can0 100#0100000000 R
(1755680241.737350) can0 101#0022060000 R
(1755680241.745136) can0 100#0100000000 R
(1755680241.745874) can0 101#0021060000 R
(1755680241.748195) can0 211#662DD741B9AA4F3F R
(1755680241.754021) can0 100#0100000000 R
(1755680241.754421) can0 101#0021060000 R
(1755680241.758430) can0 210#9CAEC34122DA3C3F R
(1755680241.762171) can0 100#0100000000 R
(1755680241.762913) can0 101#0021060000 R
(1755680241.770505) can0 100#0100000000 R
(1755680241.771404) can0 101#0022060000 R
(1755680241.777657) can0 204#0000 R
(1755680241.777732) can0 203#201D R
(1755680241.779194) can0 100#0100000000 R
(1755680241.779808) can0 101#0022060000 R
(1755680241.788040) can0 100#0100000000 R
(1755680241.788447) can0 101#0022060000 R
(1755680241.796365) can0 100#0100000000 R
(1755680241.797011) can0 101#0022060000 R
(1755680241.804694) can0 100#0100000000 R
(1755680241.805411) can0 101#0022060000 R
(1755680241.813380) can0 100#0100000000 R
(1755680241.814015) can0 101#0022060000 R
(1755680241.821636) can0 100#0100000000 R
(1755680241.822371) can0 101#0024060000 R
(1755680241.830138) can0 100#0100000000 R
(1755680241.830948) can0 101#0022060000 R
(1755680241.838955) can0 100#0100000000 R
(1755680241.839406) can0 101#0023060000 R
(1755680241.846889) can0 200#006B0EC70EA10E R
(1755680241.847301) can0 200#01910E00000000 R
(1755680241.848025) can0 100#0100000000 R
(1755680241.848803) can0 101#0023060000 R
(1755680241.849724) can0 201#732F000000000000 R
(1755680241.850713) can0 202#B53A000095020000 R
(1755680241.856088) can0 100#0100000000 R
(1755680241.856492) can0 101#0024060000 R
(1755680241.864507) can0 100#0100000000 R
(1755680241.865122) can0 101#0024060000 R
(1755680241.872812) can0 100#0100000000 R
(1755680241.873480) can0 101#0026060000 R
(1755680241.881548) can0 100#0100000000 R
(1755680241.882036) can0 101#0026060000 R
(1755680241.889710) can0 100#0100000000 R
(1755680241.890450) can0 101#0026060000 R
(1755680241.898441) can0 100#0100000000 R
(1755680241.899153) can0 101#0027060000 R
(1755680241.907029) can0 100#0100000000 R
(1755680241.907640) can0 101#0029060000 R
(1755680241.915769) can0 100#0100000000 R
(1755680241.916051) can0 101#0028060000 R
(1755680241.924205) can0 100#0100000000 R
(1755680241.924674) can0 101#0028060000 R
(1755680241.932438) can0 100#0100000000 R
(1755680241.933203) can0 101#0028060000 R
(1755680241.940930) can0 100#0100000000 R
(1755680241.941680) can0 101#0028060000 R
(1755680241.948116) can0 211#348F1B423C21963F R
(1755680241.949300) can0 100#0100000000 R
(1755680241.950056) can0 101#002A060000 R
(1755680241.957798) can0 100#0100000000 R
(1755680241.958633) can0 101#002B060000 R
(1755680241.959455) can0 210#9E091B4250A0953F R
(1755680241.966422) can0 100#0100000000 R
(1755680241.967096) can0 101#002A060000 R
(1755680241.975135) can0 100#0100000000 R
(1755680241.975544) can0 101#0028060000 R
(1755680241.977616) can0 204#0000 R
(1755680241.977770) can0 203#971C R
(1755680241.983456) can0 100#0100000000 R
(1755680241.984108) can0 101#002A060000 R
(1755680241.992078) can0 100#0100000000 R
(1755680241.993113) can0 101#002A060000 R
(1755680242.000426) can0 100#0100000000 R
(1755680242.001273) can0 101#002A060000 R
(1755680242.009413) can0 100#0100000000 R
(1755680242.009706) can0 101#002A060000 R
(1755680242.017653) can0 100#0100000000 R
(1755680242.018148) can0 101#002A060000 R
(1755680242.026151) can0 100#0100000000 R
(1755680242.026736) can0 101#002A060000 R
(1755680242.034438) can0 100#0100000000 R
(1755680242.035205) can0 101#002B060000 R
(1755680242.043222) can0 100#0100000000 R
(1755680242.043758) can0 101#002B060000 R
(1755680242.049807) can0 200#00620EA40EAB0E R
(1755680242.050405) can0 200#01BC0E00000000 R
(1755680242.051557) can0 201#062F000000000000 R
(1755680242.052597) can0 100#0100000000 R
(1755680242.053008) can0 101#002C060000 R
(1755680242.054035) can0 202#903A0000F5010000 R
(1755680242.059955) can0 100#0100000000 R
(1755680242.060675) can0 101#002A060000 R
(1755680242.068489) can0 100#0100000000 R
(1755680242.069299) can0 101#002C060000 R
(1755680242.077439) can0 100#0100000000 R
(1755680242.077791) can0 101#002C060000 R
(1755680242.085919) can0 100#0100000000 R
(1755680242.086313) can0 101#002B060000 R
(1755680242.094414) can0 100#0100000000 R
(1755680242.094808) can0 101#002A060000 R
(1755680242.102685) can0 100#0100000000 R
(1755680242.103483) can0 101#002B060000 R
(1755680242.111028) can0 100#0100000000 R
(1755680242.111864) can0 101#002A060000 R
(1755680242.119809) can0 100#0100000000 R
(1755680242.120405) can0 101#002B060000 R
(1755680242.128380) can0 100#0100000000 R
(1755680242.128857) can0 101#002D060000 R
(1755680242.137181) can0 100#0100000000 R
(1755680242.137427) can0 101#002D060000 R
(1755680242.145283) can0 100#0100000000 R
(1755680242.145924) can0 101#002A060000 R
(1755680242.148281) can0 211#F8E249420DD7C23F R
(1755680242.153896) can0 100#0100000000 R
(1755680242.154536) can0 101#002A060000 R
(1755680242.158484) can0 210#C6B74D429F89C63F R
(1755680242.162164) can0 100#0100000000 R
(1755680242.162929) can0 101#002B060000 R
(1755680242.170630) can0 100#0100000000 R
(1755680242.171441) can0 101#002B060000 R
(1755680242.177342) can0 204#0000 R
(1755680242.177682) can0 203#BD1C R
(1755680242.179285) can0 100#0100000000 R
(1755680242.179904) can0 101#002A060000 R
(1755680242.187938) can0 100#0100000000 R
(1755680242.188589) can0 101#002B060000 R
(1755680242.196712) can0 100#0100000000 R
(1755680242.197120) can0 101#002B060000 R
(1755680242.204839) can0 100#0100000000 R
(1755680242.205491) can0 101#002B060000 R
(1755680242.213382) can0 100#0100000000 R
(1755680242.214025) can0 101#002B060000 R
(1755680242.221917) can0 100#0100000000 R
(1755680242.222538) can0 101#002D060000 R
(1755680242.230195) can0 100#0100000000 R
(1755680242.230984) can0 101#002F060000 R
(1755680242.238972) can0 100#0100000000 R
(1755680242.239506) can0 101#002E060000 R
(1755680242.247410) can0 100#0100000000 R
(1755680242.248166) can0 101#002E060000 R
(1755680242.252069) can0 200#00620EBF0EC30E R
(1755680242.252761) can0 200#01890E00000000 R
(1755680242.253907) can0 201#232F000000000000 R
(1755680242.254934) can0 202#AC3A000045020000 R
(1755680242.255961) can0 100#0100000000 R
(1755680242.256610) can0 101#0031060000 R
(1755680242.264526) can0 100#0100000000 R
(1755680242.265066) can0 101#0031060000 R
(1755680242.273014) can0 100#0100000000 R
(1755680242.273583) can0 101#0032060000 R
(1755680242.281415) can0 100#0100000000 R
(1755680242.282098) can0 101#0032060000 R
(1755680242.289828) can0 100#0100000000 R
(1755680242.290543) can0 101#0031060000 R
(1755680242.298342) can0 100#0100000000 R
(1755680242.299059) can0 101#0033060000 R
(1755680242.307231) can0 100#0100000000 R
(1755680242.307684) can0 101#0032060000 R
(1755680242.315483) can0 100#0100000000 R
(1755680242.316154) can0 101#0033060000 R
(1755680242.324071) can0 100#0100000000 R
(1755680242.324729) can0 101#0032060000 R
(1755680242.332713) can0 100#0100000000 R
(1755680242.333145) can0 101#0030060000 R
(1755680242.341017) can0 100#0100000000 R
(1755680242.342121) can0 101#0032060000 R
(1755680242.348260) can0 211#25EF6642AEDFDE3F R
(1755680242.349481) can0 100#0100000000 R
(1755680242.350090) can0 101#0032060000 R
(1755680242.358338) can0 100#0100000000 R
(1755680242.358691) can0 101#0032060000 R
(1755680242.359761) can0 210#F3E16F428682E73F R
(1755680242.366447) can0 100#0100000000 R
(1755680242.367135) can0 101#0033060000 R
(1755680242.375394) can0 100#0100000000 R
(1755680242.375724) can0 101#0031060000 R
(1755680242.377373) can0 204#0000 R
(1755680242.377805) can0 203#031D R
(1755680242.383691) can0 100#0100000000 R
(1755680242.384209) can0 101#0033060000 R
(1755680242.392148) can0 100#0100000000 R
(1755680242.392792) can0 101#0032060000 R
(1755680242.400515) can0 100#0100000000 R
(1755680242.401345) can0 101#0032060000 R
(1755680242.409418) can0 100#0100000000 R
(1755680242.409734) can0 101#0032060000 R
(1755680242.417509) can0 100#0100000000 R
(1755680242.418192) can0 101#0032060000 R
(1755680242.426186) can0 100#0100000000 R
(1755680242.426871) can0 101#0032060000 R
(1755680242.434535) can0 100#0100000000 R
(1755680242.435290) can0 101#0031060000 R
(1755680242.443194) can0 100#0100000000 R
(1755680242.443839) can0 101#0032060000 R
(1755680242.451647) can0 100#0100000000 R
(1755680242.452300) can0 101#0033060000 R
(1755680242.453413) can0 200#006B0EBE0EA10E R
(1755680242.454391) can0 200#01910E00000000 R
(1755680242.455329) can0 201#732F000000000000 R
(1755680242.456300) can0 202#AC3A0000AE030000 R
(1755680242.460146) can0 100#0100000000 R
(1755680242.460908) can0 101#0032060000 R
(1755680242.468780) can0 100#0100000000 R
(1755680242.469413) can0 101#0033060000 R
(1755680242.477526) can0 100#0100000000 R
(1755680242.477895) can0 101#0032060000 R
(1755680242.485822) can0 100#0100000000 R
(1755680242.486413) can0 101#0032060000 R
(1755680242.494327) can0 100#0100000000 R
(1755680242.495064) can0 101#0032060000 R
(1755680242.502712) can0 100#0100000000 R
(1755680242.503582) can0 101#0032060000 R
(1755680242.511272) can0 100#0100000000 R
(1755680242.512002) can0 101#0032060000 R
(1755680242.519805) can0 100#0100000000 R
(1755680242.520416) can0 101#002F060000 R
(1755680242.528494) can0 100#0100000000 R
(1755680242.529007) can0 101#0032060000 R
(1755680242.536980) can0 100#0100000000 R
(1755680242.537486) can0 101#0032060000 R
(1755680242.545406) can0 100#0100000000 R
(1755680242.546122) can0 101#0032060000 R
(1755680242.548146) can0 211#D72B8642FA7C0140 R
(1755680242.554006) can0 100#0100000000 R
(1755680242.554453) can0 101#0031060000 R
(1755680242.558497) can0 210#1DC88842ED010440 R
(1755680242.562226) can0 100#0100000000 R
(1755680242.563042) can0 101#0031060000 R
(1755680242.570798) can0 100#0100000000 R
(1755680242.571526) can0 101#002F060000 R
(1755680242.577507) can0 204#0000 R
(1755680242.577933) can0 203#481D R
(1755680242.579202) can0 100#0100000000 R
(1755680242.579983) can0 101#0032060000 R
(1755680242.587834) can0 100#0100000000 R
(1755680242.588573) can0 101#0031060000 R
(1755680242.596489) can0 100#0100000000 R
(1755680242.597116) can0 101#0031060000 R
(1755680242.604885) can0 100#0100000000 R
(1755680242.605582) can0 101#002F060000 R
(1755680242.613479) can0 100#0100000000 R
(1755680242.614085) can0 101#0032060000 R
(1755680242.621954) can0 100#0100000000 R
(1755680242.622603) can0 101#0032060000 R
(1755680242.630327) can0 100#0100000000 R
(1755680242.631033) can0 101#0031060000 R
(1755680242.638948) can0 100#0100000000 R
(1755680242.639551) can0 101#0031060000 R
(1755680242.647481) can0 100#0100000000 R
(1755680242.648177) can0 101#0032060000 R
(1755680242.654586) can0 200#00740EAD0E900E R
(1755680242.655386) can0 200#01AA0E00000000 R
(1755680242.656089) can0 100#0100000000 R
(1755680242.656930) can0 101#0031060000 R
(1755680242.657926) can0 201#3A2F000000000000 R
(1755680242.658868) can0 202#AC3A00006D020000 R
(1755680242.664546) can0 100#0100000000 R
(1755680242.665198) can0 101#0032060000 R
(1755680242.672978) can0 100#0100000000 R
(1755680242.673666) can0 101#0030060000 R
(1755680242.681630) can0 100#0100000000 R
(1755680242.682337) can0 101#0032060000 R
(1755680242.689867) can0 100#0100000000 R
(1755680242.690585) can0 101#0031060000 R
(1755680242.698423) can0 100#0100000000 R
(1755680242.699183) can0 101#0032060000 R
(1755680242.707003) can0 100#0100000000 R
(1755680242.707741) can0 101#0032060000 R
(1755680242.715632) can0 100#0100000000 R
(1755680242.716194) can0 101#0032060000 R
(1755680242.724080) can0 100#0100000000 R
(1755680242.724728) can0 101#002F060000 R
(1755680242.732550) can0 100#0100000000 R
(1755680242.733309) can0 101#0032060000 R
(1755680242.740923) can0 100#0100000000 R
(1755680242.741774) can0 101#0030060000 R
(1755680242.748084) can0 211#6D4B8F420C4B0A40 R
(1755680242.749458) can0 100#0100000000 R
(1755680242.750216) can0 101#0032060000 R
(1755680242.758012) can0 100#0100000000 R
(1755680242.758700) can0 101#0032060000 R
(1755680242.759633) can0 210#8EAC8F42C9A80A40 R
(1755680242.766505) can0 100#0100000000 R
(1755680242.767307) can0 101#0032060000 R
(1755680242.775096) can0 100#0100000000 R
(1755680242.775910) can0 101#0032060000 R
(1755680242.777178) can0 204#0000 R
(1755680242.777788) can0 203#D71C R
(1755680242.783638) can0 100#0100000000 R
(1755680242.784358) can0 101#0031060000 R
(1755680242.792440) can0 100#0100000000 R
(1755680242.792816) can0 101#0031060000 R
(1755680242.800678) can0 100#0100000000 R
(1755680242.801425) can0 101#0031060000 R
(1755680242.809261) can0 100#0100000000 R
(1755680242.809860) can0 101#0031060000 R
(1755680242.817697) can0 100#0100000000 R
(1755680242.818379) can0 101#0032060000 R
(1755680242.826238) can0 100#0100000000 R
(1755680242.827026) can0 101#0032060000 R
(1755680242.834703) can0 100#0100000000 R
(1755680242.835503) can0 101#0031060000 R
(1755680242.843111) can0 100#0100000000 R
(1755680242.844068) can0 101#0031060000 R
(1755680242.851686) can0 100#0100000000 R
(1755680242.852462) can0 101#0032060000 R
(1755680242.855640) can0 200#00590EA30EB50E R
(1755680242.856365) can0 200#01C50E00000000 R
(1755680242.857381) can0 201#012F000000000000 R
(1755680242.858213) can0 202#873A00005E030000 R
(1755680242.860101) can0 100#0100000000 R
(1755680242.860822) can0 101#0032060000 R
(1755680242.869139) can0 100#0100000000 R
(1755680242.869384) can0 101#0032060000 R
(1755680242.877252) can0 100#0100000000 R
(1755680242.877952) can0 101#0032060000 R
(1755680242.886045) can0 100#0100000000 R
(1755680242.886489) can0 101#0032060000 R
(1755680242.894425) can0 100#0100000000 R
(1755680242.895011) can0 101#0032060000 R
(1755680242.902818) can0 100#0100000000 R
(1755680242.903532) can0 101#0032060000 R
(1755680242.911383) can0 100#0100000000 R
(1755680242.912015) can0 101#0032060000 R
(1755680242.919734) can0 100#0100000000 R
(1755680242.920470) can0 101#0032060000 R
(1755680242.928416) can0 100#0100000000 R
(1755680242.929022) can0 101#0033060000 R
(1755680242.937161) can0 100#0100000000 R
(1755680242.937604) can0 101#0032060000 R
(1755680242.945597) can0 100#0100000000 R
(1755680242.945973) can0 101#0032060000 R
(1755680242.948118) can0 211#8F958E42869B0940 R
(1755680242.953854) can0 100#0100000000 R
(1755680242.954572) can0 101#0032060000 R
(1755680242.958437) can0 210#AF128C42162F0740 R
(1755680242.962271) can0 100#0100000000 R
(1755680242.963100) can0 101#0033060000 R
(1755680242.970864) can0 100#0100000000 R
(1755680242.971793) can0 101#0032060000 R
(1755680242.977277) can0 204#0000 R
(1755680242.977705) can0 203#971C R
(1755680242.979323) can0 100#0100000000 R
(1755680242.980013) can0 101#0033060000 R
(1755680242.987913) can0 100#0100000000 R
(1755680242.988637) can0 101#0032060000 R
(1755680242.996414) can0 100#0100000000 R
(1755680242.997146) can0 101#0031060000 R
(1755680243.004989) can0 100#0100000000 R
(1755680243.005688) can0 101#0032060000 R
(1755680243.013577) can0 100#0100000000 R
(1755680243.014173) can0 101#0032060000 R
(1755680243.021985) can0 100#0100000000 R
(1755680243.022766) can0 101#0032060000 R
(1755680243.030398) can0 100#0100000000 R
(1755680243.031169) can0 101#0031060000 R
(1755680243.039020) can0 100#0100000000 R
(1755680243.039666) can0 101#0032060000 R
(1755680243.047895) can0 100#0100000000 R
(1755680243.048253) can0 101#0032060000 R
(1755680243.056166) can0 100#0100000000 R
(1755680243.056900) can0 101#0032060000 R
(1755680243.057725) can0 200#00620EA40E9B0E R
(1755680243.058589) can0 200#01BA0E00000000 R
(1755680243.059531) can0 201#1D2F000000000000 R
(1755680243.060525) can0 202#903A000036030000 R
(1755680243.064586) can0 100#0100000000 R
(1755680243.065300) can0 101#0031060000 R
(1755680243.073099) can0 100#0100000000 R
(1755680243.073846) can0 101#0032060000 R
(1755680243.081572) can0 100#0100000000 R
(1755680243.082201) can0 101#0030060000 R
(1755680243.089963) can0 100#0100000000 R
(1755680243.090741) can0 101#0032060000 R
(1755680243.098691) can0 100#0100000000 R
(1755680243.099292) can0 101#0031060000 R
(1755680243.107159) can0 100#0100000000 R
(1755680243.107815) can0 101#0032060000 R
(1755680243.115613) can0 100#0100000000 R
(1755680243.116320) can0 101#0032060000 R
(1755680243.124213) can0 100#0100000000 R
(1755680243.124850) can0 101#0031060000 R
(1755680243.132635) can0 100#0100000000 R
(1755680243.133216) can0 101#0032060000 R
(1755680243.141189) can0 100#0100000000 R
(1755680243.141823) can0 101#0032060000 R
(1755680243.148428) can0 211#4182894292B50440 R
(1755680243.149721) can0 100#0100000000 R
(1755680243.150299) can0 101#0033060000 R
(1755680243.158432) can0 100#0100000000 R
(1755680243.159054) can0 101#0032060000 R
(1755680243.159813) can0 210#A72A8B42284F0640 R
(1755680243.166940) can0 100#0100000000 R
(1755680243.167360) can0 101#0031060000 R
(1755680243.175280) can0 100#0100000000 R
(1755680243.175919) can0 101#0032060000 R
(1755680243.177228) can0 204#0000 R
(1755680243.177707) can0 203#BD1C R
(1755680243.183718) can0 100#0100000000 R
(1755680243.184443) can0 101#0031060000 R
(1755680243.192472) can0 100#0100000000 R
(1755680243.193035) can0 101#0032060000 R
(1755680243.200606) can0 100#0100000000 R
(1755680243.201833) can0 101#0032060000 R
(1755680243.209196) can0 100#0100000000 R
(1755680243.209868) can0 101#0032060000 R
(1755680243.217715) can0 100#0100000000 R
(1755680243.218393) can0 101#0031060000 R
(1755680243.226196) can0 100#0100000000 R
(1755680243.227074) can0 101#0032060000 R
(1755680243.234812) can0 100#0100000000 R
(1755680243.235481) can0 101#0032060000 R
(1755680243.243368) can0 100#0100000000 R
(1755680243.244046) can0 101#0031060000 R
(1755680243.252026) can0 100#0100000000 R
(1755680243.252459) can0 101#0032060000 R
(1755680243.258927) can0 200#006B0EC70E900E R
(1755680243.259315) can0 200#01990E00000000 R
(1755680243.260245) can0 201#732F000000000000 R
(1755680243.261121) can0 100#0100000000 R
(1755680243.261896) can0 101#0032060000 R
(1755680243.263064) can0 202#AC3A00000E030000 R
(1755680243.269078) can0 100#0100000000 R
(1755680243.269433) can0 101#0031060000 R
(1755680243.277423) can0 100#0100000000 R
(1755680243.278062) can0 101#0033060000 R
(1755680243.286024) can0 100#0100000000 R
(1755680243.286671) can0 101#0033060000 R
(1755680243.294477) can0 100#0100000000 R
(1755680243.295135) can0 101#0033060000 R
(1755680243.302775) can0 100#0100000000 R
(1755680243.303531) can0 101#0034060000 R
(1755680243.311577) can0 100#0100000000 R
(1755680243.312238) can0 101#0034060000 R
(1755680243.319779) can0 100#0100000000 R
(1755680243.320512) can0 101#0035060000 R
(1755680243.328835) can0 100#0100000000 R
(1755680243.329146) can0 101#0033060000 R
(1755680243.337023) can0 100#0100000000 R
(1755680243.337715) can0 101#0033060000 R
(1755680243.345746) can0 100#0100000000 R
(1755680243.346120) can0 101#0033060000 R
(1755680243.348339) can0 211#CB5B884264990340 R
(1755680243.354184) can0 100#0100000000 R
(1755680243.354625) can0 101#0033060000 R
(1755680243.358553) can0 210#71F88942A2270540 R
(1755680243.362504) can0 100#0100000000 R
(1755680243.363096) can0 101#0033060000 R
(1755680243.370936) can0 100#0100000000 R
(1755680243.371789) can0 101#0032060000 R
(1755680243.377686) can0 204#0000 R
(1755680243.378098) can0 203#031D R
(1755680243.379428) can0 100#0100000000 R
(1755680243.380137) can0 101#0034060000 R
(1755680243.388127) can0 100#0100000000 R
(1755680243.388593) can0 101#0033060000 R
(1755680243.396564) can0 100#0100000000 R
(1755680243.397352) can0 101#0033060000 R
(1755680243.404951) can0 100#0100000000 R
(1755680243.405736) can0 101#0033060000 R
(1755680243.413515) can0 100#0100000000 R
(1755680243.414183) can0 101#0033060000 R
(1755680243.422348) can0 100#0100000000 R
(1755680243.422694) can0 101#0033060000 R
(1755680243.430475) can0 100#0100000000 R
(1755680243.431224) can0 101#0034060000 R
(1755680243.439427) can0 100#0100000000 R
(1755680243.439699) can0 101#0034060000 R
(1755680243.447597) can0 100#0100000000 R
(1755680243.448297) can0 101#0035060000 R
(1755680243.456096) can0 100#0100000000 R
(1755680243.457215) can0 101#0036060000 R
(1755680243.460366) can0 200#006B0EBE0E910E R
(1755680243.461197) can0 200#01AA0E00000000 R
(1755680243.462192) can0 201#6D2F000000000000 R
(1755680243.463147) can0 202#AC3A000045020000 R
(1755680243.464818) can0 100#0100000000 R
(1755680243.465802) can0 101#0036060000 R
(1755680243.473130) can0 100#0100000000 R
(1755680243.473756) can0 101#003A060000 R
(1755680243.481669) can0 100#0100000000 R
(1755680243.482693) can0 101#0038060000 R
(1755680243.490128) can0 100#0100000000 R
(1755680243.490816) can0 101#003A060000 R
(1755680243.499037) can0 100#0100000000 R
(1755680243.499362) can0 101#003A060000 R
(1755680243.507541) can0 100#0100000000 R
(1755680243.507882) can0 101#003A060000 R
(1755680243.515890) can0 100#0100000000 R
(1755680243.516487) can0 101#0039060000 R
(1755680243.524192) can0 100#0100000000 R
(1755680243.524906) can0 101#003D060000 R
(1755680243.532757) can0 100#0100000000 R
(1755680243.533542) can0 101#003A060000 R
(1755680243.541248) can0 100#0100000000 R
(1755680243.541873) can0 101#003A060000 R
(1755680243.548101) can0 211#BAD18442F22E0040 R
(1755680243.549732) can0 100#0100000000 R
(1755680243.550421) can0 101#003B060000 R
(1755680243.558448) can0 100#0100000000 R
(1755680243.558935) can0 101#003A060000 R
(1755680243.559842) can0 210#0A798942ADAC0440 R
(1755680243.566758) can0 100#0100000000 R
(1755680243.567530) can0 101#003B060000 R
(1755680243.575597) can0 100#0100000000 R
(1755680243.575896) can0 101#003A060000 R
(1755680243.577286) can0 204#0000 R
(1755680243.577835) can0 203#1D1D R
(1755680243.583775) can0 100#0100000000 R
(1755680243.584547) can0 101#003C060000 R
(1755680243.592246) can0 100#0100000000 R
(1755680243.593096) can0 101#003C060000 R
(1755680243.600787) can0 100#0100000000 R
(1755680243.601945) can0 101#003B060000 R
(1755680243.609580) can0 100#0100000000 R
(1755680243.609982) can0 101#003D060000 R
(1755680243.617947) can0 100#0100000000 R
(1755680243.618717) can0 101#003C060000 R
(1755680243.626796) can0 100#0100000000 R
(1755680243.627074) can0 101#003C060000 R
(1755680243.635053) can0 100#0100000000 R
(1755680243.635598) can0 101#003C060000 R
(1755680243.643398) can0 100#0100000000 R
(1755680243.644091) can0 101#003C060000 R
(1755680243.651949) can0 100#0100000000 R
(1755680243.652572) can0 101#003C060000 R
(1755680243.660288) can0 100#0100000000 R
(1755680243.661110) can0 101#003D060000 R
(1755680243.662035) can0 200#006B0EC70EB20E R
(1755680243.663042) can0 200#01890E00000000 R
(1755680243.664063) can0 201#452F000000000000 R
(1755680243.664894) can0 202#BE3A00006D020000 R
(1755680243.669018) can0 100#0100000000 R
(1755680243.669674) can0 101#003C060000 R
(1755680243.677493) can0 100#0100000000 R
(1755680243.678162) can0 101#003E060000 R
(1755680243.685912) can0 100#0100000000 R
(1755680243.686704) can0 101#003D060000 R
(1755680243.694501) can0 100#0100000000 R
(1755680243.695145) can0 101#003A060000 R
(1755680243.703051) can0 100#0100000000 R
(1755680243.703674) can0 101#003C060000 R
(1755680243.711582) can0 100#0100000000 R
(1755680243.712278) can0 101#003C060000 R
(1755680243.719978) can0 100#0100000000 R
(1755680243.720734) can0 101#003D060000 R
(1755680243.728838) can0 100#0100000000 R
(1755680243.729193) can0 101#003C060000 R
(1755680243.737302) can0 100#0100000000 R
(1755680243.737845) can0 101#003C060000 R
(1755680243.745823) can0 100#0100000000 R
(1755680243.746240) can0 101#003D060000 R
(1755680243.748239) can0 211#5DA8A34208F21D40 R
(1755680243.754215) can0 100#0100000000 R
(1755680243.754787) can0 101#003D060000 R
(1755680243.758521) can0 210#1992A2427BE51C40 R
(1755680243.762478) can0 100#0100000000 R
(1755680243.763200) can0 101#003E060000 R
(1755680243.771078) can0 100#0100000000 R
(1755680243.771810) can0 101#003D060000 R
(1755680243.777296) can0 204#0000 R
(1755680243.777808) can0 203#D41C R
(1755680243.779789) can0 100#0100000000 R
(1755680243.780217) can0 101#003C060000 R
(1755680243.788416) can0 100#0100000000 R
(1755680243.788832) can0 101#003C060000 R
(1755680243.796795) can0 100#0100000000 R
(1755680243.797274) can0 101#003D060000 R
(1755680243.805183) can0 100#0100000000 R
(1755680243.805874) can0 101#003D060000 R
(1755680243.813643) can0 100#0100000000 R
(1755680243.814337) can0 101#003E060000 R
(1755680243.822298) can0 100#0100000000 R
(1755680243.822858) can0 101#003D060000 R
(1755680243.830691) can0 100#0100000000 R
(1755680243.831503) can0 101#003D060000 R
(1755680243.839484) can0 100#0100000000 R
(1755680243.839920) can0 101#003E060000 R
(1755680243.847716) can0 100#0100000000 R
(1755680243.848413) can0 101#003C060000 R
(1755680243.856221) can0 100#0100000000 R
(1755680243.856950) can0 101#003D060000 R
(1755680243.864742) can0 100#0100000000 R
(1755680243.865419) can0 101#003D060000 R
(1755680243.866282) can0 200#006B0EAD0E910E R
(1755680243.867140) can0 200#019F0E00000000 R
(1755680243.868085) can0 201#1D2F000000000000 R
(1755680243.869194) can0 202#A33A0000FE030000 R
(1755680243.873623) can0 100#0100000000 R
(1755680243.874048) can0 101#003D060000 R
(1755680243.881682) can0 100#0100000000 R
(1755680243.882479) can0 101#003D060000 R
(1755680243.890257) can0 100#0100000000 R
(1755680243.891044) can0 101#003E060000 R
(1755680243.898698) can0 100#0100000000 R
(1755680243.899500) can0 101#003D060000 R
(1755680243.907579) can0 100#0100000000 R
(1755680243.907945) can0 101#003E060000 R
(1755680243.915805) can0 100#0100000000 R
(1755680243.916466) can0 101#003E060000 R
(1755680243.924789) can0 100#0100000000 R
(1755680243.925074) can0 101#0040060000 R
(1755680243.932812) can0 100#0100000000 R
(1755680243.933459) can0 101#004A060000 R
(1755680243.941635) can0 100#0100000000 R
(1755680243.942052) can0 101#004B060000 R
(1755680243.948560) can0 211#1041B4426FF62D40 R
(1755680243.949719) can0 100#0100000000 R
(1755680243.950517) can0 101#004F060000 R
(1755680243.958521) can0 100#0100000000 R
(1755680243.959029) can0 101#0052060000 R
(1755680243.959949) can0 210#3747B54270F32E40 R
(1755680243.966703) can0 100#0100000000 R
(1755680243.967602) can0 101#0054060000 R
(1755680243.975316) can0 100#0100000000 R
(1755680243.976099) can0 101#0056060000 R
(1755680243.977295) can0 204#0000 R
(1755680243.977845) can0 203#971C R
(1755680243.983944) can0 100#0100000000 R
(1755680243.984693) can0 101#0056060000 R
(1755680243.992625) can0 100#0100000000 R
(1755680243.993209) can0 101#0056060000 R
(1755680244.000837) can0 100#0100000000 R
(1755680244.001627) can0 101#0057060000 R
(1755680244.009441) can0 100#0100000000 R
(1755680244.010121) can0 101#0059060000 R
(1755680244.017890) can0 100#0100000000 R
(1755680244.018518) can0 101#005A060000 R
(1755680244.026779) can0 100#0100000000 R
(1755680244.027124) can0 101#0059060000 R
(1755680244.035144) can0 100#0100000000 R
(1755680244.035568) can0 101#0059060000 R
(1755680244.043626) can0 100#0100000000 R
(1755680244.044210) can0 101#0059060000 R
(1755680244.052154) can0 100#0100000000 R
(1755680244.052644) can0 101#0059060000 R
(1755680244.060446) can0 100#0100000000 R
(1755680244.061103) can0 101#0059060000 R
(1755680244.067347) can0 200#006B0EBE0E910E R
(1755680244.068100) can0 200#018E0E00000000 R
(1755680244.068952) can0 201#8A2F000000000000 R
(1755680244.069803) can0 100#0100000000 R
(1755680244.070489) can0 101#0059060000 R
(1755680244.071531) can0 202#AC3A0000FE030000 R
(1755680244.077673) can0 100#0100000000 R
(1755680244.078262) can0 101#0058060000 R
(1755680244.086044) can0 100#0100000000 R
(1755680244.086738) can0 101#0058060000 R
(1755680244.094689) can0 100#0100000000 R
(1755680244.095411) can0 101#0059060000 R
(1755680244.103116) can0 100#0100000000 R
(1755680244.103753) can0 101#005C060000 R
(1755680244.111638) can0 100#0100000000 R
(1755680244.112286) can0 101#0059060000 R
(1755680244.120027) can0 100#0100000000 R
(1755680244.120790) can0 101#0059060000 R
(1755680244.128919) can0 100#0100000000 R
(1755680244.129233) can0 101#0059060000 R
(1755680244.137140) can0 100#0100000000 R
(1755680244.137810) can0 101#005A060000 R
(1755680244.145638) can0 100#0100000000 R
(1755680244.146414) can0 101#0059060000 R
(1755680244.148231) can0 211#70A605433CFC8040 R
(1755680244.154150) can0 100#0100000000 R
(1755680244.154832) can0 101#0059060000 R
(1755680244.158828) can0 210#06A80543C3FD8040 R
(1755680244.162623) can0 100#0100000000 R
(1755680244.163395) can0 101#0058060000 R
(1755680244.171123) can0 100#0100000000 R
(1755680244.171842) can0 101#0059060000 R
(1755680244.177770) can0 204#0000 R
(1755680244.178190) can0 203#BD1C R
(1755680244.179758) can0 100#0100000000 R
(1755680244.180436) can0 101#0058060000 R
(1755680244.188177) can0 100#0100000000 R
(1755680244.188794) can0 101#0059060000 R
(1755680244.196728) can0 100#0100000000 R
(1755680244.197486) can0 101#0058060000 R
(1755680244.205214) can0 100#0100000000 R
(1755680244.205938) can0 101#0058060000 R
(1755680244.213770) can0 100#0100000000 R
(1755680244.214378) can0 101#0059060000 R
(1755680244.222239) can0 100#0100000000 R
(1755680244.222839) can0 101#0059060000 R
(1755680244.230816) can0 100#0100000000 R
(1755680244.231651) can0 101#0058060000 R
(1755680244.239341) can0 100#0100000000 R
(1755680244.239932) can0 101#0058060000 R
(1755680244.247815) can0 100#0100000000 R
(1755680244.248493) can0 101#0059060000 R
(1755680244.256340) can0 100#0100000000 R
(1755680244.256989) can0 101#005C060000 R
(1755680244.264863) can0 100#0100000000 R
(1755680244.265517) can0 101#0059060000 R
(1755680244.269611) can0 200#00590EA30EAD0E R
(1755680244.270439) can0 200#01BB0E00000000 R
(1755680244.271322) can0 201#7E2F000000000000 R
(1755680244.272321) can0 202#7E3A000036030000 R
(1755680244.273325) can0 100#0100000000 R
(1755680244.273956) can0 101#0059060000 R
(1755680244.281874) can0 100#0100000000 R
(1755680244.282433) can0 101#005A060000 R
(1755680244.290338) can0 100#0100000000 R
(1755680244.291102) can0 101#005A060000 R
(1755680244.298990) can0 100#0100000000 R
(1755680244.299504) can0 101#005B060000 R
(1755680244.307674) can0 100#0100000000 R
(1755680244.307992) can0 101#005E060000 R
(1755680244.316091) can0 100#0100000000 R
(1755680244.316571) can0 101#005E060000 R
(1755680244.324316) can0 100#0100000000 R
(1755680244.325090) can0 101#005E060000 R
(1755680244.333253) can0 100#0100000000 R
(1755680244.333588) can0 101#005E060000 R
(1755680244.341538) can0 100#0100000000 R
(1755680244.342056) can0 101#0060060000 R
(1755680244.348533) can0 211#A256084368948340 R
(1755680244.349859) can0 100#0100000000 R
(1755680244.350568) can0 101#005F060000 R
(1755680244.358373) can0 100#0100000000 R
(1755680244.359100) can0 101#005E060000 R
(1755680244.360031) can0 210#5AE1054317358140 R
(1755680244.367300) can0 100#0100000000 R
(1755680244.367626) can0 101#005F060000 R
(1755680244.375780) can0 100#0100000000 R
(1755680244.376226) can0 101#005F060000 R
(1755680244.377312) can0 204#0000 R
(1755680244.377836) can0 203#461D R
(1755680244.384059) can0 100#0100000000 R
(1755680244.384743) can0 101#005F060000 R
(1755680244.392524) can0 100#0100000000 R
(1755680244.393250) can0 101#0060060000 R
(1755680244.401054) can0 100#0100000000 R
(1755680244.401827) can0 101#0060060000 R
(1755680244.409624) can0 100#0100000000 R
(1755680244.410257) can0 101#0060060000 R
(1755680244.417969) can0 100#0100000000 R
(1755680244.418734) can0 101#0061060000 R
(1755680244.426681) can0 100#0100000000 R
(1755680244.427201) can0 101#0062060000 R
(1755680244.435126) can0 100#0100000000 R
(1755680244.435787) can0 101#0061060000 R
(1755680244.443673) can0 100#0100000000 R
(1755680244.444332) can0 101#0061060000 R
(1755680244.452047) can0 100#0100000000 R
(1755680244.453069) can0 101#0062060000 R
(1755680244.460476) can0 100#0100000000 R
(1755680244.461208) can0 101#0060060000 R
(1755680244.469481) can0 100#0100000000 R
(1755680244.469718) can0 101#0061060000 R
(1755680244.471557) can0 200#006B0EA40E9A0E R
(1755680244.472495) can0 200#019F0E00000000 R
(1755680244.473426) can0 201#2E2F000000000000 R
(1755680244.474403) can0 202#9A3A00000E030000 R
(1755680244.478040) can0 100#0100000000 R
(1755680244.478308) can0 101#0061060000 R
(1755680244.486229) can0 100#0100000000 R
(1755680244.486729) can0 101#0062060000 R
(1755680244.494644) can0 100#0100000000 R
(1755680244.495330) can0 101#0062060000 R
(1755680244.503473) can0 100#0100000000 R
(1755680244.503749) can0 101#0066060000 R
(1755680244.511618) can0 100#0100000000 R
(1755680244.512338) can0 101#0069060000 R
(1755680244.520251) can0 100#0100000000 R
(1755680244.520968) can0 101#006C060000 R
(1755680244.528754) can0 100#0100000000 R
(1755680244.529427) can0 101#0070060000 R
(1755680244.537230) can0 100#0100000000 R
(1755680244.537896) can0 101#0072060000 R
(1755680244.545652) can0 100#0100000000 R
(1755680244.546306) can0 101#0073060000 R
(1755680244.548616) can0 211#102110433A198B40 R
(1755680244.554369) can0 100#0100000000 R
(1755680244.555000) can0 101#0075060000 R
(1755680244.558744) can0 210#A54610437E3D8B40 R
(1755680244.562943) can0 100#0100000000 R
(1755680244.563369) can0 101#0074060000 R
(1755680244.571182) can0 100#0100000000 R
(1755680244.571841) can0 101#0076060000 R
(1755680244.577322) can0 204#0000 R
(1755680244.577858) can0 203#1D1D R
(1755680244.579679) can0 100#0100000000 R
(1755680244.580372) can0 101#0076060000 R
(1755680244.588359) can0 100#0100000000 R
(1755680244.589064) can0 101#0076060000 R
(1755680244.596862) can0 100#0100000000 R
(1755680244.597470) can0 101#0077060000 R
(1755680244.605632) can0 100#0100000000 R
(1755680244.605934) can0 101#0076060000 R
(1755680244.613710) can0 100#0100000000 R
(1755680244.614470) can0 101#0076060000 R
(1755680244.622317) can0 100#0100000000 R
(1755680244.622997) can0 101#0076060000 R
(1755680244.630748) can0 100#0100000000 R
(1755680244.631462) can0 101#0074060000 R
(1755680244.639439) can0 100#0100000000 R
(1755680244.640033) can0 101#0076060000 R
(1755680244.648055) can0 100#0100000000 R
(1755680244.648531) can0 101#0075060000 R
(1755680244.656629) can0 100#0100000000 R
(1755680244.657052) can0 101#0076060000 R
(1755680244.664951) can0 100#0100000000 R
(1755680244.665526) can0 101#0078060000 R
(1755680244.673345) can0 100#0100000000 R
(1755680244.674004) can0 101#0076060000 R
(1755680244.675007) can0 200#00590E910EA50E R
(1755680244.676081) can0 200#01A80E00000000 R
(1755680244.677187) can0 201#292F000000000000 R
(1755680244.677827) can0 202#6C3A0000E8070000 R
(1755680244.681747) can0 100#0100000000 R
(1755680244.682633) can0 101#0075060000 R
(1755680244.690337) can0 100#0100000000 R
(1755680244.691028) can0 101#0077060000 R
(1755680244.698816) can0 100#0100000000 R
(1755680244.699613) can0 101#0077060000 R
(1755680244.707335) can0 100#0100000000 R
(1755680244.708041) can0 101#0076060000 R
(1755680244.716363) can0 100#0100000000 R
(1755680244.716656) can0 101#0076060000 R
(1755680244.724504) can0 100#0100000000 R
(1755680244.725087) can0 101#0076060000 R
(1755680244.733106) can0 100#0100000000 R
(1755680244.733572) can0 101#0075060000 R
(1755680244.741669) can0 100#0100000000 R
(1755680244.742203) can0 101#0077060000 R
(1755680244.748347) can0 211#0EA83043947DAA40 R
(1755680244.749914) can0 100#0100000000 R
(1755680244.750584) can0 101#0075060000 R
(1755680244.758951) can0 210#B8C132437A84AC40 R
(1755680244.759200) can0 100#0100000000 R
(1755680244.760000) can0 101#0077060000 R
(1755680244.767252) can0 100#0100000000 R
(1755680244.767657) can0 101#0076060000 R
(1755680244.775603) can0 100#0100000000 R
(1755680244.776158) can0 101#0076060000 R
(1755680244.777712) can0 204#0000 R
(1755680244.777729) can0 203#D71C R
(1755680244.784044) can0 100#0100000000 R
(1755680244.785090) can0 101#0078060000 R
(1755680244.792460) can0 100#0100000000 R
(1755680244.793163) can0 101#0076060000 R
(1755680244.801013) can0 100#0100000000 R
(1755680244.801728) can0 101#0078060000 R
(1755680244.809586) can0 100#0100000000 R
(1755680244.810235) can0 101#0076060000 R
(1755680244.817971) can0 100#0100000000 R
(1755680244.818653) can0 101#0075060000 R
(1755680244.826583) can0 100#0100000000 R
(1755680244.827258) can0 101#0076060000 R
(1755680244.835119) can0 100#0100000000 R
(1755680244.835799) can0 101#0074060000 R
(1755680244.843621) can0 100#0100000000 R
(1755680244.844414) can0 101#0077060000 R
(1755680244.852040) can0 100#0100000000 R
(1755680244.852884) can0 101#0078060000 R
(1755680244.860738) can0 100#0100000000 R
(1755680244.861778) can0 101#0077060000 R
(1755680244.869187) can0 100#0100000000 R
(1755680244.869730) can0 101#0079060000 R
(1755680244.877992) can0 100#0100000000 R
(1755680244.878378) can0 101#0078060000 R
(1755680244.879184) can0 200#006B0E9B0E910E R
(1755680244.880052) can0 200#01B10E00000000 R
(1755680244.881170) can0 201#732F000000000000 R
(1755680244.882014) can0 202#873A0000FE030000 R
(1755680244.886067) can0 100#0100000000 R
(1755680244.886822) can0 101#007A060000 R
(1755680244.894678) can0 100#0100000000 R
(1755680244.895368) can0 101#007B060000 R
(1755680244.903296) can0 100#0100000000 R
(1755680244.903932) can0 101#007C060000 R
(1755680244.911757) can0 100#0100000000 R
(1755680244.912506) can0 101#007F060000 R
(1755680244.920087) can0 100#0100000000 R
(1755680244.920867) can0 101#007D060000 R
(1755680244.928963) can0 100#0100000000 R
(1755680244.929448) can0 101#0080060000 R
(1755680244.937296) can0 100#0100000000 R
(1755680244.937842) can0 101#007F060000 R
(1755680244.945844) can0 100#0100000000 R
(1755680244.946497) can0 101#0080060000 R
(1755680244.948222) can0 211#3212384377A5B140 R
(1755680244.954226) can0 100#0100000000 R
(1755680244.955003) can0 101#0083060000 R
(1755680244.958473) can0 210#4D183A437D99B340 R
(1755680244.962997) can0 100#0100000000 R
(1755680244.963482) can0 101#0080060000 R
(1755680244.971527) can0 100#0100000000 R
(1755680244.971959) can0 101#007F060000 R
(1755680244.978194) can0 204#0000 R
(1755680244.978375) can0 203#971C R
(1755680244.979708) can0 100#0100000000 R
(1755680244.980477) can0 101#0080060000 R
(1755680244.988285) can0 100#0100000000 R
(1755680244.988923) can0 101#0081060000 R
(1755680244.997045) can0 100#0100000000 R
(1755680244.997581) can0 101#0080060000 R
(1755680245.005645) can0 100#0100000000 R
(1755680245.006144) can0 101#0080060000 R
(1755680245.014034) can0 100#0100000000 R
(1755680245.014536) can0 101#0081060000 R
(1755680245.022343) can0 100#0100000000 R
(1755680245.023075) can0 101#0081060000 R
(1755680245.030850) can0 100#0100000000 R
(1755680245.031880) can0 101#0080060000 R
(1755680245.039299) can0 100#0100000000 R
(1755680245.040052) can0 101#0081060000 R
(1755680245.048174) can0 100#0100000000 R
(1755680245.048657) can0 101#0081060000 R
(1755680245.056592) can0 100#0100000000 R
(1755680245.057121) can0 101#0080060000 R
(1755680245.065018) can0 100#0100000000 R
(1755680245.065665) can0 101#0081060000 R
(1755680245.073806) can0 100#0100000000 R
(1755680245.074133) can0 101#0081060000 R
(1755680245.080780) can0 200#006B0EB60E880E R
(1755680245.081797) can0 200#019F0E00000000 R
(1755680245.082538) can0 100#0100000000 R
(1755680245.083591) can0 101#0081060000 R
(1755680245.084202) can0 201#732F000000000000 R
(1755680245.085244) can0 202#9A3A00004E040000 R
(1755680245.090340) can0 100#0100000000 R
(1755680245.091096) can0 101#0083060000 R
(1755680245.099114) can0 100#0100000000 R
(1755680245.099625) can0 101#0081060000 R
(1755680245.107486) can0 100#0100000000 R
(1755680245.108111) can0 101#0082060000 R
(1755680245.116238) can0 100#0100000000 R
(1755680245.116842) can0 101#0081060000 R
(1755680245.124619) can0 100#0100000000 R
(1755680245.125211) can0 101#0082060000 R
(1755680245.133442) can0 100#0100000000 R
(1755680245.133726) can0 101#0082060000 R
(1755680245.141463) can0 100#0100000000 R
(1755680245.142216) can0 101#0084060000 R
(1755680245.148420) can0 211#47934D436666C640 R
(1755680245.149990) can0 100#0100000000 R
(1755680245.150709) can0 101#0082060000 R
(1755680245.158972) can0 210#FE584D43272EC640 R
(1755680245.159235) can0 100#0100000000 R
(1755680245.160008) can0 101#0081060000 R
(1755680245.167403) can0 100#0100000000 R
(1755680245.167941) can0 101#0083060000 R
(1755680245.175547) can0 100#0100000000 R
(1755680245.176241) can0 101#0088060000 R
(1755680245.177287) can0 204#0000 R
(1755680245.177869) can0 203#031D R
(1755680245.184279) can0 100#0100000000 R
(1755680245.184854) can0 101#008C060000 R
(1755680245.192625) can0 100#0100000000 R
(1755680245.193339) can0 101#0090060000 R
(1755680245.201057) can0 100#0100000000 R
(1755680245.201871) can0 101#0094060000 R
(1755680245.209494) can0 100#0100000000 R
(1755680245.210238) can0 101#0097060000 R
(1755680245.218259) can0 100#0100000000 R
(1755680245.218857) can0 101#009A060000 R
(1755680245.226691) can0 100#0100000000 R
(1755680245.227440) can0 101#009D060000 R
(1755680245.235260) can0 100#0100000000 R
(1755680245.235905) can0 101#009C060000 R
(1755680245.243952) can0 100#0100000000 R
(1755680245.244360) can0 101#009C060000 R
(1755680245.252521) can0 100#0100000000 R
(1755680245.252928) can0 101#009D060000 R
(1755680245.260575) can0 100#0100000000 R
(1755680245.261490) can0 101#009C060000 R
(1755680245.269675) can0 100#0100000000 R
(1755680245.269892) can0 101#009D060000 R
(1755680245.277790) can0 100#0100000000 R
(1755680245.278518) can0 101#009E060000 R
(1755680245.282660) can0 200#00590E9A0E940E R
(1755680245.283855) can0 200#01A70E00000000 R
(1755680245.284479) can0 201#732F000000000000 R
(1755680245.285389) can0 202#6C3A00007F060000 R
(1755680245.286196) can0 100#0100000000 R
(1755680245.287147) can0 101#009D060000 R
(1755680245.294741) can0 100#0100000000 R
(1755680245.295482) can0 101#009E060000 R
(1755680245.303384) can0 100#0100000000 R
(1755680245.304000) can0 101#009C060000 R
(1755680245.311785) can0 100#0100000000 R
(1755680245.312705) can0 101#009B060000 R
(1755680245.320201) can0 100#0100000000 R
(1755680245.320929) can0 101#009C060000 R
(1755680245.328821) can0 100#0100000000 R
(1755680245.329411) can0 101#009C060000 R
(1755680245.337283) can0 100#0100000000 R
(1755680245.338225) can0 101#009C060000 R
(1755680245.345967) can0 100#0100000000 R
(1755680245.346527) can0 101#009B060000 R
(1755680245.348289) can0 211#B6AB5C43F4F7D440 R
(1755680245.354312) can0 100#0100000000 R
(1755680245.355092) can0 101#009C060000 R
(1755680245.358510) can0 210#15C05B438C14D440 R
(1755680245.362788) can0 100#0100000000 R
(1755680245.363631) can0 101#009F060000 R
(1755680245.371425) can0 100#0100000000 R
(1755680245.372011) can0 101#009C060000 R
(1755680245.377453) can0 204#0000 R
(1755680245.377817) can0 203#481D R
(1755680245.379740) can0 100#0100000000 R
(1755680245.380486) can0 101#009E060000 R
(1755680245.388343) can0 100#0100000000 R
(1755680245.389046) can0 101#009C060000 R
(1755680245.396780) can0 100#0100000000 R
(1755680245.397510) can0 101#009B060000 R
(1755680245.405342) can0 100#0100000000 R
(1755680245.406072) can0 101#009D060000 R
(1755680245.413906) can0 100#0100000000 R
(1755680245.414634) can0 101#009E060000 R
(1755680245.422478) can0 100#0100000000 R
(1755680245.423126) can0 101#009B060000 R
(1755680245.431010) can0 100#0100000000 R
(1755680245.431671) can0 101#009B060000 R
(1755680245.439403) can0 100#0100000000 R
(1755680245.440109) can0 101#009C060000 R
(1755680245.447953) can0 100#0100000000 R
(1755680245.448682) can0 101#009D060000 R
(1755680245.456507) can0 100#0100000000 R
(1755680245.457234) can0 101#009B060000 R
(1755680245.464990) can0 100#0100000000 R
(1755680245.465748) can0 101#009C060000 R
(1755680245.473720) can0 100#0100000000 R
(1755680245.474266) can0 101#009B060000 R
(1755680245.482182) can0 100#0100000000 R
(1755680245.482774) can0 101#009D060000 R
(1755680245.485144) can0 200#00620EAD0E880E R
(1755680245.486214) can0 200#01970E00000000 R
(1755680245.486946) can0 201#6D2F000000000000 R
(1755680245.488315) can0 202#7E3A00007F060000 R
(1755680245.490452) can0 100#0100000000 R
(1755680245.491200) can0 101#009C060000 R
(1755680245.499190) can0 100#0100000000 R
(1755680245.499737) can0 101#009C060000 R
(1755680245.507548) can0 100#0100000000 R
(1755680245.508208) can0 101#009B060000 R
(1755680245.516057) can0 100#0100000000 R
(1755680245.516796) can0 101#009D060000 R
(1755680245.524687) can0 100#0100000000 R
(1755680245.525429) can0 101#009C060000 R
(1755680245.533183) can0 100#0100000000 R
(1755680245.533832) can0 101#009D060000 R
(1755680245.541543) can0 100#0100000000 R
(1755680245.542396) can0 101#009B060000 R
(1755680245.548192) can0 211#01E37343CD5FEB40 R
(1755680245.549983) can0 100#0100000000 R
(1755680245.550788) can0 101#009B060000 R
(1755680245.558528) can0 210#8FE472433E6AEA40 R
(1755680245.559209) can0 100#0100000000 R
(1755680245.559920) can0 101#009B060000 R
(1755680245.567175) can0 100#0100000000 R
(1755680245.567863) can0 101#009B060000 R
(1755680245.575666) can0 100#0100000000 R
(1755680245.576397) can0 101#009B060000 R
(1755680245.577334) can0 204#0000 R
(1755680245.577824) can0 203#1D1D R
(1755680245.584067) can0 100#0100000000 R
(1755680245.584812) can0 101#009F060000 R
(1755680245.592730) can0 100#0100000000 R
(1755680245.593448) can0 101#00A0060000 R
(1755680245.601208) can0 100#0100000000 R
(1755680245.601954) can0 101#00A5060000 R
(1755680245.609719) can0 100#0100000000 R
(1755680245.610439) can0 101#00A6060000 R
(1755680245.618546) can0 100#0100000000 R
(1755680245.618939) can0 101#00A9060000 R
(1755680245.627049) can0 100#0100000000 R
(1755680245.627451) can0 101#00AB060000 R
(1755680245.635143) can0 100#0100000000 R
(1755680245.635990) can0 101#00AC060000 R
(1755680245.643668) can0 100#0100000000 R
(1755680245.644458) can0 101#00AC060000 R
(1755680245.652181) can0 100#0100000000 R
(1755680245.653000) can0 101#00AF060000 R
(1755680245.660944) can0 100#0100000000 R
(1755680245.661672) can0 101#00AC060000 R
(1755680245.669570) can0 100#0100000000 R
(1755680245.669932) can0 101#00AC060000 R
(1755680245.678050) can0 100#0100000000 R
(1755680245.678630) can0 101#00AE060000 R
(1755680245.686727) can0 100#0100000000 R
(1755680245.687092) can0 101#00AE060000 R
(1755680245.688171) can0 200#00620EA40E890E R
(1755680245.688891) can0 200#019F0E00000000 R
(1755680245.689861) can0 201#232F000000000000 R
(1755680245.690843) can0 202#753A000020070000 R
(1755680245.694789) can0 100#0100000000 R
(1755680245.695524) can0 101#00B0060000 R
(1755680245.703302) can0 100#0100000000 R
(1755680245.704041) can0 101#00B5060000 R
(1755680245.712042) can0 100#0100000000 R
(1755680245.712579) can0 101#00B9060000 R
(1755680245.720247) can0 100#0100000000 R
(1755680245.721054) can0 101#00BE060000 R
(1755680245.728980) can0 100#0100000000 R
(1755680245.729587) can0 101#00BD060000 R
(1755680245.737747) can0 100#0100000000 R
(1755680245.738022) can0 101#00BE060000 R
(1755680245.745995) can0 100#0100000000 R
(1755680245.746687) can0 101#00C1060000 R
(1755680245.748281) can0 211#FD208543717B0041 R
(1755680245.754375) can0 100#0100000000 R
(1755680245.755047) can0 101#00C3060000 R
(1755680245.758444) can0 210#AC6B8743A6B10241 R
(1755680245.762938) can0 100#0100000000 R
(1755680245.763720) can0 101#00C0060000 R
(1755680245.771380) can0 100#0100000000 R
(1755680245.772165) can0 101#00C1060000 R
(1755680245.778105) can0 204#0000 R
(1755680245.778439) can0 203#D71C R
(1755680245.779874) can0 100#0100000000 R
(1755680245.780687) can0 101#00C1060000 R
(1755680245.788534) can0 100#0100000000 R
(1755680245.789109) can0 101#00C3060000 R
(1755680245.797184) can0 100#0100000000 R
(1755680245.797764) can0 101#00C1060000 R
(1755680245.805624) can0 100#0100000000 R
(1755680245.806140) can0 101#00C0060000 R
(1755680245.814197) can0 100#0100000000 R
(1755680245.814737) can0 101#00C0060000 R
(1755680245.822620) can0 100#0100000000 R
(1755680245.823339) can0 101#00C0060000 R
(1755680245.831026) can0 100#0100000000 R
(1755680245.832144) can0 101#00C1060000 R
(1755680245.839497) can0 100#0100000000 R
(1755680245.840239) can0 101#00C1060000 R
(1755680245.848136) can0 100#0100000000 R
(1755680245.848797) can0 101#00C1060000 R
(1755680245.856926) can0 100#0100000000 R
(1755680245.857214) can0 101#00C2060000 R
(1755680245.865317) can0 100#0100000000 R
(1755680245.865814) can0 101#00C1060000 R
(1755680245.873764) can0 100#0100000000 R
(1755680245.874430) can0 101#00C1060000 R
(1755680245.882157) can0 100#0100000000 R
(1755680245.882880) can0 101#00C0060000 R
(1755680245.890049) can0 200#00470EAC0EB60E R
(1755680245.890828) can0 100#0100000000 R
(1755680245.891674) can0 101#00C1060000 R
(1755680245.892564) can0 200#019F0E00000000 R
(1755680245.893571) can0 201#782F000000000000 R
(1755680245.894535) can0 202#633A0000C0070000 R
(1755680245.899152) can0 100#0100000000 R
(1755680245.899758) can0 101#00C2060000 R
(1755680245.907666) can0 100#0100000000 R
(1755680245.908411) can0 101#00C3060000 R
(1755680245.916463) can0 100#0100000000 R
(1755680245.916847) can0 101#00C5060000 R
(1755680245.924635) can0 100#0100000000 R
(1755680245.925438) can0 101#00CC060000 R
(1755680245.933398) can0 100#0100000000 R
(1755680245.934011) can0 101#00CE060000 R
(1755680245.942053) can0 100#0100000000 R
(1755680245.942391) can0 101#00DA060000 R
(1755680245.948222) can0 211#8F7B984315291341 R
(1755680245.950097) can0 100#0100000000 R
(1755680245.950935) can0 101#00DE060000 R
(1755680245.958540) can0 210#832199433DC91341 R
(1755680245.959206) can0 100#0100000000 R
(1755680245.959969) can0 101#00E2060000 R
(1755680245.967289) can0 100#0100000000 R
(1755680245.968228) can0 101#00E1060000 R
(1755680245.976094) can0 100#0100000000 R
(1755680245.976414) can0 101#00E2060000 R
(1755680245.977399) can0 204#0000 R
(1755680245.977777) can0 203#BD1C R
(1755680245.984616) can0 100#0100000000 R
(1755680245.985082) can0 101#00E3060000 R
(1755680245.992949) can0 100#0100000000 R
(1755680245.993521) can0 101#00E1060000 R
(1755680246.001253) can0 100#0100000000 R
(1755680246.002067) can0 101#00E2060000 R
(1755680246.009811) can0 100#0100000000 R
(1755680246.010408) can0 101#00E0060000 R
(1755680246.018220) can0 100#0100000000 R
(1755680246.018980) can0 101#00E2060000 R
(1755680246.026856) can0 100#0100000000 R
(1755680246.027555) can0 101#00E5060000 R
(1755680246.035267) can0 100#0100000000 R
(1755680246.036056) can0 101#00E3060000 R
(1755680246.043878) can0 100#0100000000 R
(1755680246.044499) can0 101#00E1060000 R
(1755680246.052411) can0 100#0100000000 R
(1755680246.053136) can0 101#00E3060000 R
(1755680246.060765) can0 100#0100000000 R
(1755680246.061626) can0 101#00E1060000 R
(1755680246.069347) can0 100#0100000000 R
(1755680246.070082) can0 101#00E3060000 R
(1755680246.077875) can0 100#0100000000 R
(1755680246.078561) can0 101#00E5060000 R
(1755680246.086435) can0 100#0100000000 R
(1755680246.087165) can0 101#00E2060000 R
(1755680246.091686) can0 200#00470EA30E8C0E R
(1755680246.092686) can0 200#01A60E00000000 R
(1755680246.093521) can0 201#012F000000000000 R
(1755680246.094504) can0 202#513A0000E20A0000 R
(1755680246.095250) can0 100#0100000000 R
(1755680246.095930) can0 101#00E4060000 R
(1755680246.103937) can0 100#0100000000 R
(1755680246.104127) can0 101#00E3060000 R
(1755680246.112005) can0 100#0100000000 R
(1755680246.112626) can0 101#00E4060000 R
(1755680246.120418) can0 100#0100000000 R
(1755680246.121217) can0 101#00E3060000 R
(1755680246.129074) can0 100#0100000000 R
(1755680246.129585) can0 101#00E1060000 R
(1755680246.137634) can0 100#0100000000 R
(1755680246.138228) can0 101#00E2060000 R
(1755680246.145882) can0 100#0100000000 R
(1755680246.146756) can0 101#00E2060000 R
(1755680246.148284) can0 211#151CB84302AF3141 R
(1755680246.154501) can0 100#0100000000 R
(1755680246.155254) can0 101#00E3060000 R
(1755680246.158542) can0 210#89ACB7435A433141 R
(1755680246.163073) can0 100#0100000000 R
(1755680246.163739) can0 101#00E5060000 R
(1755680246.171600) can0 100#0100000000 R
(1755680246.172313) can0 101#00E6060000 R
(1755680246.177730) can0 204#0000 R
(1755680246.177872) can0 203#061D R
(1755680246.179915) can0 100#0100000000 R
(1755680246.180656) can0 101#00F3060000 R
(1755680246.188627) can0 100#0100000000 R
(1755680246.189339) can0 101#00F9060000 R
(1755680246.197306) can0 100#0100000000 R
(1755680246.197769) can0 101#0009070000 R
(1755680246.205654) can0 100#0100000000 R
(1755680246.206360) can0 101#000E070000 R
(1755680246.214468) can0 100#0100000000 R
(1755680246.214921) can0 101#000E070000 R
(1755680246.222776) can0 100#0100000000 R
(1755680246.223472) can0 101#0018070000 R
(1755680246.231069) can0 100#0100000000 R
(1755680246.231831) can0 101#0021070000 R
(1755680246.239637) can0 100#0100000000 R
(1755680246.240332) can0 101#0021070000 R
(1755680246.248525) can0 100#0100000000 R
(1755680246.248831) can0 101#0024070000 R
(1755680246.257055) can0 100#0100000000 R
(1755680246.257420) can0 101#0024070000 R
(1755680246.265186) can0 100#0100000000 R
(1755680246.265867) can0 101#0026070000 R
(1755680246.273627) can0 100#0100000000 R
(1755680246.274500) can0 101#0023070000 R
(1755680246.282435) can0 100#0100000000 R
(1755680246.282886) can0 101#0024070000 R
(1755680246.290667) can0 100#0100000000 R
(1755680246.291591) can0 101#0023070000 R
(1755680246.292901) can0 200#003E0EB50E9C0E R
(1755680246.293805) can0 200#01840E00000000 R
(1755680246.294988) can0 201#232F000000000000 R
(1755680246.295725) can0 202#473A0000530E0000 R
(1755680246.299312) can0 100#0100000000 R
(1755680246.299936) can0 101#0023070000 R
(1755680246.308001) can0 100#0100000000 R
(1755680246.308450) can0 101#0024070000 R
(1755680246.316399) can0 100#0100000000 R
(1755680246.317050) can0 101#0024070000 R
(1755680246.324793) can0 100#0100000000 R
(1755680246.325670) can0 101#0024070000 R
(1755680246.333492) can0 100#0100000000 R
(1755680246.333979) can0 101#0024070000 R
(1755680246.342008) can0 100#0100000000 R
(1755680246.342490) can0 101#0022070000 R
(1755680246.348400) can0 211#D4F7D043A4AC4941 R
(1755680246.350132) can0 100#0100000000 R
(1755680246.350897) can0 101#0023070000 R
(1755680246.358499) can0 210#539BD743D0145041 R
(1755680246.359247) can0 100#0100000000 R
(1755680246.360011) can0 101#0021070000 R
(1755680246.367308) can0 100#0100000000 R
(1755680246.368022) can0 101#0021070000 R
(1755680246.375914) can0 100#0100000000 R
(1755680246.376730) can0 101#0021070000 R
(1755680246.377409) can0 204#0000 R
(1755680246.377791) can0 203#481D R
(1755680246.384632) can0 100#0100000000 R
(1755680246.385052) can0 101#0022070000 R
(1755680246.392871) can0 100#0100000000 R
(1755680246.393681) can0 101#0021070000 R
(1755680246.401339) can0 100#0100000000 R
(1755680246.402066) can0 101#0022070000 R
(1755680246.409862) can0 100#0100000000 R
(1755680246.410660) can0 101#0021070000 R
(1755680246.418317) can0 100#0100000000 R
(1755680246.419119) can0 101#0020070000 R
(1755680246.426924) can0 100#0100000000 R
(1755680246.427589) can0 101#0021070000 R
(1755680246.435477) can0 100#0100000000 R
(1755680246.436196) can0 101#0021070000 R
(1755680246.444057) can0 100#0100000000 R
(1755680246.444698) can0 101#0022070000 R
(1755680246.452615) can0 100#0100000000 R
(1755680246.453275) can0 101#0022070000 R
(1755680246.460924) can0 100#0100000000 R
(1755680246.461701) can0 101#0020070000 R
(1755680246.469353) can0 100#0100000000 R
(1755680246.470063) can0 101#0022070000 R
(1755680246.477991) can0 100#0100000000 R
(1755680246.478723) can0 101#0022070000 R
(1755680246.486512) can0 100#0100000000 R
(1755680246.487197) can0 101#0022070000 R
(1755680246.495009) can0 100#0100000000 R
(1755680246.495753) can0 101#0023070000 R
(1755680246.496652) can0 200#00500EB60E810E R
(1755680246.497446) can0 200#018C0E00000000 R
(1755680246.498447) can0 201#732F000000000000 R
(1755680246.499330) can0 202#633A0000C9090000 R
(1755680246.503468) can0 100#0100000000 R
(1755680246.504138) can0 101#0025070000 R
(1755680246.512021) can0 100#0100000000 R
(1755680246.512678) can0 101#0029070000 R
(1755680246.520452) can0 100#0100000000 R
(1755680246.521235) can0 101#002C070000 R
(1755680246.529010) can0 100#0100000000 R
(1755680246.529684) can0 101#0030070000 R
(1755680246.537633) can0 100#0100000000 R
(1755680246.538265) can0 101#0032070000 R
(1755680246.546086) can0 100#0100000000 R
(1755680246.546868) can0 101#0033070000 R
(1755680246.548296) can0 211#A797E8435F796041 R
(1755680246.554826) can0 100#0100000000 R
(1755680246.555379) can0 101#0033070000 R
(1755680246.558550) can0 210#5F9EE843DB7F6041 R
(1755680246.563243) can0 100#0100000000 R
(1755680246.563957) can0 101#0034070000 R
(1755680246.571616) can0 100#0100000000 R
(1755680246.572331) can0 101#0034070000 R
(1755680246.577475) can0 204#0000 R
(1755680246.577902) can0 203#D71C R
(1755680246.580030) can0 100#0100000000 R
(1755680246.580787) can0 101#0034070000 R
(1755680246.588595) can0 100#0100000000 R
(1755680246.589331) can0 101#0034070000 R
(1755680246.597686) can0 100#0100000000 R
(1755680246.597964) can0 101#0033070000 R
(1755680246.606110) can0 100#0100000000 R
(1755680246.606473) can0 101#0033070000 R
(1755680246.614415) can0 100#0100000000 R
(1755680246.614973) can0 101#0034070000 R
(1755680246.622833) can0 100#0100000000 R
(1755680246.623421) can0 101#0034070000 R
(1755680246.631138) can0 100#0100000000 R
(1755680246.632251) can0 101#0034070000 R
(1755680246.639807) can0 100#0100000000 R
(1755680246.640324) can0 101#0034070000 R
(1755680246.648245) can0 100#0100000000 R
(1755680246.648853) can0 101#0034070000 R
(1755680246.656960) can0 100#0100000000 R
(1755680246.657542) can0 101#0034070000 R
(1755680246.665234) can0 100#0100000000 R
(1755680246.665913) can0 101#0034070000 R
(1755680246.673725) can0 100#0100000000 R
(1755680246.674531) can0 101#0032070000 R
(1755680246.682579) can0 100#0100000000 R
(1755680246.683012) can0 101#0033070000 R
(1755680246.690685) can0 100#0100000000 R
(1755680246.691543) can0 101#0033070000 R
(1755680246.697164) can0 200#00500EAC0E820E R
(1755680246.698206) can0 200#01950E00000000 R
(1755680246.699270) can0 201#6D2F000000000000 R
(1755680246.699708) can0 100#0100000000 R
(1755680246.700485) can0 101#0034070000 R
(1755680246.701530) can0 202#5A3A000001090000 R
(1755680246.708072) can0 100#0100000000 R
(1755680246.708485) can0 101#0034070000 R
(1755680246.716558) can0 100#0100000000 R
(1755680246.717155) can0 101#0034070000 R
(1755680246.724984) can0 100#0100000000 R
(1755680246.725542) can0 101#0033070000 R
(1755680246.733415) can0 100#0100000000 R
(1755680246.733998) can0 101#0034070000 R
(1755680246.742180) can0 100#0100000000 R
(1755680246.742537) can0 101#0034070000 R
(1755680246.748303) can0 211#9D6EF14359016941 R
(1755680246.750346) can0 100#0100000000 R
(1755680246.751243) can0 101#0034070000 R
(1755680246.759038) can0 210#48EFF04375866841 R
(1755680246.759247) can0 100#0100000000 R
(1755680246.759981) can0 101#0034070000 R
(1755680246.767611) can0 100#0100000000 R
(1755680246.768069) can0 101#0034070000 R
(1755680246.776032) can0 100#0100000000 R
(1755680246.776775) can0 101#0034070000 R
(1755680246.777405) can0 204#0000 R
(1755680246.777840) can0 203#971C R
(1755680246.784751) can0 100#0100000000 R
(1755680246.785143) can0 101#0033070000 R
(1755680246.793099) can0 100#0100000000 R
(1755680246.793715) can0 101#0033070000 R
(1755680246.801421) can0 100#0100000000 R
(1755680246.802258) can0 101#0034070000 R
(1755680246.809828) can0 100#0100000000 R
(1755680246.810590) can0 101#0035070000 R
(1755680246.818520) can0 100#0100000000 R
(1755680246.819124) can0 101#0033070000 R
(1755680246.827015) can0 100#0100000000 R
(1755680246.827725) can0 101#0033070000 R
(1755680246.835614) can0 100#0100000000 R
(1755680246.836255) can0 101#002F070000 R
(1755680246.844021) can0 100#0100000000 R
(1755680246.844728) can0 101#002A070000 R
(1755680246.852462) can0 100#0100000000 R
(1755680246.853251) can0 101#002A070000 R
(1755680246.860970) can0 100#0100000000 R
(1755680246.861773) can0 101#0020070000 R
(1755680246.869629) can0 100#0100000000 R
(1755680246.870180) can0 101#001C070000 R
(1755680246.878052) can0 100#0100000000 R
(1755680246.878766) can0 101#0013070000 R
(1755680246.886630) can0 100#0100000000 R
(1755680246.887291) can0 101#0009070000 R
(1755680246.895037) can0 100#0100000000 R
(1755680246.895712) can0 101#0003070000 R
(1755680246.899475) can0 200#00500E910E950E R
(1755680246.900341) can0 200#01AF0E00000000 R
(1755680246.901552) can0 201#1D2F000000000000 R
(1755680246.902438) can0 202#513A000070070000 R
(1755680246.903571) can0 100#0100000000 R
(1755680246.904323) can0 101#00FF060000 R
(1755680246.912095) can0 100#0100000000 R
(1755680246.912819) can0 101#00F9060000 R
(1755680246.920685) can0 100#0100000000 R
(1755680246.921623) can0 101#00F3060000 R
(1755680246.929443) can0 100#0100000000 R
(1755680246.929736) can0 101#00EA060000 R
(1755680246.937906) can0 100#0100000000 R
(1755680246.938343) can0 101#00E5060000 R
(1755680246.946040) can0 100#0100000000 R
(1755680246.946881) can0 101#00E3060000 R
(1755680246.948295) can0 211#B153EE432B026641 R
(1755680246.954788) can0 100#0100000000 R
(1755680246.955412) can0 101#00DE060000 R
(1755680246.958619) can0 210#3DD5EE43317F6641 R
(1755680246.963395) can0 100#0100000000 R
(1755680246.963971) can0 101#00DE060000 R
(1755680246.971806) can0 100#0100000000 R
(1755680246.972462) can0 101#00D9060000 R
(1755680246.977428) can0 204#0000 R
(1755680246.977852) can0 203#BD1C R
(1755680246.980199) can0 100#0100000000 R
(1755680246.981048) can0 101#00D9060000 R
(1755680246.988807) can0 100#0100000000 R
(1755680246.989583) can0 101#00D3060000 R
(1755680246.997231) can0 100#0100000000 R
(1755680246.997906) can0 101#00CD060000 R
(1755680247.006155) can0 100#0100000000 R
(1755680247.006582) can0 101#00CB060000 R
(1755680247.014568) can0 100#0100000000 R
(1755680247.014917) can0 101#00C7060000 R
(1755680247.022863) can0 100#0100000000 R
(1755680247.023479) can0 101#00C5060000 R
(1755680247.031514) can0 100#0100000000 R
(1755680247.031972) can0 101#00C2060000 R
(1755680247.039774) can0 100#0100000000 R
(1755680247.040535) can0 101#00C2060000 R
(1755680247.048612) can0 100#0100000000 R
(1755680247.048949) can0 101#00BD060000 R
(1755680247.057059) can0 100#0100000000 R
(1755680247.057529) can0 101#00B7060000 R
(1755680247.065482) can0 100#0100000000 R
(1755680247.066063) can0 101#00B3060000 R
(1755680247.074220) can0 100#0100000000 R
(1755680247.074535) can0 101#00B2060000 R
(1755680247.082309) can0 100#0100000000 R
(1755680247.083103) can0 101#00B0060000 R
(1755680247.090855) can0 100#0100000000 R
(1755680247.091571) can0 101#00AB060000 R
(1755680247.099634) can0 100#0100000000 R
(1755680247.099979) can0 101#00AB060000 R
(1755680247.103030) can0 200#00620EA40E910E R
(1755680247.103766) can0 200#01A00E00000000 R
(1755680247.104782) can0 201#6D2F000000000000 R
(1755680247.105745) can0 202#7E3A00009E040000 R
(1755680247.108028) can0 100#0100000000 R
(1755680247.108541) can0 101#00A8060000 R
(1755680247.116769) can0 100#0100000000 R
(1755680247.117126) can0 101#00A5060000 R
(1755680247.124989) can0 100#0100000000 R
(1755680247.125661) can0 101#00A3060000 R
(1755680247.133668) can0 100#0100000000 R
(1755680247.134146) can0 101#00A1060000 R
(1755680247.141879) can0 100#0100000000 R
(1755680247.142744) can0 101#00A0060000 R
(1755680247.148320) can0 211#FDC0CD4384924641 R
(1755680247.150417) can0 100#0100000000 R
(1755680247.151650) can0 101#00A0060000 R
(1755680247.158948) can0 210#D1D4CE43B89C4741 R
(1755680247.159216) can0 100#0100000000 R
(1755680247.159978) can0 101#00A0060000 R
(1755680247.167535) can0 100#0100000000 R
(1755680247.168182) can0 101#009D060000 R
(1755680247.176048) can0 100#0100000000 R
(1755680247.176715) can0 101#009B060000 R
(1755680247.177523) can0 204#0000 R
(1755680247.178003) can0 203#031D R
(1755680247.184624) can0 100#0100000000 R
(1755680247.185233) can0 101#009A060000 R
(1755680247.193075) can0 100#0100000000 R
(1755680247.193763) can0 101#0098060000 R
(1755680247.201551) can0 100#0100000000 R
(1755680247.202122) can0 101#009A060000 R
(1755680247.209956) can0 100#0100000000 R
(1755680247.210669) can0 101#0097060000 R
(1755680247.218567) can0 100#0100000000 R
(1755680247.219708) can0 101#0097060000 R
(1755680247.227118) can0 100#0100000000 R
(1755680247.227815) can0 101#0094060000 R
(1755680247.235713) can0 100#0100000000 R
(1755680247.236374) can0 101#0094060000 R
(1755680247.244489) can0 100#0100000000 R
(1755680247.244832) can0 101#0093060000 R
(1755680247.252653) can0 100#0100000000 R
(1755680247.253318) can0 101#008F060000 R
(1755680247.261239) can0 100#0100000000 R
(1755680247.261904) can0 101#008E060000 R
(1755680247.269524) can0 100#0100000000 R
(1755680247.270204) can0 101#008B060000 R
(1755680247.278125) can0 100#0100000000 R
(1755680247.278813) can0 101#0089060000 R
(1755680247.286594) can0 100#0100000000 R
(1755680247.287331) can0 101#0088060000 R
(1755680247.295178) can0 100#0100000000 R
(1755680247.295797) can0 101#0088060000 R
(1755680247.303723) can0 100#0100000000 R
(1755680247.304495) can0 101#0088060000 R
(1755680247.305309) can0 200#00620EB60E890E R
(1755680247.306265) can0 200#019F0E00000000 R
(1755680247.307213) can0 201#6D2F000000000000 R
(1755680247.308097) can0 202#903A0000AE030000 R
(1755680247.312270) can0 100#0100000000 R
(1755680247.313023) can0 101#0088060000 R
(1755680247.320556) can0 100#0100000000 R
(1755680247.321404) can0 101#0088060000 R
(1755680247.329172) can0 100#0100000000 R
(1755680247.329859) can0 101#0088060000 R
(1755680247.337743) can0 100#0100000000 R
(1755680247.338437) can0 101#0088060000 R
(1755680247.346379) can0 100#0100000000 R
(1755680247.347082) can0 101#0088060000 R
(1755680247.348252) can0 211#14ECA943C6FD2341 R
(1755680247.354787) can0 100#0100000000 R
(1755680247.355408) can0 101#0088060000 R
(1755680247.358556) can0 210#B114AC4319132641 R
(1755680247.363168) can0 100#0100000000 R
(1755680247.363928) can0 101#0088060000 R
(1755680247.371737) can0 100#0100000000 R
(1755680247.372412) can0 101#0087060000 R
(1755680247.377401) can0 204#0000 R
(1755680247.377812) can0 203#1D1D R
(1755680247.380233) can0 100#0100000000 R
(1755680247.380959) can0 101#0087060000 R
(1755680247.388918) can0 100#0100000000 R
(1755680247.389518) can0 101#0087060000 R
(1755680247.397371) can0 100#0100000000 R
(1755680247.398009) can0 101#0085060000 R
(1755680247.405934) can0 100#0100000000 R
(1755680247.406493) can0 101#0085060000 R
(1755680247.414670) can0 100#0100000000 R
(1755680247.415139) can0 101#0085060000 R
(1755680247.422740) can0 100#0100000000 R
(1755680247.423519) can0 101#0082060000 R
(1755680247.431401) can0 100#0100000000 R
(1755680247.432225) can0 101#0082060000 R
(1755680247.439919) can0 100#0100000000 R
(1755680247.440685) can0 101#0082060000 R
(1755680247.448812) can0 100#0100000000 R
(1755680247.449114) can0 101#0080060000 R
(1755680247.456946) can0 100#0100000000 R
(1755680247.457651) can0 101#007F060000 R
(1755680247.465568) can0 100#0100000000 R
(1755680247.466172) can0 101#007D060000 R
(1755680247.474314) can0 100#0100000000 R
(1755680247.474699) can0 101#007D060000 R
(1755680247.482457) can0 100#0100000000 R
(1755680247.483224) can0 101#0074060000 R
(1755680247.490906) can0 100#0100000000 R
(1755680247.491651) can0 101#0072060000 R
(1755680247.499508) can0 100#0100000000 R
(1755680247.500165) can0 101#0070060000 R
(1755680247.506597) can0 200#00590EA30EAD0E R
(1755680247.507633) can0 200#01B20E00000000 R
(1755680247.508182) can0 100#0100000000 R
(1755680247.508995) can0 101#0070060000 R
(1755680247.509970) can0 201#1D2F000000000000 R
(1755680247.510997) can0 202#753A00000E030000 R
(1755680247.516510) can0 100#0100000000 R
(1755680247.517226) can0 101#006C060000 R
(1755680247.525173) can0 100#0100000000 R
(1755680247.525778) can0 101#006C060000 R
(1755680247.533696) can0 100#0100000000 R
(1755680247.534307) can0 101#0068060000 R
(1755680247.542149) can0 100#0100000000 R
(1755680247.542706) can0 101#0064060000 R
(1755680247.548312) can0 211#B8C08843CAFA0341 R
(1755680247.550600) can0 100#0100000000 R
(1755680247.551322) can0 101#0065060000 R
(1755680247.558712) can0 210#B8638E436D6B0941 R
(1755680247.559356) can0 100#0100000000 R
(1755680247.560054) can0 101#0062060000 R
(1755680247.567557) can0 100#0100000000 R
(1755680247.568290) can0 101#0063060000 R
(1755680247.576129) can0 100#0100000000 R
(1755680247.576912) can0 101#0063060000 R
(1755680247.577392) can0 204#0000 R
(1755680247.578277) can0 203#D71C R
(1755680247.584490) can0 100#0100000000 R
(1755680247.585299) can0 101#0062060000 R
(1755680247.593102) can0 100#0100000000 R
(1755680247.593802) can0 101#0062060000 R
(1755680247.601611) can0 100#0100000000 R
(1755680247.602335) can0 101#0062060000 R
(1755680247.610176) can0 100#0100000000 R
(1755680247.610806) can0 101#0062060000 R
(1755680247.618802) can0 100#0100000000 R
(1755680247.619423) can0 101#0062060000 R
(1755680247.627285) can0 100#0100000000 R
(1755680247.627729) can0 101#0060060000 R
(1755680247.635866) can0 100#0100000000 R
(1755680247.636420) can0 101#0061060000 R
(1755680247.644225) can0 100#0100000000 R
(1755680247.644818) can0 101#0062060000 R
(1755680247.652742) can0 100#0100000000 R
(1755680247.653577) can0 101#0060060000 R
(1755680247.661229) can0 100#0100000000 R
(1755680247.661776) can0 101#005F060000 R
(1755680247.669792) can0 100#0100000000 R
(1755680247.670387) can0 101#005B060000 R
(1755680247.678256) can0 100#0100000000 R
(1755680247.678810) can0 101#0058060000 R
(1755680247.686733) can0 100#0100000000 R
(1755680247.687524) can0 101#0055060000 R
(1755680247.695105) can0 100#0100000000 R
(1755680247.695868) can0 101#0052060000 R
(1755680247.703700) can0 100#0100000000 R
(1755680247.704587) can0 101#0051060000 R
(1755680247.708638) can0 200#006B0EBE0E910E R
(1755680247.709085) can0 200#018E0E00000000 R
(1755680247.710054) can0 201#732F000000000000 R
(1755680247.711270) can0 202#AC3A0000BD020000 R
(1755680247.712263) can0 100#0100000000 R
(1755680247.713169) can0 101#0051060000 R
(1755680247.720854) can0 100#0100000000 R
(1755680247.721610) can0 101#0051060000 R
(1755680247.729572) can0 100#0100000000 R
(1755680247.729970) can0 101#004E060000 R
(1755680247.738044) can0 100#0100000000 R
(1755680247.738563) can0 101#004C060000 R
(1755680247.746265) can0 100#0100000000 R
(1755680247.746979) can0 101#004D060000 R
(1755680247.748276) can0 211#EAF34B4388D5C440 R
(1755680247.754902) can0 100#0100000000 R
(1755680247.755542) can0 101#004B060000 R
(1755680247.758586) can0 210#984C4D432F22C640 R
(1755680247.763309) can0 100#0100000000 R
(1755680247.763961) can0 101#004A060000 R
(1755680247.771893) can0 100#0100000000 R
(1755680247.772615) can0 101#004B060000 R
(1755680247.777444) can0 204#0000 R
(1755680247.777896) can0 203#951C R
(1755680247.780261) can0 100#0100000000 R
(1755680247.781078) can0 101#004A060000 R
(1755680247.788938) can0 100#0100000000 R
(1755680247.789621) can0 101#004D060000 R
(1755680247.797496) can0 100#0100000000 R
(1755680247.798207) can0 101#004D060000 R
(1755680247.805956) can0 100#0100000000 R
(1755680247.806545) can0 101#004C060000 R
(1755680247.814365) can0 100#0100000000 R
(1755680247.815079) can0 101#004B060000 R
(1755680247.822961) can0 100#0100000000 R
(1755680247.823699) can0 101#004C060000 R
(1755680247.831607) can0 100#0100000000 R
(1755680247.832254) can0 101#004C060000 R
(1755680247.839951) can0 100#0100000000 R
(1755680247.840595) can0 101#004C060000 R
(1755680247.848525) can0 100#0100000000 R
(1755680247.849191) can0 101#004A060000 R
(1755680247.857227) can0 100#0100000000 R
(1755680247.857753) can0 101#004C060000 R
(1755680247.865570) can0 100#0100000000 R
(1755680247.866212) can0 101#004C060000 R
(1755680247.874337) can0 100#0100000000 R
(1755680247.874674) can0 101#004B060000 R
(1755680247.882706) can0 100#0100000000 R
(1755680247.883319) can0 101#004B060000 R
(1755680247.891065) can0 100#0100000000 R
(1755680247.891763) can0 101#004B060000 R
(1755680247.899600) can0 100#0100000000 R
(1755680247.900144) can0 101#004D060000 R
(1755680247.908139) can0 100#0100000000 R
(1755680247.908781) can0 101#004B060000 R
(1755680247.909767) can0 200#006B0EBE0E910E R
(1755680247.910457) can0 200#018E0E00000000 R
(1755680247.911456) can0 201#292F000000000000 R
(1755680247.912517) can0 202#AC3A0000BD020000 R
(1755680247.916675) can0 100#0100000000 R
(1755680247.917327) can0 101#004B060000 R
(1755680247.925418) can0 100#0100000000 R
(1755680247.925721) can0 101#004C060000 R
(1755680247.933713) can0 100#0100000000 R
(1755680247.934407) can0 101#004C060000 R
(1755680247.942163) can0 100#0100000000 R
(1755680247.942902) can0 101#004C060000 R
(1755680247.948307) can0 211#E4BA1343E0928E40 R
(1755680247.950548) can0 100#0100000000 R
(1755680247.951341) can0 101#004C060000 R
(1755680247.958674) can0 210#642D01434E567940 R
(1755680247.959259) can0 100#0100000000 R
(1755680247.960120) can0 101#004C060000 R
(1755680247.967529) can0 100#0100000000 R
(1755680247.968319) can0 101#004A060000 R
(1755680247.976241) can0 100#0100000000 R
(1755680247.976901) can0 101#004C060000 R
(1755680247.977713) can0 204#0000 R
(1755680247.978181) can0 203#BD1C R
(1755680247.984848) can0 100#0100000000 R
(1755680247.985314) can0 101#004E060000 R
(1755680247.993297) can0 100#0100000000 R
(1755680247.994049) can0 101#004D060000 R
(1755680248.001656) can0 100#0100000000 R
(1755680248.002396) can0 101#004E060000 R
(1755680248.010232) can0 100#0100000000 R
(1755680248.010941) can0 101#004F060000 R
(1755680248.018637) can0 100#0100000000 R
(1755680248.019392) can0 101#004F060000 R
(1755680248.027339) can0 100#0100000000 R
(1755680248.027978) can0 101#004F060000 R
(1755680248.035677) can0 100#0100000000 R
(1755680248.036343) can0 101#0056060000 R
(1755680248.044453) can0 100#0100000000 R
(1755680248.044977) can0 101#0056060000 R
(1755680248.052766) can0 100#0100000000 R
(1755680248.053581) can0 101#0057060000 R
(1755680248.061307) can0 100#0100000000 R
(1755680248.061917) can0 101#0059060000 R
(1755680248.069660) can0 100#0100000000 R
(1755680248.070495) can0 101#005A060000 R
(1755680248.078360) can0 100#0100000000 R
(1755680248.079065) can0 101#005B060000 R
(1755680248.086878) can0 100#0100000000 R
(1755680248.087548) can0 101#005D060000 R
(1755680248.095374) can0 100#0100000000 R
(1755680248.095992) can0 101#005D060000 R
(1755680248.103896) can0 100#0100000000 R
(1755680248.104542) can0 101#0064060000 R
(1755680248.111036) can0 200#006B0EB60E880E R
(1755680248.111953) can0 200#019F0E00000000 R
(1755680248.112711) can0 100#0100000000 R
(1755680248.113549) can0 101#006C060000 R
(1755680248.114476) can0 201#232F000000000000 R
(1755680248.115580) can0 202#903A00009E040000 R
(1755680248.120775) can0 100#0100000000 R
(1755680248.121626) can0 101#0075060000 R
(1755680248.129364) can0 100#0100000000 R
(1755680248.130032) can0 101#0078060000 R
(1755680248.138067) can0 100#0100000000 R
(1755680248.138677) can0 101#0078060000 R
(1755680248.146520) can0 100#0100000000 R
(1755680248.147168) can0 101#0088060000 R
(1755680248.148413) can0 211#2467E5425C655D40 R
(1755680248.155081) can0 100#0100000000 R
(1755680248.155597) can0 101#008D060000 R
(1755680248.158617) can0 210#639EE1426BBE5940 R
(1755680248.163364) can0 100#0100000000 R
(1755680248.164092) can0 101#008F060000 R
(1755680248.172333) can0 100#0100000000 R
(1755680248.172544) can0 101#0093060000 R
(1755680248.177391) can0 204#0000 R
(1755680248.177925) can0 203#461D R
(1755680248.180508) can0 100#0100000000 R
(1755680248.181258) can0 101#0092060000 R
(1755680248.188912) can0 100#0100000000 R
(1755680248.189670) can0 101#0093060000 R
(1755680248.197570) can0 100#0100000000 R
(1755680248.198105) can0 101#0093060000 R
(1755680248.206164) can0 100#0100000000 R
(1755680248.206588) can0 101#0094060000 R
(1755680248.214523) can0 100#0100000000 R
(1755680248.215135) can0 101#0093060000 R
(1755680248.223014) can0 100#0100000000 R
(1755680248.223722) can0 101#0095060000 R
(1755680248.231542) can0 100#0100000000 R
(1755680248.232236) can0 101#0093060000 R
(1755680248.240098) can0 100#0100000000 R
(1755680248.240832) can0 101#0093060000 R
(1755680248.248647) can0 100#0100000000 R
(1755680248.249332) can0 101#0093060000 R
(1755680248.257106) can0 100#0100000000 R
(1755680248.257666) can0 101#0095060000 R
(1755680248.265710) can0 100#0100000000 R
(1755680248.266517) can0 101#0094060000 R
(1755680248.274141) can0 100#0100000000 R
(1755680248.274777) can0 101#00A0060000 R
(1755680248.282574) can0 100#0100000000 R
(1755680248.283407) can0 101#00AB060000 R
(1755680248.290987) can0 100#0100000000 R
(1755680248.291832) can0 101#00B2060000 R
(1755680248.299549) can0 100#0100000000 R
(1755680248.300312) can0 101#00BB060000 R
(1755680248.308036) can0 100#0100000000 R
(1755680248.308807) can0 101#00BF060000 R
(1755680248.312527) can0 200#00590EAD0E910E R
(1755680248.313565) can0 200#01850E00000000 R
(1755680248.314581) can0 201#6D2F000000000000 R
(1755680248.315418) can0 202#6C3A000070070000 R
(1755680248.316662) can0 100#0100000000 R
(1755680248.317442) can0 101#00C5060000 R
(1755680248.325059) can0 100#0100000000 R
(1755680248.325868) can0 101#00C9060000 R
(1755680248.333990) can0 100#0100000000 R
(1755680248.334390) can0 101#00CA060000 R
(1755680248.342194) can0 100#0100000000 R
(1755680248.342929) can0 101#00CB060000 R
(1755680248.348456) can0 211#32485F431B7DD740 R
(1755680248.350671) can0 100#0100000000 R
