(1756294370.101425) can0 100#0100000000 R
(1756294370.102172) can0 101#00DC050000 R
(1756294370.109824) can0 100#0100000000 R
(1756294370.110631) can0 101#00DC050000 R
(1756294370.118432) can0 100#0100000000 R
(1756294370.119074) can0 101#00DC050000 R
(1756294370.126928) can0 100#0100000000 R
(1756294370.127737) can0 101#00DC050000 R
(1756294370.135424) can0 100#0100000000 R
(1756294370.136201) can0 101#00DC050000 R
(1756294370.143975) can0 100#0100000000 R
(1756294370.144767) can0 101#00DC050000 R
(1756294370.152525) can0 100#0100000000 R
(1756294370.153257) can0 101#00DC050000 R
(1756294370.161046) can0 100#0100000000 R
(1756294370.161849) can0 101#00DC050000 R
(1756294370.169512) can0 100#0100000000 R
(1756294370.170249) can0 101#00DC050000 R
(1756294370.178059) can0 100#0100000000 R
(1756294370.178815) can0 101#00DC050000 R
(1756294370.186756) can0 100#0100000000 R
(1756294370.187467) can0 101#00DC050000 R
(1756294370.195056) can0 100#0100000000 R
(1756294370.195891) can0 101#00DC050000 R
(1756294370.203619) can0 100#0100000000 R
(1756294370.204418) can0 101#00DC050000 R
(1756294370.212162) can0 100#0100000000 R
(1756294370.212892) can0 101#00DC050000 R
(1756294370.220791) can0 100#0100000000 R
(1756294370.221555) can0 101#00DC050000 R
(1756294370.224124) can0 211#0000000000000000 R
(1756294370.227363) can0 200#00500E9A0E8C0E R
(1756294370.228201) can0 200#01930E00000000 R
(1756294370.229148) can0 201#782F000000000000 R
(1756294370.230011) can0 100#0100000000 R
(1756294370.230809) can0 101#00DC050000 R
(1756294370.231675) can0 202#473A0000CD010000 R
(1756294370.233913) can0 210#0000000000000000 R
(1756294370.237810) can0 100#0100000000 R
(1756294370.238546) can0 101#00DC050000 R
(1756294370.246252) can0 100#0100000000 R
(1756294370.247026) can0 101#00DC050000 R
(1756294370.254227) can0 204#0000 R
(1756294370.254949) can0 100#0100000000 R
(1756294370.255719) can0 101#00DC050000 R
(1756294370.256170) can0 203#D71C R
(1756294370.263329) can0 100#0100000000 R
(1756294370.264079) can0 101#00DC050000 R
(1756294370.271975) can0 100#0100000000 R
(1756294370.272717) can0 101#00DC050000 R
(1756294370.280426) can0 100#0100000000 R
(1756294370.281214) can0 101#00DC050000 R
(1756294370.289015) can0 100#0100000000 R
(1756294370.289764) can0 101#00DC050000 R
(1756294370.297497) can0 100#0100000000 R
(1756294370.298279) can0 101#00DC050000 R
(1756294370.306122) can0 100#0100000000 R
(1756294370.306797) can0 101#00DC050000 R
(1756294370.314438) can0 100#0100000000 R
(1756294370.315174) can0 101#00DC050000 R
(1756294370.323056) can0 100#0100000000 R
(1756294370.323817) can0 101#00DC050000 R
(1756294370.331449) can0 100#0100000000 R
(1756294370.332178) can0 101#00DC050000 R
(1756294370.339996) can0 100#0100000000 R
(1756294370.340721) can0 101#00DC050000 R
(1756294370.348621) can0 100#0100000000 R
(1756294370.349318) can0 101#00DC050000 R
(1756294370.357018) can0 100#0100000000 R
(1756294370.357851) can0 101#00DC050000 R
(1756294370.365518) can0 100#0100000000 R
(1756294370.366237) can0 101#00DC050000 R
(1756294370.374246) can0 100#0100000000 R
(1756294370.374902) can0 101#00DC050000 R
(1756294370.382673) can0 100#0100000000 R
(1756294370.383414) can0 101#00DC050000 R
(1756294370.391227) can0 100#0100000000 R
(1756294370.392034) can0 101#00DC050000 R
(1756294370.399619) can0 100#0100000000 R
(1756294370.400383) can0 101#00DC050000 R
(1756294370.408284) can0 100#0100000000 R
(1756294370.409049) can0 101#00DC050000 R
(1756294370.416796) can0 100#0100000000 R
(1756294370.417526) can0 101#00DC050000 R
(1756294370.424570) can0 211#0000000000000000 R
(1756294370.425293) can0 100#0100000000 R
(1756294370.426011) can0 101#00DC050000 R
(1756294370.429778) can0 200#00500EA30E8B0E R
(1756294370.430660) can0 200#01820E00000000 R
(1756294370.431630) can0 201#6D2F000000000000 R
(1756294370.432554) can0 202#513A0000A5010000 R
(1756294370.433771) can0 100#0100000000 R
(1756294370.434551) can0 101#00DC050000 R
(1756294370.435509) can0 210#0000000000000000 R
(1756294370.442545) can0 100#0100000000 R
(1756294370.443257) can0 101#00DC050000 R
(1756294370.450961) can0 100#0100000000 R
(1756294370.451661) can0 101#00DC050000 R
(1756294370.454554) can0 204#0000 R
(1756294370.455000) can0 203#971C R
(1756294370.459532) can0 100#0100000000 R
(1756294370.460235) can0 101#00DC050000 R
(1756294370.468126) can0 100#0100000000 R
(1756294370.468581) can0 101#00DC050000 R
(1756294370.476482) can0 100#0100000000 R
(1756294370.477224) can0 101#00DC050000 R
(1756294370.484888) can0 100#0100000000 R
(1756294370.485583) can0 101#00DC050000 R
(1756294370.493555) can0 100#0100000000 R
(1756294370.494182) can0 101#00DC050000 R
(1756294370.502122) can0 100#0100000000 R
(1756294370.502744) can0 101#00DC050000 R
(1756294370.510661) can0 100#0100000000 R
(1756294370.511324) can0 101#00DC050000 R
(1756294370.519465) can0 100#0100000000 R
(1756294370.519868) can0 101#00DC050000 R
(1756294370.527877) can0 100#0100000000 R
(1756294370.528328) can0 101#00DC050000 R
(1756294370.536133) can0 100#0100000000 R
(1756294370.536866) can0 101#00DC050000 R
(1756294370.544666) can0 100#0100000000 R
(1756294370.545516) can0 101#00DC050000 R
(1756294370.553556) can0 100#0100000000 R
(1756294370.553800) can0 101#00DC050000 R
(1756294370.561616) can0 100#0100000000 R
(1756294370.562463) can0 101#00DC050000 R
(1756294370.570389) can0 100#0100000000 R
(1756294370.571001) can0 101#00DC050000 R
(1756294370.578776) can0 100#0100000000 R
(1756294370.579528) can0 101#00DC050000 R
(1756294370.587259) can0 100#0100000000 R
(1756294370.587917) can0 101#00DC050000 R
(1756294370.595976) can0 100#0100000000 R
(1756294370.596627) can0 101#00DC050000 R
(1756294370.604326) can0 100#0100000000 R
(1756294370.604965) can0 101#00DC050000 R
(1756294370.612888) can0 100#0100000000 R
(1756294370.613594) can0 101#00DC050000 R
(1756294370.621463) can0 100#0100000000 R
(1756294370.622021) can0 101#00DC050000 R
(1756294370.624815) can0 211#0000000000000000 R
(1756294370.630002) can0 100#0100000000 R
(1756294370.630751) can0 101#00DC050000 R
(1756294370.633056) can0 200#00590E9A0E720E R
(1756294370.633871) can0 200#01890E00000000 R
(1756294370.634895) can0 201#232F000000000000 R
(1756294370.635911) can0 202#513A0000CD010000 R
(1756294370.636866) can0 210#0000000000000000 R
(1756294370.638399) can0 100#0100000000 R
(1756294370.639108) can0 101#00DC050000 R
(1756294370.646925) can0 100#0100000000 R
(1756294370.647782) can0 101#00DC050000 R
(1756294370.654887) can0 204#0000 R
(1756294370.655587) can0 100#0100000000 R
(1756294370.656303) can0 101#00DC050000 R
(1756294370.656760) can0 203#C01C R
(1756294370.664126) can0 100#0100000000 R
(1756294370.664840) can0 101#00DC050000 R
(1756294370.672613) can0 100#0100000000 R
(1756294370.673348) can0 101#00DC050000 R
(1756294370.681241) can0 100#0100000000 R
(1756294370.681970) can0 101#00DC050000 R
(1756294370.689723) can0 100#0100000000 R
(1756294370.690363) can0 101#00DC050000 R
(1756294370.698138) can0 100#0100000000 R
(1756294370.698795) can0 101#00DC050000 R
(1756294370.706512) can0 100#0100000000 R
(1756294370.707328) can0 101#00DC050000 R
(1756294370.715231) can0 100#0100000000 R
(1756294370.715792) can0 101#00DC050000 R
(1756294370.723655) can0 100#0100000000 R
(1756294370.724367) can0 101#00DC050000 R
(1756294370.732116) can0 100#0100000000 R
(1756294370.732862) can0 101#00DC050000 R
(1756294370.740712) can0 100#0100000000 R
(1756294370.741444) can0 101#00DC050000 R
(1756294370.749262) can0 100#0100000000 R
(1756294370.750249) can0 101#00DC050000 R
(1756294370.757711) can0 100#0100000000 R
(1756294370.758473) can0 101#00DC050000 R
(1756294370.766266) can0 100#0100000000 R
(1756294370.766947) can0 101#00DC050000 R
(1756294370.774899) can0 100#0100000000 R
(1756294370.775487) can0 101#00DC050000 R
(1756294370.783346) can0 100#0100000000 R
(1756294370.784017) can0 101#00DC050000 R
(1756294370.791957) can0 100#0100000000 R
(1756294370.792637) can0 101#00DC050000 R
(1756294370.800396) can0 100#0100000000 R
(1756294370.801485) can0 101#00DC050000 R
(1756294370.808936) can0 100#0100000000 R
(1756294370.809927) can0 101#00DC050000 R
(1756294370.817451) can0 100#0100000000 R
(1756294370.818176) can0 101#00DC050000 R
(1756294370.825084) can0 211#0000000000000000 R
(1756294370.826055) can0 100#0100000000 R
(1756294370.826776) can0 101#00DC050000 R
(1756294370.834400) can0 100#0100000000 R
(1756294370.835283) can0 101#00DC050000 R
(1756294370.836144) can0 200#00500EA30E8B0E R
(1756294370.836930) can0 200#01820E00000000 R
(1756294370.838028) can0 201#842F000000000000 R
(1756294370.839006) can0 202#513A0000A5010000 R
(1756294370.840000) can0 210#0000000000000000 R
(1756294370.842879) can0 100#0100000000 R
(1756294370.843660) can0 101#00DC050000 R
(1756294370.851427) can0 100#0100000000 R
(1756294370.852227) can0 101#00DC050000 R
(1756294370.855548) can0 204#0000 R
(1756294370.855879) can0 203#061D R
(1756294370.860032) can0 100#0100000000 R
(1756294370.860762) can0 101#00DC050000 R
(1756294370.868774) can0 100#0100000000 R
(1756294370.869298) can0 101#00DC050000 R
(1756294370.877081) can0 100#0100000000 R
(1756294370.878061) can0 101#00DC050000 R
(1756294370.885927) can0 100#0100000000 R
(1756294370.886339) can0 101#00DC050000 R
(1756294370.894130) can0 100#0100000000 R
(1756294370.895090) can0 101#00DC050000 R
(1756294370.902823) can0 100#0100000000 R
(1756294370.903472) can0 101#00DC050000 R
(1756294370.911335) can0 100#0100000000 R
(1756294370.912040) can0 101#00DC050000 R
(1756294370.919708) can0 100#0100000000 R
(1756294370.920486) can0 101#00DC050000 R
(1756294370.928231) can0 100#0100000000 R
(1756294370.928954) can0 101#00DC050000 R
(1756294370.936918) can0 100#0100000000 R
(1756294370.937635) can0 101#00DC050000 R
(1756294370.945638) can0 100#0100000000 R
(1756294370.946081) can0 101#00DC050000 R
(1756294370.954264) can0 100#0100000000 R
(1756294370.954553) can0 101#00DC050000 R
(1756294370.962446) can0 100#0100000000 R
(1756294370.963071) can0 101#00DC050000 R
(1756294370.971266) can0 100#0100000000 R
(1756294370.971576) can0 101#00DC050000 R
(1756294370.979450) can0 100#0100000000 R
(1756294370.980223) can0 101#00DC050000 R
(1756294370.988051) can0 100#0100000000 R
(1756294370.988679) can0 101#00DC050000 R
(1756294370.996526) can0 100#0100000000 R
(1756294370.997158) can0 101#00DC050000 R
(1756294371.004997) can0 100#0100000000 R
(1756294371.005987) can0 101#00DC050000 R
(1756294371.013735) can0 100#0100000000 R
(1756294371.014212) can0 101#00DC050000 R
(1756294371.022100) can0 100#0100000000 R
(1756294371.022851) can0 101#00DC050000 R
(1756294371.025375) can0 211#0000000000000000 R
(1756294371.030409) can0 100#0100000000 R
(1756294371.031170) can0 101#00DC050000 R
(1756294371.034968) can0 210#0000000000000000 R
(1756294371.038195) can0 200#00470E9A0E950E R
(1756294371.039003) can0 100#0100000000 R
(1756294371.039780) can0 101#00DC050000 R
(1756294371.040644) can0 200#01930E00000000 R
(1756294371.041712) can0 201#292F000000000000 R
(1756294371.042637) can0 202#353A0000CD010000 R
(1756294371.047563) can0 100#0100000000 R
(1756294371.048263) can0 101#00DC050000 R
(1756294371.055263) can0 204#0000 R
(1756294371.055790) can0 203#201D R
(1756294371.056533) can0 100#0100000000 R
(1756294371.057300) can0 101#00DC050000 R
(1756294371.064603) can0 100#0100000000 R
(1756294371.065292) can0 101#00DC050000 R
(1756294371.073101) can0 100#0100000000 R
(1756294371.073963) can0 101#00DC050000 R
(1756294371.081934) can0 100#0100000000 R
(1756294371.082378) can0 101#00DC050000 R
(1756294371.090082) can0 100#0100000000 R
(1756294371.090848) can0 101#00DC050000 R
(1756294371.098908) can0 100#0100000000 R
(1756294371.099457) can0 101#00DC050000 R
(1756294371.107220) can0 100#0100000000 R
(1756294371.107988) can0 101#00DC050000 R
(1756294371.116133) can0 100#0100000000 R
(1756294371.116453) can0 101#00DC050000 R
(1756294371.124342) can0 100#0100000000 R
(1756294371.125040) can0 101#00DC050000 R
(1756294371.133275) can0 100#0100000000 R
(1756294371.133542) can0 101#00DC050000 R
(1756294371.141352) can0 100#0100000000 R
(1756294371.142143) can0 101#00DC050000 R
(1756294371.149909) can0 100#0100000000 R
(1756294371.150561) can0 101#00DC050000 R
(1756294371.158333) can0 100#0100000000 R
(1756294371.159081) can0 101#00DC050000 R
(1756294371.166940) can0 100#0100000000 R
(1756294371.167975) can0 101#00DC050000 R
(1756294371.175487) can0 100#0100000000 R
(1756294371.176151) can0 101#00DC050000 R
(1756294371.183866) can0 100#0100000000 R
(1756294371.185020) can0 101#00DC050000 R
(1756294371.192511) can0 100#0100000000 R
(1756294371.193189) can0 101#00DC050000 R
(1756294371.201131) can0 100#0100000000 R
(1756294371.201747) can0 101#00DC050000 R
(1756294371.209625) can0 100#0100000000 R
(1756294371.210358) can0 101#00DC050000 R
(1756294371.218208) can0 100#0100000000 R
(1756294371.219229) can0 101#00DC050000 R
(1756294371.225617) can0 211#0000000000000000 R
(1756294371.226667) can0 100#0100000000 R
(1756294371.227387) can0 101#00DC050000 R
(1756294371.235097) can0 100#0100000000 R
(1756294371.236025) can0 101#00DC050000 R
(1756294371.236788) can0 210#0000000000000000 R
(1756294371.240847) can0 200#00500E9A0E8C0E R
(1756294371.241433) can0 200#01930E00000000 R
(1756294371.242495) can0 201#7E2F000000000000 R
(1756294371.243350) can0 202#513A0000A5010000 R
(1756294371.244008) can0 100#0100000000 R
(1756294371.244865) can0 101#00DC050000 R
(1756294371.252137) can0 100#0100000000 R
(1756294371.252834) can0 101#00DC050000 R
(1756294371.255699) can0 204#0000 R
(1756294371.256082) can0 203#D71C R
(1756294371.260873) can0 100#0100000000 R
(1756294371.261384) can0 101#00DC050000 R
(1756294371.269255) can0 100#0100000000 R
(1756294371.269964) can0 101#00DC050000 R
(1756294371.277836) can0 100#0100000000 R
(1756294371.278562) can0 101#00DC050000 R
(1756294371.286405) can0 100#0100000000 R
(1756294371.286963) can0 101#00DC050000 R
(1756294371.294877) can0 100#0100000000 R
(1756294371.295512) can0 101#00DC050000 R
(1756294371.303195) can0 100#0100000000 R
(1756294371.303885) can0 101#00DC050000 R
(1756294371.312016) can0 100#0100000000 R
(1756294371.312573) can0 101#00DC050000 R
(1756294371.320463) can0 100#0100000000 R
(1756294371.321487) can0 101#00DC050000 R
(1756294371.328749) can0 100#0100000000 R
(1756294371.329517) can0 101#00DC050000 R
(1756294371.337433) can0 100#0100000000 R
(1756294371.338163) can0 101#00DC050000 R
(1756294371.346322) can0 100#0100000000 R
(1756294371.346528) can0 101#00DC050000 R
(1756294371.354873) can0 100#0100000000 R
(1756294371.355181) can0 101#00DC050000 R
(1756294371.362961) can0 100#0100000000 R
(1756294371.363960) can0 101#00DC050000 R
(1756294371.371589) can0 100#0100000000 R
(1756294371.372228) can0 101#00DC050000 R
(1756294371.380026) can0 100#0100000000 R
(1756294371.380659) can0 101#00DC050000 R
(1756294371.388556) can0 100#0100000000 R
(1756294371.389327) can0 101#00DC050000 R
(1756294371.397031) can0 100#0100000000 R
(1756294371.397766) can0 101#00DC050000 R
(1756294371.405647) can0 100#0100000000 R
(1756294371.406294) can0 101#00DC050000 R
(1756294371.414134) can0 100#0100000000 R
(1756294371.414807) can0 101#00DC050000 R
(1756294371.422748) can0 100#0100000000 R
(1756294371.423503) can0 101#00DC050000 R
(1756294371.426212) can0 211#0000000000000000 R
(1756294371.431454) can0 100#0100000000 R
(1756294371.431974) can0 101#00DC050000 R
(1756294371.435712) can0 210#0000000000000000 R
(1756294371.439878) can0 100#0100000000 R
(1756294371.440259) can0 101#00DC050000 R
(1756294371.442409) can0 200#00590E880E950E R
(1756294371.442887) can0 200#01930E00000000 R
(1756294371.444126) can0 201#782F000000000000 R
(1756294371.444854) can0 202#3E3A0000A5010000 R
(1756294371.448235) can0 100#0100000000 R
(1756294371.448822) can0 101#00DC050000 R
(1756294371.455969) can0 204#0000 R
(1756294371.456392) can0 203#971C R
(1756294371.457137) can0 100#0100000000 R
(1756294371.457916) can0 101#00DC050000 R
(1756294371.465625) can0 100#0100000000 R
(1756294371.465881) can0 101#00DC050000 R
(1756294371.473878) can0 100#0100000000 R
(1756294371.474520) can0 101#00DC050000 R
(1756294371.482729) can0 100#0100000000 R
(1756294371.482926) can0 101#00DC050000 R
(1756294371.490845) can0 100#0100000000 R
(1756294371.491829) can0 101#00DC050000 R
(1756294371.499417) can0 100#0100000000 R
(1756294371.500133) can0 101#00DC050000 R
(1756294371.508026) can0 100#0100000000 R
(1756294371.508569) can0 101#00DC050000 R
(1756294371.516355) can0 100#0100000000 R
(1756294371.517135) can0 101#00DC050000 R
(1756294371.524838) can0 100#0100000000 R
(1756294371.525718) can0 101#00DC050000 R
(1756294371.533528) can0 100#0100000000 R
(1756294371.534253) can0 101#00DC050000 R
(1756294371.542406) can0 100#0100000000 R
(1756294371.542701) can0 101#00DC050000 R
(1756294371.550540) can0 100#0100000000 R
(1756294371.551201) can0 101#00DC050000 R
(1756294371.559093) can0 100#0100000000 R
(1756294371.559742) can0 101#00DC050000 R
(1756294371.567917) can0 100#0100000000 R
(1756294371.568206) can0 101#00DC050000 R
(1756294371.576177) can0 100#0100000000 R
(1756294371.576873) can0 101#00DC050000 R
(1756294371.584888) can0 100#0100000000 R
(1756294371.585279) can0 101#00DC050000 R
(1756294371.593111) can0 100#0100000000 R
(1756294371.593912) can0 101#00DC050000 R
(1756294371.602028) can0 100#0100000000 R
(1756294371.602285) can0 101#00DC050000 R
(1756294371.610103) can0 100#0100000000 R
(1756294371.610861) can0 101#00DC050000 R
(1756294371.618817) can0 100#0100000000 R
(1756294371.619339) can0 101#00DC050000 R
(1756294371.626232) can0 211#0000000000000000 R
(1756294371.627143) can0 100#0100000000 R
(1756294371.628079) can0 101#00DC050000 R
(1756294371.635912) can0 210#0000000000000000 R
(1756294371.636587) can0 100#0100000000 R
(1756294371.637406) can0 101#00DC050000 R
(1756294371.644564) can0 200#00470E9A0E950E R
(1756294371.644786) can0 100#0100000000 R
(1756294371.645899) can0 101#00DC050000 R
(1756294371.646566) can0 200#01930E00000000 R
(1756294371.647558) can0 201#5C2F000000000000 R
(1756294371.648845) can0 202#3E3A0000A5010000 R
(1756294371.653088) can0 100#0100000000 R
(1756294371.653411) can0 101#00DC050000 R
(1756294371.656709) can0 204#0000 R
(1756294371.657176) can0 203#BD1C R
(1756294371.661249) can0 100#0100000000 R
(1756294371.661929) can0 101#00DC050000 R
(1756294371.670232) can0 100#0100000000 R
(1756294371.670604) can0 101#00DC050000 R
(1756294371.678357) can0 100#0100000000 R
(1756294371.679092) can0 101#00DC050000 R
(1756294371.686901) can0 100#0100000000 R
(1756294371.687646) can0 101#00DC050000 R
(1756294371.695425) can0 100#0100000000 R
(1756294371.696051) can0 101#00DC050000 R
(1756294371.704147) can0 100#0100000000 R
(1756294371.704652) can0 101#00DC050000 R
(1756294371.712306) can0 100#0100000000 R
(1756294371.713015) can0 101#00DC050000 R
(1756294371.721110) can0 100#0100000000 R
(1756294371.721716) can0 101#00DC050000 R
(1756294371.729423) can0 100#0100000000 R
(1756294371.730160) can0 101#00DC050000 R
(1756294371.738267) can0 100#0100000000 R
(1756294371.738645) can0 101#00DC050000 R
(1756294371.746552) can0 100#0100000000 R
(1756294371.747129) can0 101#00DC050000 R
(1756294371.755150) can0 100#0100000000 R
(1756294371.755681) can0 101#00DC050000 R
(1756294371.763501) can0 100#0100000000 R
(1756294371.764271) can0 101#00DC050000 R
(1756294371.772067) can0 100#0100000000 R
(1756294371.772818) can0 101#00DC050000 R
(1756294371.780957) can0 100#0100000000 R
(1756294371.781223) can0 101#00DC050000 R
(1756294371.789460) can0 100#0100000000 R
(1756294371.790035) can0 101#00DC050000 R
(1756294371.797634) can0 100#0100000000 R
(1756294371.798331) can0 101#00DC050000 R
(1756294371.806142) can0 100#0100000000 R
(1756294371.806933) can0 101#00DC050000 R
(1756294371.814861) can0 100#0100000000 R
(1756294371.815548) can0 101#00DC050000 R
(1756294371.823236) can0 100#0100000000 R
(1756294371.823877) can0 101#00DC050000 R
(1756294371.826327) can0 211#0000000000000000 R
(1756294371.831621) can0 100#0100000000 R
(1756294371.832448) can0 101#00DC050000 R
(1756294371.836227) can0 210#0000000000000000 R
(1756294371.840350) can0 100#0100000000 R
(1756294371.841085) can0 101#00DC050000 R
(1756294371.847859) can0 200#00500E9A0E8C0E R
(1756294371.848823) can0 200#01930E00000000 R
(1756294371.849185) can0 100#0100000000 R
(1756294371.850092) can0 101#00DC050000 R
(1756294371.850912) can0 201#182F000000000000 R
(1756294371.851951) can0 202#473A0000CD010000 R
(1756294371.856552) can0 204#0000 R
(1756294371.856858) can0 203#481D R
(1756294371.857762) can0 100#0100000000 R
(1756294371.858424) can0 101#00DC050000 R
(1756294371.865890) can0 100#0100000000 R
(1756294371.866523) can0 101#00DC050000 R
(1756294371.874359) can0 100#0100000000 R
(1756294371.875112) can0 101#00DC050000 R
(1756294371.882851) can0 100#0100000000 R
(1756294371.883730) can0 101#00DC050000 R
(1756294371.891408) can0 100#0100000000 R
(1756294371.892082) can0 101#00DC050000 R
(1756294371.899968) can0 100#0100000000 R
(1756294371.900768) can0 101#00DC050000 R
(1756294371.908449) can0 100#0100000000 R
(1756294371.909169) can0 101#00DC050000 R
(1756294371.916852) can0 100#0100000000 R
(1756294371.917666) can0 101#00DC050000 R
(1756294371.925564) can0 100#0100000000 R
(1756294371.926276) can0 101#00DC050000 R
(1756294371.934074) can0 100#0100000000 R
(1756294371.934731) can0 101#00DC050000 R
(1756294371.942630) can0 100#0100000000 R
(1756294371.943335) can0 101#00DC050000 R
(1756294371.951094) can0 100#0100000000 R
(1756294371.951667) can0 101#00DC050000 R
(1756294371.959746) can0 100#0100000000 R
(1756294371.960448) can0 101#00DC050000 R
(1756294371.968155) can0 100#0100000000 R
(1756294371.968856) can0 101#00DC050000 R
(1756294371.976629) can0 100#0100000000 R
(1756294371.977359) can0 101#00DC050000 R
(1756294371.985222) can0 100#0100000000 R
(1756294371.985971) can0 101#00DC050000 R
(1756294371.993720) can0 100#0100000000 R
(1756294371.994451) can0 101#00DC050000 R
(1756294372.002293) can0 100#0100000000 R
(1756294372.002921) can0 101#00DC050000 R
(1756294372.010899) can0 100#0100000000 R
(1756294372.011541) can0 101#00DC050000 R
(1756294372.019391) can0 100#0100000000 R
(1756294372.020078) can0 101#00DC050000 R
(1756294372.026549) can0 211#0000000000000000 R
(1756294372.027779) can0 100#0100000000 R
(1756294372.028435) can0 101#00DC050000 R
(1756294372.036529) can0 210#0000000000000000 R
(1756294372.037081) can0 100#0100000000 R
(1756294372.037882) can0 101#00DC050000 R
(1756294372.044745) can0 100#0100000000 R
(1756294372.045476) can0 101#00DC050000 R
(1756294372.050123) can0 200#00500E9A0E8C0E R
(1756294372.050570) can0 200#01930E00000000 R
(1756294372.051912) can0 201#2E2F000000000000 R
(1756294372.052916) can0 202#473A0000CD010000 R
(1756294372.053301) can0 100#0100000000 R
(1756294372.054132) can0 101#00DC050000 R
(1756294372.056622) can0 204#0000 R
(1756294372.057107) can0 203#201D R
(1756294372.061729) can0 100#0100000000 R
(1756294372.062478) can0 101#00DC050000 R
(1756294372.070448) can0 100#0100000000 R
(1756294372.071135) can0 101#00DC050000 R
(1756294372.078894) can0 100#0100000000 R
(1756294372.079726) can0 101#00DC050000 R
(1756294372.087314) can0 100#0100000000 R
(1756294372.088036) can0 101#00DC050000 R
(1756294372.095947) can0 100#0100000000 R
(1756294372.096671) can0 101#00DC050000 R
(1756294372.104880) can0 100#0100000000 R
(1756294372.105183) can0 101#00DC050000 R
(1756294372.112877) can0 100#0100000000 R
(1756294372.113640) can0 101#00DC050000 R
(1756294372.121350) can0 100#0100000000 R
(1756294372.122246) can0 101#00DC050000 R
(1756294372.130045) can0 100#0100000000 R
(1756294372.130804) can0 101#00DC050000 R
(1756294372.138723) can0 100#0100000000 R
(1756294372.139207) can0 101#00DC050000 R
(1756294372.147119) can0 100#0100000000 R
(1756294372.147821) can0 101#00DC050000 R
(1756294372.155589) can0 100#0100000000 R
(1756294372.156283) can0 101#00DC050000 R
(1756294372.164132) can0 100#0100000000 R
(1756294372.165108) can0 101#00DC050000 R
(1756294372.172800) can0 100#0100000000 R
(1756294372.173315) can0 101#00DC050000 R
(1756294372.181338) can0 100#0100000000 R
(1756294372.182021) can0 101#00DC050000 R
(1756294372.189790) can0 100#0100000000 R
(1756294372.190315) can0 101#00DC050000 R
(1756294372.198211) can0 100#0100000000 R
(1756294372.199104) can0 101#00DC050000 R
(1756294372.206765) can0 100#0100000000 R
(1756294372.207426) can0 101#00DC050000 R
(1756294372.215415) can0 100#0100000000 R
(1756294372.216143) can0 101#00DC050000 R
(1756294372.223934) can0 100#0100000000 R
(1756294372.224487) can0 101#00DC050000 R
(1756294372.226888) can0 211#0000000000000000 R
(1756294372.232199) can0 100#0100000000 R
(1756294372.232948) can0 101#00DC050000 R
(1756294372.236712) can0 210#0000000000000000 R
(1756294372.240881) can0 100#0100000000 R
(1756294372.241878) can0 101#00DC050000 R
(1756294372.249462) can0 100#0100000000 R
(1756294372.250003) can0 101#00DC050000 R
(1756294372.251962) can0 200#003E0E750E980E R
(1756294372.253138) can0 200#01B50E00000000 R
(1756294372.253821) can0 201#0C2F000000000000 R
(1756294372.254872) can0 202#113A0000CD010000 R
(1756294372.256867) can0 204#0000 R
(1756294372.257476) can0 203#D71C R
(1756294372.258146) can0 100#0100000000 R
(1756294372.258926) can0 101#00DC050000 R
(1756294372.266585) can0 100#0100000000 R
(1756294372.267240) can0 101#00DC050000 R
(1756294372.275138) can0 100#0100000000 R
(1756294372.275646) can0 101#00DC050000 R
(1756294372.283722) can0 100#0100000000 R
(1756294372.284127) can0 101#00DC050000 R
(1756294372.292014) can0 100#0100000000 R
(1756294372.292642) can0 101#00DC050000 R
(1756294372.300735) can0 100#0100000000 R
(1756294372.301177) can0 101#00DC050000 R
(1756294372.309260) can0 100#0100000000 R
(1756294372.309639) can0 101#00DC050000 R
(1756294372.317737) can0 100#0100000000 R
(1756294372.318720) can0 101#00DC050000 R
(1756294372.326064) can0 100#0100000000 R
(1756294372.326715) can0 101#00DC050000 R
(1756294372.334899) can0 100#0100000000 R
(1756294372.335300) can0 101#00DC050000 R
(1756294372.342969) can0 100#0100000000 R
(1756294372.343908) can0 101#00DC050000 R
(1756294372.351744) can0 100#0100000000 R
(1756294372.352772) can0 101#00DC050000 R
(1756294372.360006) can0 100#0100000000 R
(1756294372.360713) can0 101#00DC050000 R
(1756294372.368746) can0 100#0100000000 R
(1756294372.369448) can0 101#00DC050000 R
(1756294372.377098) can0 100#0100000000 R
(1756294372.377901) can0 101#00DC050000 R
(1756294372.385906) can0 100#0100000000 R
(1756294372.386561) can0 101#00DC050000 R
(1756294372.394267) can0 100#0100000000 R
(1756294372.395041) can0 101#00DC050000 R
(1756294372.402822) can0 100#0100000000 R
(1756294372.403562) can0 101#00DC050000 R
(1756294372.411275) can0 100#0100000000 R
(1756294372.412078) can0 101#00DC050000 R
(1756294372.419895) can0 100#0100000000 R
(1756294372.420631) can0 101#00DC050000 R
(1756294372.427112) can0 211#0000000000000000 R
(1756294372.428202) can0 100#0100000000 R
(1756294372.428910) can0 101#00DC050000 R
(1756294372.436776) can0 210#0000000000000000 R
(1756294372.437625) can0 100#0100000000 R
(1756294372.438341) can0 101#00DC050000 R
(1756294372.445316) can0 100#0100000000 R
(1756294372.446076) can0 101#00DC050000 R
(1756294372.454107) can0 100#0100000000 R
(1756294372.454537) can0 101#00DC050000 R
(1756294372.455500) can0 200#00590E9A0E8B0E R
(1756294372.456452) can0 200#01820E00000000 R
(1756294372.457296) can0 201#6D2F000000000000 R
(1756294372.458303) can0 202#513A0000A5010000 R
(1756294372.459080) can0 204#0000 R
(1756294372.459291) can0 203#971C R
(1756294372.462316) can0 100#0100000000 R
(1756294372.463093) can0 101#00DC050000 R
(1756294372.471338) can0 100#0100000000 R
(1756294372.471577) can0 101#00DC050000 R
(1756294372.479871) can0 100#0100000000 R
(1756294372.480158) can0 101#00DC050000 R
(1756294372.488032) can0 100#0100000000 R
(1756294372.488756) can0 101#00DC050000 R
(1756294372.496550) can0 100#0100000000 R
(1756294372.497096) can0 101#00DC050000 R
(1756294372.505140) can0 100#0100000000 R
(1756294372.505870) can0 101#00DC050000 R
(1756294372.513571) can0 100#0100000000 R
(1756294372.514237) can0 101#00DC050000 R
(1756294372.522112) can0 100#0100000000 R
(1756294372.522787) can0 101#00DC050000 R
(1756294372.530483) can0 100#0100000000 R
(1756294372.531347) can0 101#00DC050000 R
(1756294372.539086) can0 100#0100000000 R
(1756294372.539914) can0 101#00DC050000 R
(1756294372.547566) can0 100#0100000000 R
(1756294372.548308) can0 101#00DC050000 R
(1756294372.556128) can0 100#0100000000 R
(1756294372.556870) can0 101#00DC050000 R
(1756294372.564774) can0 100#0100000000 R
(1756294372.565465) can0 101#00DC050000 R
(1756294372.573545) can0 100#0100000000 R
(1756294372.573844) can0 101#00DC050000 R
(1756294372.581872) can0 100#0100000000 R
(1756294372.582425) can0 101#00DC050000 R
(1756294372.590411) can0 100#0100000000 R
(1756294372.590998) can0 101#00DC050000 R
(1756294372.598902) can0 100#0100000000 R
(1756294372.599854) can0 101#00DC050000 R
(1756294372.607308) can0 100#0100000000 R
(1756294372.607954) can0 101#00DC050000 R
(1756294372.616016) can0 100#0100000000 R
(1756294372.616480) can0 101#00DC050000 R
(1756294372.624264) can0 100#0100000000 R
(1756294372.624991) can0 101#00DC050000 R
(1756294372.627644) can0 211#0000000000000000 R
(1756294372.632908) can0 100#0100000000 R
(1756294372.633641) can0 101#00DC050000 R
(1756294372.637112) can0 210#0000000000000000 R
(1756294372.641367) can0 100#0100000000 R
(1756294372.642116) can0 101#00DC050000 R
(1756294372.649984) can0 100#0100000000 R
(1756294372.650606) can0 101#00DC050000 R
(1756294372.657290) can0 200#00500E910E8C0E R
(1756294372.658189) can0 200#01930E00000000 R
(1756294372.658887) can0 100#0100000000 R
(1756294372.659761) can0 101#00DC050000 R
(1756294372.660586) can0 201#292F000000000000 R
(1756294372.661756) can0 202#3E3A0000CD010000 R
(1756294372.662124) can0 204#0000 R
(1756294372.662899) can0 203#061D R
(1756294372.666889) can0 100#0100000000 R
(1756294372.667985) can0 101#00DC050000 R
(1756294372.675765) can0 100#0100000000 R
(1756294372.676166) can0 101#00DC050000 R
(1756294372.684431) can0 100#0100000000 R
(1756294372.684658) can0 101#00DC050000 R
(1756294372.692782) can0 100#0100000000 R
(1756294372.693327) can0 101#00DC050000 R
(1756294372.701347) can0 100#0100000000 R
(1756294372.701700) can0 101#00DC050000 R
(1756294372.709841) can0 100#0100000000 R
(1756294372.710262) can0 101#00DC050000 R
(1756294372.718118) can0 100#0100000000 R
(1756294372.718898) can0 101#00DC050000 R
(1756294372.726628) can0 100#0100000000 R
(1756294372.727383) can0 101#00DC050000 R
(1756294372.735104) can0 100#0100000000 R
(1756294372.736043) can0 101#00DC050000 R
(1756294372.743670) can0 100#0100000000 R
(1756294372.744522) can0 101#00DC050000 R
(1756294372.752473) can0 100#0100000000 R
(1756294372.752876) can0 101#00DC050000 R
(1756294372.761132) can0 100#0100000000 R
(1756294372.761372) can0 101#00DC050000 R
(1756294372.769603) can0 100#0100000000 R
(1756294372.769800) can0 101#00DC050000 R
(1756294372.777772) can0 100#0100000000 R
(1756294372.778490) can0 101#00DC050000 R
(1756294372.786278) can0 100#0100000000 R
(1756294372.786990) can0 101#00DC050000 R
(1756294372.794886) can0 100#0100000000 R
(1756294372.795630) can0 101#00DC050000 R
(1756294372.803448) can0 100#0100000000 R
(1756294372.804168) can0 101#00DC050000 R
(1756294372.811809) can0 100#0100000000 R
(1756294372.812488) can0 101#00DC050000 R
(1756294372.820319) can0 100#0100000000 R
(1756294372.821040) can0 101#00DC050000 R
(1756294372.827684) can0 211#0000000000000000 R
(1756294372.828943) can0 100#0100000000 R
(1756294372.829838) can0 101#00DC050000 R
(1756294372.837400) can0 210#0000000000000000 R
(1756294372.838116) can0 100#0100000000 R
(1756294372.838911) can0 101#00DC050000 R
(1756294372.845839) can0 100#0100000000 R
(1756294372.846653) can0 101#00DC050000 R
(1756294372.854552) can0 100#0100000000 R
(1756294372.855144) can0 101#00DC050000 R
(1756294372.857667) can0 204#0000 R
(1756294372.858116) can0 203#481D R
(1756294372.859020) can0 200#00590E910E830E R
(1756294372.859919) can0 200#018A0E00000000 R
(1756294372.860864) can0 201#672F000000000000 R
(1756294372.861718) can0 202#3E3A0000A5010000 R
(1756294372.863128) can0 100#0100000000 R
(1756294372.863767) can0 101#00DC050000 R
(1756294372.871835) can0 100#0100000000 R
(1756294372.872239) can0 101#00DC050000 R
(1756294372.879943) can0 100#0100000000 R
(1756294372.880668) can0 101#00DC050000 R
(1756294372.888658) can0 100#0100000000 R
(1756294372.889213) can0 101#00DC050000 R
(1756294372.897133) can0 100#0100000000 R
(1756294372.897876) can0 101#00DC050000 R
(1756294372.906014) can0 100#0100000000 R
(1756294372.906278) can0 101#00DC050000 R
(1756294372.914529) can0 100#0100000000 R
(1756294372.914788) can0 101#00DC050000 R
(1756294372.922833) can0 100#0100000000 R
(1756294372.923442) can0 101#00DC050000 R
(1756294372.931174) can0 100#0100000000 R
(1756294372.931855) can0 101#00DC050000 R
(1756294372.939620) can0 100#0100000000 R
(1756294372.940387) can0 101#00DC050000 R
(1756294372.948225) can0 100#0100000000 R
(1756294372.948905) can0 101#00DC050000 R
(1756294372.956655) can0 100#0100000000 R
(1756294372.957499) can0 101#00E2050000 R
(1756294372.965310) can0 100#0100000000 R
(1756294372.966041) can0 101#00E5050000 R
(1756294372.974184) can0 100#0100000000 R
(1756294372.974447) can0 101#00E5050000 R
(1756294372.982427) can0 100#0100000000 R
(1756294372.983038) can0 101#00EB050000 R
(1756294372.990943) can0 100#0100000000 R
(1756294372.991487) can0 101#00EC050000 R
(1756294372.999246) can0 100#0100000000 R
(1756294373.000367) can0 101#00F0050000 R
(1756294373.007847) can0 100#0100000000 R
(1756294373.008553) can0 101#00F0050000 R
(1756294373.016420) can0 100#0100000000 R
(1756294373.017083) can0 101#00F7050000 R
(1756294373.024888) can0 100#0100000000 R
(1756294373.025917) can0 101#00FB050000 R
(1756294373.027863) can0 211#0000000000000000 R
(1756294373.033625) can0 100#0100000000 R
(1756294373.034352) can0 101#00FB050000 R
(1756294373.037603) can0 210#0000000000000000 R
(1756294373.041955) can0 100#0100000000 R
(1756294373.042601) can0 101#0002060000 R
(1756294373.050901) can0 100#0100000000 R
(1756294373.051213) can0 101#0002060000 R
(1756294373.058212) can0 204#0000 R
(1756294373.058266) can0 203#201D R
(1756294373.059327) can0 100#0100000000 R
(1756294373.059948) can0 101#0003060000 R
(1756294373.061372) can0 200#00500EAC0EA50E R
(1756294373.062131) can0 200#01680E00000000 R
(1756294373.063232) can0 201#952F000000000000 R
(1756294373.064195) can0 202#633A0000A5010000 R
(1756294373.067601) can0 100#0100000000 R
(1756294373.068253) can0 101#0007060000 R
(1756294373.076060) can0 100#0100000000 R
(1756294373.076695) can0 101#0008060000 R
(1756294373.084722) can0 100#0100000000 R
(1756294373.085379) can0 101#000A060000 R
(1756294373.093097) can0 100#0100000000 R
(1756294373.093643) can0 101#000E060000 R
(1756294373.101623) can0 100#0100000000 R
(1756294373.102310) can0 101#0010060000 R
(1756294373.110110) can0 100#0100000000 R
(1756294373.110759) can0 101#0012060000 R
(1756294373.118806) can0 100#0100000000 R
(1756294373.119458) can0 101#0014060000 R
(1756294373.127087) can0 100#0100000000 R
(1756294373.128228) can0 101#0019060000 R
(1756294373.135549) can0 100#0100000000 R
(1756294373.136409) can0 101#0018060000 R
(1756294373.144123) can0 100#0100000000 R
(1756294373.144885) can0 101#0017060000 R
(1756294373.152940) can0 100#0100000000 R
(1756294373.153421) can0 101#0019060000 R
(1756294373.161436) can0 100#0100000000 R
(1756294373.161914) can0 101#0018060000 R
(1756294373.169892) can0 100#0100000000 R
(1756294373.170871) can0 101#0018060000 R
(1756294373.178572) can0 100#0100000000 R
(1756294373.178986) can0 101#0018060000 R
(1756294373.186781) can0 100#0100000000 R
(1756294373.187613) can0 101#001B060000 R
(1756294373.195796) can0 100#0100000000 R
(1756294373.196005) can0 101#001B060000 R
(1756294373.204111) can0 100#0100000000 R
(1756294373.204504) can0 101#001D060000 R
(1756294373.212516) can0 100#0100000000 R
(1756294373.213185) can0 101#001D060000 R
(1756294373.221177) can0 100#0100000000 R
(1756294373.221601) can0 101#001E060000 R
(1756294373.228085) can0 211#0000000000000000 R
(1756294373.229426) can0 100#0100000000 R
(1756294373.230012) can0 101#001E060000 R
(1756294373.237855) can0 210#0000000000000000 R
(1756294373.238483) can0 100#0100000000 R
(1756294373.239236) can0 101#0020060000 R
(1756294373.246340) can0 100#0100000000 R
(1756294373.247123) can0 101#0022060000 R
(1756294373.254977) can0 100#0100000000 R
(1756294373.255895) can0 101#0022060000 R
(1756294373.258945) can0 204#0000 R
(1756294373.259328) can0 203#D71C R
(1756294373.263459) can0 100#0100000000 R
(1756294373.264169) can0 101#0021060000 R
(1756294373.265029) can0 200#00590E880E840E R
(1756294373.265949) can0 200#01920E00000000 R
(1756294373.266924) can0 201#622F000000000000 R
(1756294373.267976) can0 202#353A000095020000 R
(1756294373.272191) can0 100#0100000000 R
(1756294373.272775) can0 101#0022060000 R
(1756294373.280509) can0 100#0100000000 R
(1756294373.281207) can0 101#0022060000 R
(1756294373.289367) can0 100#0100000000 R
(1756294373.289765) can0 101#0022060000 R
(1756294373.297540) can0 100#0100000000 R
(1756294373.298285) can0 101#0023060000 R
(1756294373.306506) can0 100#0100000000 R
(1756294373.306918) can0 101#0023060000 R
(1756294373.314655) can0 100#0100000000 R
(1756294373.315399) can0 101#0024060000 R
(1756294373.323667) can0 100#0100000000 R
(1756294373.323925) can0 101#0024060000 R
(1756294373.331981) can0 100#0100000000 R
(1756294373.332311) can0 101#0022060000 R
(1756294373.340175) can0 100#0100000000 R
(1756294373.340941) can0 101#0024060000 R
(1756294373.348822) can0 100#0100000000 R
(1756294373.349487) can0 101#0024060000 R
(1756294373.357161) can0 100#0100000000 R
(1756294373.357949) can0 101#0026060000 R
(1756294373.365647) can0 100#0100000000 R
(1756294373.366340) can0 101#0029060000 R
(1756294373.374286) can0 100#0100000000 R
(1756294373.375019) can0 101#0027060000 R
(1756294373.382811) can0 100#0100000000 R
(1756294373.383562) can0 101#002A060000 R
(1756294373.391300) can0 100#0100000000 R
(1756294373.392098) can0 101#0029060000 R
(1756294373.399754) can0 100#0100000000 R
(1756294373.400539) can0 101#0029060000 R
(1756294373.408430) can0 100#0100000000 R
(1756294373.409012) can0 101#002A060000 R
(1756294373.416949) can0 100#0100000000 R
(1756294373.417738) can0 101#002A060000 R
(1756294373.425390) can0 100#0100000000 R
(1756294373.426178) can0 101#002A060000 R
(1756294373.428216) can0 211#38A90F4291A58A3F R
(1756294373.434068) can0 100#0100000000 R
(1756294373.434698) can0 101#002A060000 R
(1756294373.438012) can0 210#2FD01942D171943F R
(1756294373.442522) can0 100#0100000000 R
(1756294373.443184) can0 101#002A060000 R
(1756294373.451083) can0 100#0100000000 R
(1756294373.451734) can0 101#002A060000 R
(1756294373.458335) can0 204#0000 R
(1756294373.458891) can0 203#C01C R
(1756294373.459887) can0 100#0100000000 R
(1756294373.460371) can0 101#002A060000 R
(1756294373.466131) can0 200#00500E910E950E R
(1756294373.466960) can0 200#01810E00000000 R
(1756294373.468123) can0 201#782F000000000000 R
(1756294373.468750) can0 100#0100000000 R
(1756294373.469479) can0 101#002D060000 R
(1756294373.470778) can0 202#353A000086030000 R
(1756294373.476598) can0 100#0100000000 R
(1756294373.477719) can0 101#002A060000 R
(1756294373.485055) can0 100#0100000000 R
(1756294373.485992) can0 101#002A060000 R
(1756294373.493703) can0 100#0100000000 R
(1756294373.494335) can0 101#002A060000 R
(1756294373.502091) can0 100#0100000000 R
(1756294373.502775) can0 101#002A060000 R
(1756294373.510869) can0 100#0100000000 R
(1756294373.511432) can0 101#002A060000 R
(1756294373.519359) can0 100#0100000000 R
(1756294373.519853) can0 101#002B060000 R
(1756294373.527822) can0 100#0100000000 R
(1756294373.528538) can0 101#002A060000 R
(1756294373.536483) can0 100#0100000000 R
(1756294373.536836) can0 101#002B060000 R
(1756294373.544730) can0 100#0100000000 R
(1756294373.545460) can0 101#002A060000 R
(1756294373.553267) can0 100#0100000000 R
(1756294373.554046) can0 101#002A060000 R
(1756294373.561706) can0 100#0100000000 R
(1756294373.562721) can0 101#002B060000 R
(1756294373.570164) can0 100#0100000000 R
(1756294373.570918) can0 101#002A060000 R
(1756294373.578911) can0 100#0100000000 R
(1756294373.579562) can0 101#002A060000 R
(1756294373.587686) can0 100#0100000000 R
(1756294373.587965) can0 101#002B060000 R
(1756294373.596133) can0 100#0100000000 R
(1756294373.596574) can0 101#002A060000 R
(1756294373.604299) can0 100#0100000000 R
(1756294373.605091) can0 101#002A060000 R
(1756294373.613238) can0 100#0100000000 R
(1756294373.613567) can0 101#002B060000 R
(1756294373.621622) can0 100#0100000000 R
(1756294373.622155) can0 101#002D060000 R
(1756294373.628527) can0 211#DE9C3F42C0ECB83F R
(1756294373.630102) can0 100#0100000000 R
(1756294373.630716) can0 101#002C060000 R
(1756294373.638290) can0 210#C1954F42EC56C83F R
(1756294373.638958) can0 100#0100000000 R
(1756294373.639801) can0 101#002B060000 R
(1756294373.646961) can0 100#0100000000 R
(1756294373.647767) can0 101#002D060000 R
(1756294373.655451) can0 100#0100000000 R
(1756294373.656238) can0 101#002E060000 R
(1756294373.658874) can0 204#0000 R
(1756294373.659074) can0 203#061D R
(1756294373.664123) can0 100#0100000000 R
(1756294373.664779) can0 101#002E060000 R
(1756294373.667450) can0 200#00470E910E8D0E R
(1756294373.668305) can0 200#01920E00000000 R
(1756294373.669309) can0 201#122F000000000000 R
(1756294373.670247) can0 202#2C3A00000E030000 R
(1756294373.672903) can0 100#0100000000 R
(1756294373.673171) can0 101#002E060000 R
(1756294373.681029) can0 100#0100000000 R
(1756294373.681781) can0 101#002E060000 R
(1756294373.689861) can0 100#0100000000 R
(1756294373.690330) can0 101#002D060000 R
(1756294373.698148) can0 100#0100000000 R
(1756294373.698733) can0 101#002E060000 R
(1756294373.706485) can0 100#0100000000 R
(1756294373.707293) can0 101#002E060000 R
(1756294373.715121) can0 100#0100000000 R
(1756294373.715917) can0 101#002E060000 R
(1756294373.723765) can0 100#0100000000 R
(1756294373.724754) can0 101#002E060000 R
(1756294373.732607) can0 100#0100000000 R
(1756294373.732815) can0 101#002E060000 R
(1756294373.740756) can0 100#0100000000 R
(1756294373.741548) can0 101#002E060000 R
(1756294373.749211) can0 100#0100000000 R
(1756294373.749873) can0 101#002E060000 R
(1756294373.757738) can0 100#0100000000 R
(1756294373.758469) can0 101#002E060000 R
(1756294373.766242) can0 100#0100000000 R
(1756294373.767013) can0 101#002E060000 R
(1756294373.774719) can0 100#0100000000 R
(1756294373.775544) can0 101#002E060000 R
(1756294373.783375) can0 100#0100000000 R
(1756294373.784084) can0 101#002E060000 R
(1756294373.791862) can0 100#0100000000 R
(1756294373.792572) can0 101#002D060000 R
(1756294373.800453) can0 100#0100000000 R
(1756294373.801005) can0 101#002D060000 R
(1756294373.808828) can0 100#0100000000 R
(1756294373.809546) can0 101#002A060000 R
(1756294373.817384) can0 100#0100000000 R
(1756294373.818199) can0 101#002E060000 R
(1756294373.825951) can0 100#0100000000 R
(1756294373.826621) can0 101#002D060000 R
(1756294373.828697) can0 211#161A6342DC2CDB3F R
(1756294373.834503) can0 100#0100000000 R
(1756294373.835304) can0 101#002E060000 R
(1756294373.838448) can0 210#8C307D42385AF43F R
(1756294373.843222) can0 100#0100000000 R
(1756294373.843668) can0 101#002E060000 R
(1756294373.851713) can0 100#0100000000 R
(1756294373.852343) can0 101#002E060000 R
(1756294373.858866) can0 204#0000 R
(1756294373.859293) can0 203#481D R
(1756294373.859995) can0 100#0100000000 R
(1756294373.860719) can0 101#002E060000 R
(1756294373.868582) can0 100#0100000000 R
(1756294373.869331) can0 101#002E060000 R
(1756294373.870169) can0 200#00500E9A0E8C0E R
(1756294373.871030) can0 200#01810E00000000 R
(1756294373.872063) can0 201#3A2F000000000000 R
(1756294373.873012) can0 202#473A000036030000 R
(1756294373.877016) can0 100#0100000000 R
(1756294373.878013) can0 101#002E060000 R
(1756294373.885464) can0 100#0100000000 R
(1756294373.886443) can0 101#002E060000 R
(1756294373.894167) can0 100#0100000000 R
(1756294373.894785) can0 101#002E060000 R
(1756294373.902630) can0 100#0100000000 R
(1756294373.903417) can0 101#002E060000 R
(1756294373.911272) can0 100#0100000000 R
(1756294373.911832) can0 101#002E060000 R
(1756294373.919660) can0 100#0100000000 R
(1756294373.920523) can0 101#002F060000 R
(1756294373.928350) can0 100#0100000000 R
(1756294373.928986) can0 101#002F060000 R
(1756294373.936694) can0 100#0100000000 R
(1756294373.937857) can0 101#002F060000 R
(1756294373.945628) can0 100#0100000000 R
(1756294373.945886) can0 101#002F060000 R
(1756294373.953812) can0 100#0100000000 R
(1756294373.954542) can0 101#002E060000 R
(1756294373.962315) can0 100#0100000000 R
(1756294373.963005) can0 101#0030060000 R
(1756294373.970906) can0 100#0100000000 R
(1756294373.971565) can0 101#002F060000 R
(1756294373.979217) can0 100#0100000000 R
(1756294373.980010) can0 101#0031060000 R
(1756294373.988040) can0 100#0100000000 R
(1756294373.988613) can0 101#002F060000 R
(1756294373.996333) can0 100#0100000000 R
(1756294373.996984) can0 101#0031060000 R
(1756294374.004954) can0 100#0100000000 R
(1756294374.005630) can0 101#0030060000 R
(1756294374.013564) can0 100#0100000000 R
(1756294374.014130) can0 101#0031060000 R
(1756294374.021976) can0 100#0100000000 R
(1756294374.022725) can0 101#002F060000 R
(1756294374.028996) can0 211#612A72428FB6E93F R
(1756294374.030684) can0 100#0100000000 R
(1756294374.031214) can0 101#002F060000 R
(1756294374.038747) can0 210#30BC7A42CBFBF13F R
(1756294374.039409) can0 100#0100000000 R
(1756294374.040549) can0 101#002F060000 R
(1756294374.047466) can0 100#0100000000 R
(1756294374.048493) can0 101#002F060000 R
(1756294374.056385) can0 100#0100000000 R
(1756294374.056853) can0 101#002F060000 R
(1756294374.059024) can0 204#0000 R
(1756294374.059570) can0 203#D71C R
(1756294374.064919) can0 100#0100000000 R
(1756294374.065346) can0 101#002F060000 R
(1756294374.073118) can0 100#0100000000 R
(1756294374.073877) can0 101#0031060000 R
(1756294374.074807) can0 200#00500E910E8C0E R
(1756294374.075755) can0 200#018A0E00000000 R
(1756294374.076616) can0 201#182F000000000000 R
(1756294374.077702) can0 202#3E3A00006D020000 R
(1756294374.081871) can0 100#0100000000 R
(1756294374.082334) can0 101#0031060000 R
(1756294374.090418) can0 100#0100000000 R
(1756294374.090892) can0 101#0033060000 R
(1756294374.098939) can0 100#0100000000 R
(1756294374.099249) can0 101#002F060000 R
(1756294374.107120) can0 100#0100000000 R
(1756294374.107871) can0 101#0031060000 R
(1756294374.115612) can0 100#0100000000 R
(1756294374.116360) can0 101#0032060000 R
(1756294374.124517) can0 100#0100000000 R
(1756294374.124991) can0 101#0032060000 R
(1756294374.132988) can0 100#0100000000 R
(1756294374.133321) can0 101#0030060000 R
(1756294374.141663) can0 100#0100000000 R
(1756294374.142058) can0 101#0031060000 R
(1756294374.149771) can0 100#0100000000 R
(1756294374.150412) can0 101#0031060000 R
(1756294374.158453) can0 100#0100000000 R
(1756294374.158922) can0 101#0030060000 R
(1756294374.166763) can0 100#0100000000 R
(1756294374.167485) can0 101#0031060000 R
(1756294374.175175) can0 100#0100000000 R
(1756294374.175946) can0 101#0031060000 R
(1756294374.183879) can0 100#0100000000 R
(1756294374.184530) can0 101#0032060000 R
(1756294374.192519) can0 100#0100000000 R
(1756294374.193515) can0 101#0031060000 R
(1756294374.200878) can0 100#0100000000 R
(1756294374.201485) can0 101#0031060000 R
(1756294374.209486) can0 100#0100000000 R
(1756294374.210145) can0 101#0030060000 R
(1756294374.217893) can0 100#0100000000 R
(1756294374.218593) can0 101#002F060000 R
(1756294374.226463) can0 100#0100000000 R
(1756294374.227072) can0 101#0031060000 R
(1756294374.229135) can0 211#272E7E42FA4EF53F R
(1756294374.234946) can0 100#0100000000 R
(1756294374.235648) can0 101#002E060000 R
(1756294374.238894) can0 210#9D338342943EFD3F R
(1756294374.243528) can0 100#0100000000 R
(1756294374.244173) can0 101#0031060000 R
(1756294374.251939) can0 100#0100000000 R
(1756294374.252742) can0 101#0031060000 R
(1756294374.259642) can0 204#0000 R
(1756294374.259681) can0 203#971C R
(1756294374.260712) can0 100#0100000000 R
(1756294374.261234) can0 101#0031060000 R
(1756294374.269030) can0 100#0100000000 R
(1756294374.269784) can0 101#0031060000 R
(1756294374.275918) can0 200#00500E910E8C0E R
(1756294374.276542) can0 200#018A0E00000000 R
(1756294374.277573) can0 201#2E2F000000000000 R
(1756294374.278328) can0 100#0100000000 R
(1756294374.279082) can0 101#0031060000 R
(1756294374.280091) can0 202#353A00006D020000 R
(1756294374.286235) can0 100#0100000000 R
(1756294374.286855) can0 101#0032060000 R
(1756294374.294926) can0 100#0100000000 R
(1756294374.295466) can0 101#0032060000 R
(1756294374.303111) can0 100#0100000000 R
(1756294374.303891) can0 101#002F060000 R
(1756294374.311538) can0 100#0100000000 R
(1756294374.312294) can0 101#0031060000 R
(1756294374.320235) can0 100#0100000000 R
(1756294374.320999) can0 101#0031060000 R
(1756294374.328759) can0 100#0100000000 R
(1756294374.329691) can0 101#0032060000 R
(1756294374.337178) can0 100#0100000000 R
(1756294374.337915) can0 101#002F060000 R
(1756294374.346136) can0 100#0100000000 R
(1756294374.346402) can0 101#0032060000 R
(1756294374.354274) can0 100#0100000000 R
(1756294374.355039) can0 101#0031060000 R
(1756294374.363074) can0 100#0100000000 R
(1756294374.363514) can0 101#0030060000 R
(1756294374.371148) can0 100#0100000000 R
(1756294374.371875) can0 101#0032060000 R
(1756294374.379904) can0 100#0100000000 R
(1756294374.380886) can0 101#0030060000 R
(1756294374.388701) can0 100#0100000000 R
(1756294374.388976) can0 101#002F060000 R
(1756294374.397000) can0 100#0100000000 R
(1756294374.397587) can0 101#0031060000 R
(1756294374.405721) can0 100#0100000000 R
(1756294374.405997) can0 101#0031060000 R
(1756294374.414255) can0 100#0100000000 R
(1756294374.414642) can0 101#0031060000 R
(1756294374.422336) can0 100#0100000000 R
(1756294374.423112) can0 101#0031060000 R
(1756294374.429815) can0 211#09FB82425ED1FC3F R
(1756294374.431101) can0 100#0100000000 R
(1756294374.432051) can0 101#0031060000 R
(1756294374.439184) can0 210#18CF8642891A0240 R
(1756294374.439748) can0 100#0100000000 R
(1756294374.440652) can0 101#002E060000 R
(1756294374.448187) can0 100#0100000000 R
(1756294374.448826) can0 101#002E060000 R
(1756294374.456451) can0 100#0100000000 R
(1756294374.457192) can0 101#002F060000 R
(1756294374.459411) can0 204#0000 R
(1756294374.459948) can0 203#C01C R
(1756294374.464982) can0 100#0100000000 R
(1756294374.465663) can0 101#0032060000 R
(1756294374.473501) can0 100#0100000000 R
(1756294374.474258) can0 101#0030060000 R
(1756294374.478131) can0 200#00500E910E8C0E R
(1756294374.478900) can0 200#018A0E00000000 R
(1756294374.480135) can0 201#7E2F000000000000 R
(1756294374.480875) can0 202#353A000045020000 R
(1756294374.482118) can0 100#0100000000 R
(1756294374.482743) can0 101#0031060000 R
(1756294374.490790) can0 100#0100000000 R
(1756294374.491231) can0 101#0032060000 R
(1756294374.499588) can0 100#0100000000 R
(1756294374.499818) can0 101#0030060000 R
(1756294374.507973) can0 100#0100000000 R
(1756294374.508319) can0 101#0032060000 R
(1756294374.516381) can0 100#0100000000 R
(1756294374.516843) can0 101#0030060000 R
(1756294374.524859) can0 100#0100000000 R
(1756294374.525313) can0 101#002F060000 R
(1756294374.533530) can0 100#0100000000 R
(1756294374.533889) can0 101#0031060000 R
(1756294374.541917) can0 100#0100000000 R
(1756294374.542399) can0 101#0032060000 R
(1756294374.550352) can0 100#0100000000 R
(1756294374.551065) can0 101#0031060000 R
(1756294374.558885) can0 100#0100000000 R
(1756294374.559332) can0 101#0030060000 R
(1756294374.567230) can0 100#0100000000 R
(1756294374.568340) can0 101#0031060000 R
(1756294374.575846) can0 100#0100000000 R
(1756294374.576508) can0 101#0031060000 R
(1756294374.584311) can0 100#0100000000 R
(1756294374.585102) can0 101#0031060000 R
(1756294374.592762) can0 100#0100000000 R
(1756294374.593714) can0 101#002E060000 R
(1756294374.601328) can0 100#0100000000 R
(1756294374.602016) can0 101#0030060000 R
(1756294374.609952) can0 100#0100000000 R
(1756294374.610626) can0 101#002F060000 R
(1756294374.618754) can0 100#0100000000 R
(1756294374.619170) can0 101#0032060000 R
(1756294374.626949) can0 100#0100000000 R
(1756294374.627813) can0 101#0032060000 R
(1756294374.629556) can0 211#7D2D8942C3630440 R
(1756294374.635797) can0 100#0100000000 R
(1756294374.636218) can0 101#0032060000 R
(1756294374.639249) can0 210#17518F4282500A40 R
(1756294374.643955) can0 100#0100000000 R
(1756294374.644645) can0 101#0031060000 R
(1756294374.652468) can0 100#0100000000 R
(1756294374.653244) can0 101#0032060000 R
(1756294374.659837) can0 204#0000 R
(1756294374.660221) can0 203#061D R
(1756294374.660926) can0 100#0100000000 R
(1756294374.661750) can0 101#0032060000 R
(1756294374.669522) can0 100#0100000000 R
(1756294374.670277) can0 101#0031060000 R
(1756294374.678357) can0 100#0100000000 R
(1756294374.678648) can0 101#002F060000 R
(1756294374.680524) can0 200#00590E880E8C0E R
(1756294374.681370) can0 200#018A0E00000000 R
(1756294374.682332) can0 201#182F000000000000 R
(1756294374.683319) can0 202#353A00001D020000 R
(1756294374.686577) can0 100#0100000000 R
(1756294374.687274) can0 101#0030060000 R
(1756294374.695130) can0 100#0100000000 R
(1756294374.695771) can0 101#002F060000 R
(1756294374.703631) can0 100#0100000000 R
(1756294374.704461) can0 101#0031060000 R
(1756294374.712100) can0 100#0100000000 R
(1756294374.712770) can0 101#0031060000 R
(1756294374.720709) can0 100#0100000000 R
(1756294374.721417) can0 101#0031060000 R
(1756294374.729477) can0 100#0100000000 R
(1756294374.729782) can0 101#0030060000 R
(1756294374.737855) can0 100#0100000000 R
(1756294374.738361) can0 101#0032060000 R
(1756294374.746148) can0 100#0100000000 R
(1756294374.746824) can0 101#002F060000 R
(1756294374.754830) can0 100#0100000000 R
(1756294374.755529) can0 101#0031060000 R
(1756294374.763541) can0 100#0100000000 R
(1756294374.763868) can0 101#0031060000 R
(1756294374.771875) can0 100#0100000000 R
(1756294374.772503) can0 101#0031060000 R
(1756294374.780368) can0 100#0100000000 R
(1756294374.781018) can0 101#0032060000 R
(1756294374.788814) can0 100#0100000000 R
(1756294374.789642) can0 101#0031060000 R
(1756294374.797355) can0 100#0100000000 R
(1756294374.797946) can0 101#0032060000 R
(1756294374.805916) can0 100#0100000000 R
(1756294374.806590) can0 101#0031060000 R
(1756294374.814543) can0 100#0100000000 R
(1756294374.815110) can0 101#0031060000 R
(1756294374.823346) can0 100#0100000000 R
(1756294374.823603) can0 101#0030060000 R
(1756294374.829664) can0 211#9BFC864275460240 R
(1756294374.831349) can0 100#0100000000 R
(1756294374.832034) can0 101#002F060000 R
(1756294374.839371) can0 210#68ED8842EB250440 R
(1756294374.840140) can0 100#0100000000 R
(1756294374.840900) can0 101#0031060000 R
(1756294374.848418) can0 100#0100000000 R
(1756294374.849140) can0 101#0031060000 R
(1756294374.856958) can0 100#0100000000 R
(1756294374.857709) can0 101#0031060000 R
(1756294374.859679) can0 204#0000 R
(1756294374.860267) can0 203#201D R
(1756294374.865393) can0 100#0100000000 R
(1756294374.866113) can0 101#0030060000 R
(1756294374.874431) can0 100#0100000000 R
(1756294374.874712) can0 101#0031060000 R
(1756294374.882505) can0 100#0100000000 R
(1756294374.883288) can0 101#002E060000 R
(1756294374.884099) can0 200#00500EA30E830E R
(1756294374.885047) can0 200#01810E00000000 R
(1756294374.886047) can0 201#3A2F000000000000 R
(1756294374.887030) can0 202#3E3A00001D020000 R
(1756294374.891095) can0 100#0100000000 R
(1756294374.891812) can0 101#0032060000 R
(1756294374.899513) can0 100#0100000000 R
(1756294374.900195) can0 101#002F060000 R
(1756294374.908373) can0 100#0100000000 R
(1756294374.908845) can0 101#0032060000 R
(1756294374.916544) can0 100#0100000000 R
(1756294374.917208) can0 101#0032060000 R
(1756294374.925122) can0 100#0100000000 R
(1756294374.925916) can0 101#0032060000 R
(1756294374.933708) can0 100#0100000000 R
(1756294374.934411) can0 101#0032060000 R
(1756294374.942282) can0 100#0100000000 R
(1756294374.942997) can0 101#0033060000 R
(1756294374.951065) can0 100#0100000000 R
(1756294374.951434) can0 101#0032060000 R
(1756294374.959335) can0 100#0100000000 R
(1756294374.960015) can0 101#0033060000 R
(1756294374.967635) can0 100#0100000000 R
(1756294374.968537) can0 101#0032060000 R
(1756294374.976342) can0 100#0100000000 R
(1756294374.977026) can0 101#0032060000 R
(1756294374.984987) can0 100#0100000000 R
(1756294374.985684) can0 101#0035060000 R
(1756294374.993471) can0 100#0100000000 R
(1756294374.994013) can0 101#0032060000 R
(1756294375.002146) can0 100#0100000000 R
(1756294375.002489) can0 101#0033060000 R
(1756294375.010607) can0 100#0100000000 R
(1756294375.011064) can0 101#0032060000 R
(1756294375.018938) can0 100#0100000000 R
(1756294375.019677) can0 101#0034060000 R
(1756294375.027425) can0 100#0100000000 R
(1756294375.028350) can0 101#0033060000 R
(1756294375.030250) can0 211#78DE8042F7BDF83F R
(1756294375.036075) can0 100#0100000000 R
(1756294375.036585) can0 101#0034060000 R
(1756294375.039781) can0 210#1D8882428CF3FB3F R
(1756294375.044771) can0 100#0100000000 R
(1756294375.045145) can0 101#0033060000 R
(1756294375.053253) can0 100#0100000000 R
(1756294375.053587) can0 101#0032060000 R
(1756294375.060398) can0 204#0000 R
(1756294375.060469) can0 203#D71C R
(1756294375.061546) can0 100#0100000000 R
(1756294375.062190) can0 101#0032060000 R
(1756294375.070293) can0 100#0100000000 R
(1756294375.070665) can0 101#0032060000 R
(1756294375.078597) can0 100#0100000000 R
(1756294375.079143) can0 101#0033060000 R
(1756294375.085132) can0 200#00500E9A0E8C0E R
(1756294375.085919) can0 200#01810E00000000 R
(1756294375.086928) can0 201#842F000000000000 R
(1756294375.087714) can0 100#0100000000 R
(1756294375.088437) can0 101#0034060000 R
(1756294375.089338) can0 202#3E3A00001D020000 R
(1756294375.095624) can0 100#0100000000 R
(1756294375.096270) can0 101#0032060000 R
(1756294375.104077) can0 100#0100000000 R
(1756294375.104773) can0 101#0036060000 R
(1756294375.112993) can0 100#0100000000 R
(1756294375.113438) can0 101#0036060000 R
(1756294375.121157) can0 100#0100000000 R
(1756294375.121826) can0 101#0034060000 R
(1756294375.129727) can0 100#0100000000 R
(1756294375.130478) can0 101#0033060000 R
(1756294375.138377) can0 100#0100000000 R
(1756294375.138827) can0 101#0034060000 R
(1756294375.146650) can0 100#0100000000 R
(1756294375.147416) can0 101#0033060000 R
(1756294375.155187) can0 100#0100000000 R
(1756294375.155835) can0 101#0032060000 R
(1756294375.164126) can0 100#0100000000 R
(1756294375.164496) can0 101#0032060000 R
(1756294375.172322) can0 100#0100000000 R
(1756294375.172957) can0 101#0033060000 R
(1756294375.180890) can0 100#0100000000 R
(1756294375.181548) can0 101#0033060000 R
(1756294375.189250) can0 100#0100000000 R
(1756294375.189903) can0 101#0032060000 R
(1756294375.197727) can0 100#0100000000 R
(1756294375.198446) can0 101#0034060000 R
(1756294375.206180) can0 100#0100000000 R
(1756294375.207005) can0 101#0034060000 R
(1756294375.215301) can0 100#0100000000 R
(1756294375.215501) can0 101#0033060000 R
(1756294375.223425) can0 100#0100000000 R
(1756294375.224038) can0 101#0033060000 R
(1756294375.230542) can0 211#36EB7F4280FCF63F R
(1756294375.232103) can0 100#0100000000 R
(1756294375.232557) can0 101#0033060000 R
(1756294375.239989) can0 210#5C0280421E15F73F R
(1756294375.240574) can0 100#0100000000 R
(1756294375.241360) can0 101#0033060000 R
(1756294375.249120) can0 100#0100000000 R
(1756294375.249698) can0 101#0033060000 R
(1756294375.257528) can0 100#0100000000 R
(1756294375.258206) can0 101#0033060000 R
(1756294375.260316) can0 204#0000 R
(1756294375.260779) can0 203#971C R
(1756294375.266343) can0 100#0100000000 R
(1756294375.266588) can0 101#0033060000 R
(1756294375.274704) can0 100#0100000000 R
(1756294375.275179) can0 101#0033060000 R
(1756294375.283272) can0 100#0100000000 R
(1756294375.283764) can0 101#0033060000 R
(1756294375.287505) can0 200#00500E910E8C0E R
(1756294375.288504) can0 200#018A0E00000000 R
(1756294375.289693) can0 201#622F000000000000 R
(1756294375.290742) can0 202#353A00005E030000 R
(1756294375.291722) can0 100#0100000000 R
(1756294375.292301) can0 101#0033060000 R
(1756294375.300101) can0 100#0100000000 R
(1756294375.301031) can0 101#0034060000 R
(1756294375.308684) can0 100#0100000000 R
(1756294375.309327) can0 101#0034060000 R
(1756294375.317062) can0 100#0100000000 R
(1756294375.317894) can0 101#0034060000 R
(1756294375.325729) can0 100#0100000000 R
(1756294375.326270) can0 101#0033060000 R
(1756294375.334544) can0 100#0100000000 R
(1756294375.334843) can0 101#0034060000 R
(1756294375.342865) can0 100#0100000000 R
(1756294375.343368) can0 101#0033060000 R
(1756294375.351568) can0 100#0100000000 R
(1756294375.351904) can0 101#0033060000 R
(1756294375.359630) can0 100#0100000000 R
(1756294375.360505) can0 101#0035060000 R
(1756294375.368175) can0 100#0100000000 R
(1756294375.368853) can0 101#0033060000 R
(1756294375.376621) can0 100#0100000000 R
(1756294375.377464) can0 101#0032060000 R
(1756294375.385332) can0 100#0100000000 R
(1756294375.386008) can0 101#0034060000 R
(1756294375.393737) can0 100#0100000000 R
(1756294375.394540) can0 101#0032060000 R
(1756294375.402182) can0 100#0100000000 R
(1756294375.402924) can0 101#0033060000 R
(1756294375.410954) can0 100#0100000000 R
(1756294375.411526) can0 101#0033060000 R
(1756294375.419245) can0 100#0100000000 R
(1756294375.419970) can0 101#0033060000 R
(1756294375.427979) can0 100#0100000000 R
(1756294375.428656) can0 101#0033060000 R
(1756294375.430250) can0 211#7A9B8F424D980A40 R
(1756294375.436262) can0 100#0100000000 R
(1756294375.437091) can0 101#0033060000 R
(1756294375.440035) can0 210#D7679242AA4B0D40 R
(1756294375.444878) can0 100#0100000000 R
(1756294375.445597) can0 101#0032060000 R
(1756294375.453580) can0 100#0100000000 R
(1756294375.454173) can0 101#0033060000 R
(1756294375.460686) can0 204#0000 R
(1756294375.461182) can0 203#C01C R
(1756294375.462033) can0 100#0100000000 R
(1756294375.462647) can0 101#0032060000 R
(1756294375.470465) can0 100#0100000000 R
(1756294375.471203) can0 101#0034060000 R
(1756294375.479116) can0 100#0100000000 R
(1756294375.479762) can0 101#0034060000 R
(1756294375.487671) can0 100#0100000000 R
(1756294375.488229) can0 101#0034060000 R
(1756294375.490710) can0 200#00470E910E8D0E R
(1756294375.491618) can0 200#01890E00000000 R
(1756294375.492769) can0 201#0C2F000000000000 R
(1756294375.493759) can0 202#2C3A00000E030000 R
(1756294375.495940) can0 100#0100000000 R
(1756294375.496616) can0 101#0032060000 R
(1756294375.504494) can0 100#0100000000 R
(1756294375.505176) can0 101#0033060000 R
(1756294375.513119) can0 100#0100000000 R
(1756294375.513706) can0 101#0033060000 R
(1756294375.521607) can0 100#0100000000 R
(1756294375.522221) can0 101#0034060000 R
(1756294375.530230) can0 100#0100000000 R
(1756294375.530847) can0 101#0034060000 R
(1756294375.538765) can0 100#0100000000 R
(1756294375.539748) can0 101#0034060000 R
(1756294375.547206) can0 100#0100000000 R
(1756294375.548225) can0 101#0033060000 R
(1756294375.555878) can0 100#0100000000 R
(1756294375.556320) can0 101#0034060000 R
(1756294375.564262) can0 100#0100000000 R
(1756294375.564913) can0 101#0033060000 R
(1756294375.573028) can0 100#0100000000 R
(1756294375.573533) can0 101#0033060000 R
(1756294375.581278) can0 100#0100000000 R
(1756294375.581995) can0 101#0033060000 R
(1756294375.589860) can0 100#0100000000 R
(1756294375.590577) can0 101#0034060000 R
(1756294375.598140) can0 100#0100000000 R
(1756294375.598977) can0 101#0033060000 R
(1756294375.606786) can0 100#0100000000 R
(1756294375.607567) can0 101#0033060000 R
(1756294375.615373) can0 100#0100000000 R
(1756294375.616013) can0 101#0036060000 R
(1756294375.624119) can0 100#0100000000 R
(1756294375.624570) can0 101#0033060000 R
(1756294375.630616) can0 211#E2989042DD8C0B40 R
(1756294375.632247) can0 100#0100000000 R
(1756294375.632957) can0 101#0033060000 R
(1756294375.640377) can0 210#6AFC9142FCE30C40 R
(1756294375.640994) can0 100#0100000000 R
(1756294375.641901) can0 101#0033060000 R
(1756294375.649357) can0 100#0100000000 R
(1756294375.650341) can0 101#0032060000 R
(1756294375.658143) can0 100#0100000000 R
(1756294375.658756) can0 101#0035060000 R
(1756294375.660826) can0 204#0000 R
(1756294375.661045) can0 203#481D R
(1756294375.666430) can0 100#0100000000 R
(1756294375.667093) can0 101#0032060000 R
(1756294375.675144) can0 100#0100000000 R
(1756294375.675686) can0 101#0034060000 R
(1756294375.683426) can0 100#0100000000 R
(1756294375.684238) can0 101#0034060000 R
(1756294375.691913) can0 100#0100000000 R
(1756294375.692684) can0 101#0034060000 R
(1756294375.693522) can0 200#00500E910E950E R
(1756294375.694475) can0 200#01810E00000000 R
(1756294375.695499) can0 201#342F000000000000 R
(1756294375.696318) can0 202#353A000095020000 R
(1756294375.700383) can0 100#0100000000 R
(1756294375.701200) can0 101#0034060000 R
(1756294375.709337) can0 100#0100000000 R
(1756294375.709921) can0 101#0034060000 R
(1756294375.717645) can0 100#0100000000 R
(1756294375.718299) can0 101#0036060000 R
(1756294375.726177) can0 100#0100000000 R
(1756294375.726687) can0 101#0035060000 R
(1756294375.734742) can0 100#0100000000 R
(1756294375.735275) can0 101#0035060000 R
(1756294375.743130) can0 100#0100000000 R
(1756294375.743800) can0 101#0036060000 R
(1756294375.751707) can0 100#0100000000 R
(1756294375.752344) can0 101#0034060000 R
(1756294375.760252) can0 100#0100000000 R
(1756294375.760911) can0 101#0035060000 R
(1756294375.768735) can0 100#0100000000 R
(1756294375.769358) can0 101#0034060000 R
(1756294375.777146) can0 100#0100000000 R
(1756294375.777918) can0 101#0035060000 R
(1756294375.785832) can0 100#0100000000 R
(1756294375.786440) can0 101#0035060000 R
(1756294375.794222) can0 100#0100000000 R
(1756294375.794913) can0 101#0035060000 R
(1756294375.802824) can0 100#0100000000 R
(1756294375.803522) can0 101#0035060000 R
(1756294375.811390) can0 100#0100000000 R
(1756294375.812022) can0 101#0035060000 R
(1756294375.819808) can0 100#0100000000 R
(1756294375.820493) can0 101#0034060000 R
(1756294375.828410) can0 100#0100000000 R
(1756294375.829082) can0 101#0036060000 R
(1756294375.830789) can0 211#24BF8C4286D50740 R
(1756294375.836702) can0 100#0100000000 R
(1756294375.837661) can0 101#0036060000 R
(1756294375.840492) can0 210#CCD48B425DF30640 R
(1756294375.845410) can0 100#0100000000 R
(1756294375.846107) can0 101#0036060000 R
(1756294375.853964) can0 100#0100000000 R
(1756294375.854588) can0 101#0036060000 R
(1756294375.860912) can0 204#0000 R
(1756294375.861321) can0 203#201D R
(1756294375.862488) can0 100#0100000000 R
(1756294375.863092) can0 101#0034060000 R
(1756294375.871251) can0 100#0100000000 R
(1756294375.871539) can0 101#0034060000 R
(1756294375.879835) can0 100#0100000000 R
(1756294375.880135) can0 101#0035060000 R
(1756294375.887942) can0 100#0100000000 R
(1756294375.888941) can0 101#0036060000 R
(1756294375.894778) can0 200#00500E9A0E830E R
(1756294375.895782) can0 200#018A0E00000000 R
(1756294375.896526) can0 201#6D2F000000000000 R
(1756294375.897502) can0 100#0100000000 R
(1756294375.898134) can0 101#0036060000 R
(1756294375.899125) can0 202#3E3A00006D020000 R
(1756294375.905024) can0 100#0100000000 R
(1756294375.905749) can0 101#0036060000 R
(1756294375.913944) can0 100#0100000000 R
(1756294375.914211) can0 101#0035060000 R
(1756294375.922109) can0 100#0100000000 R
(1756294375.922775) can0 101#0036060000 R
(1756294375.930956) can0 100#0100000000 R
(1756294375.931227) can0 101#0035060000 R
(1756294375.939143) can0 100#0100000000 R
(1756294375.939867) can0 101#0035060000 R
(1756294375.947571) can0 100#0100000000 R
(1756294375.948338) can0 101#0035060000 R
(1756294375.956133) can0 100#0100000000 R
(1756294375.956794) can0 101#0035060000 R
(1756294375.964848) can0 100#0100000000 R
(1756294375.965466) can0 101#0036060000 R
(1756294375.973418) can0 100#0100000000 R
(1756294375.973839) can0 101#0036060000 R
(1756294375.981884) can0 100#0100000000 R
(1756294375.982470) can0 101#0036060000 R
(1756294375.990619) can0 100#0100000000 R
(1756294375.991062) can0 101#0036060000 R
(1756294375.998919) can0 100#0100000000 R
(1756294375.999569) can0 101#0036060000 R
(1756294376.007253) can0 100#0100000000 R
(1756294376.007985) can0 101#0036060000 R
(1756294376.015809) can0 100#0100000000 R
(1756294376.016498) can0 101#0036060000 R
(1756294376.024355) can0 100#0100000000 R
(1756294376.025081) can0 101#0036060000 R
(1756294376.030869) can0 211#71578C4273710740 R
(1756294376.032873) can0 100#0100000000 R
(1756294376.033861) can0 101#0037060000 R
(1756294376.040727) can0 210#3E028942073A0440 R
(1756294376.041408) can0 100#0100000000 R
(1756294376.042169) can0 101#0039060000 R
(1756294376.050161) can0 100#0100000000 R
(1756294376.050655) can0 101#003B060000 R
(1756294376.058423) can0 100#0100000000 R
(1756294376.059066) can0 101#003E060000 R
(1756294376.061034) can0 204#0000 R
(1756294376.061517) can0 203#D71C R
(1756294376.066778) can0 100#0100000000 R
(1756294376.067548) can0 101#0042060000 R
(1756294376.075276) can0 100#0100000000 R
(1756294376.076011) can0 101#0046060000 R
(1756294376.083835) can0 100#0100000000 R
(1756294376.084562) can0 101#0047060000 R
(1756294376.092463) can0 100#0100000000 R
(1756294376.093135) can0 101#0047060000 R
(1756294376.096798) can0 200#00470E9A0E7C0E R
(1756294376.097700) can0 200#01910E00000000 R
(1756294376.098681) can0 201#182F000000000000 R
(1756294376.099669) can0 202#233A0000DF050000 R
(1756294376.100969) can0 100#0100000000 R
(1756294376.101702) can0 101#0047060000 R
(1756294376.109396) can0 100#0100000000 R
(1756294376.110152) can0 101#004E060000 R
(1756294376.117985) can0 100#0100000000 R
(1756294376.118742) can0 101#0052060000 R
(1756294376.126468) can0 100#0100000000 R
(1756294376.127206) can0 101#0053060000 R
(1756294376.135120) can0 100#0100000000 R
(1756294376.135808) can0 101#0054060000 R
(1756294376.143624) can0 100#0100000000 R
(1756294376.144367) can0 101#0054060000 R
(1756294376.152099) can0 100#0100000000 R
(1756294376.152800) can0 101#0056060000 R
(1756294376.160759) can0 100#0100000000 R
(1756294376.161222) can0 101#0056060000 R
(1756294376.169162) can0 100#0100000000 R
(1756294376.169888) can0 101#0056060000 R
(1756294376.177679) can0 100#0100000000 R
(1756294376.178733) can0 101#0056060000 R
(1756294376.186063) can0 100#0100000000 R
(1756294376.186879) can0 101#0056060000 R
(1756294376.194564) can0 100#0100000000 R
(1756294376.195419) can0 101#0053060000 R
(1756294376.203324) can0 100#0100000000 R
(1756294376.204080) can0 101#0056060000 R
(1756294376.211943) can0 100#0100000000 R
(1756294376.212589) can0 101#0056060000 R
(1756294376.220322) can0 100#0100000000 R
(1756294376.221002) can0 101#0056060000 R
(1756294376.228863) can0 100#0100000000 R
(1756294376.229840) can0 101#0055060000 R
(1756294376.231145) can0 211#9FFFE142421C5A40 R
(1756294376.237317) can0 100#0100000000 R
(1756294376.238012) can0 101#0056060000 R
(1756294376.240907) can0 210#E2A9E742E6935F40 R
(1756294376.245874) can0 100#0100000000 R
(1756294376.246520) can0 101#0056060000 R
(1756294376.254833) can0 100#0100000000 R
(1756294376.255048) can0 101#0056060000 R
(1756294376.261896) can0 204#0000 R
(1756294376.262218) can0 203#971C R
(1756294376.263047) can0 100#0100000000 R
(1756294376.264072) can0 101#0056060000 R
(1756294376.271279) can0 100#0100000000 R
(1756294376.272110) can0 101#0057060000 R
(1756294376.280074) can0 100#0100000000 R
(1756294376.280649) can0 101#0057060000 R
(1756294376.288490) can0 100#0100000000 R
(1756294376.289171) can0 101#0056060000 R
(1756294376.296858) can0 100#0100000000 R
(1756294376.297671) can0 101#0058060000 R
(1756294376.300531) can0 200#00590EB60E780E R
(1756294376.301420) can0 200#01670E00000000 R
(1756294376.302258) can0 201#512F000000000000 R
(1756294376.303231) can0 202#5A3A000036030000 R
(1756294376.305463) can0 100#0100000000 R
(1756294376.306224) can0 101#0057060000 R
(1756294376.314104) can0 100#0100000000 R
(1756294376.314838) can0 101#0057060000 R
(1756294376.322546) can0 100#0100000000 R
(1756294376.323218) can0 101#0057060000 R
(1756294376.331490) can0 100#0100000000 R
(1756294376.331786) can0 101#0057060000 R
(1756294376.339456) can0 100#0100000000 R
(1756294376.340182) can0 101#0058060000 R
(1756294376.348113) can0 100#0100000000 R
(1756294376.348865) can0 101#0058060000 R
(1756294376.356557) can0 100#0100000000 R
(1756294376.357321) can0 101#0058060000 R
(1756294376.365041) can0 100#0100000000 R
(1756294376.365862) can0 101#0058060000 R
(1756294376.373710) can0 100#0100000000 R
(1756294376.374737) can0 101#0058060000 R
(1756294376.382418) can0 100#0100000000 R
(1756294376.382912) can0 101#0058060000 R
(1756294376.391046) can0 100#0100000000 R
(1756294376.391522) can0 101#0059060000 R
(1756294376.399202) can0 100#0100000000 R
(1756294376.400061) can0 101#0057060000 R
(1756294376.407640) can0 100#0100000000 R
(1756294376.408727) can0 101#005A060000 R
(1756294376.416550) can0 100#0100000000 R
(1756294376.416861) can0 101#0059060000 R
(1756294376.424837) can0 100#0100000000 R
(1756294376.425536) can0 101#0058060000 R
(1756294376.431492) can0 211#BDEF014370CD7A40 R
(1756294376.433531) can0 100#0100000000 R
(1756294376.433900) can0 101#0057060000 R
(1756294376.441120) can0 210#A5B9024326537C40 R
(1756294376.441807) can0 100#0100000000 R
(1756294376.442698) can0 101#0058060000 R
(1756294376.450167) can0 100#0100000000 R
(1756294376.450915) can0 101#0059060000 R
(1756294376.458921) can0 100#0100000000 R
(1756294376.459857) can0 101#0059060000 R
(1756294376.461340) can0 204#0000 R
(1756294376.462003) can0 203#061D R
(1756294376.467373) can0 100#0100000000 R
(1756294376.467922) can0 101#005A060000 R
(1756294376.476089) can0 100#0100000000 R
(1756294376.476688) can0 101#0059060000 R
(1756294376.484279) can0 100#0100000000 R
(1756294376.485013) can0 101#005A060000 R
(1756294376.493021) can0 100#0100000000 R
(1756294376.493661) can0 101#005A060000 R
(1756294376.501825) can0 100#0100000000 R
(1756294376.502146) can0 101#005A060000 R
(1756294376.503849) can0 200#00500E910E840E R
(1756294376.504619) can0 200#01890E00000000 R
(1756294376.505667) can0 201#182F000000000000 R
(1756294376.506650) can0 202#2C3A0000BD020000 R
(1756294376.510163) can0 100#0100000000 R
(1756294376.510677) can0 101#0059060000 R
(1756294376.518325) can0 100#0100000000 R
(1756294376.519048) can0 101#0058060000 R
(1756294376.526885) can0 100#0100000000 R
(1756294376.527956) can0 101#0059060000 R
(1756294376.535460) can0 100#0100000000 R
(1756294376.536173) can0 101#0057060000 R
(1756294376.544389) can0 100#0100000000 R
(1756294376.544866) can0 101#0059060000 R
(1756294376.552518) can0 100#0100000000 R
(1756294376.553239) can0 101#0058060000 R
(1756294376.561421) can0 100#0100000000 R
(1756294376.561714) can0 101#005B060000 R
(1756294376.569540) can0 100#0100000000 R
(1756294376.570263) can0 101#0057060000 R
(1756294376.578386) can0 100#0100000000 R
(1756294376.578835) can0 101#0059060000 R
(1756294376.586603) can0 100#0100000000 R
(1756294376.587278) can0 101#005C060000 R
(1756294376.595514) can0 100#0100000000 R
(1756294376.595944) can0 101#0059060000 R
(1756294376.603761) can0 100#0100000000 R
(1756294376.604312) can0 101#0059060000 R
(1756294376.612456) can0 100#0100000000 R
(1756294376.613013) can0 101#0059060000 R
(1756294376.620757) can0 100#0100000000 R
(1756294376.621386) can0 101#0058060000 R
(1756294376.629147) can0 100#0100000000 R
(1756294376.629969) can0 101#0059060000 R
(1756294376.631374) can0 211#44380543E8918040 R
(1756294376.637912) can0 100#0100000000 R
(1756294376.638436) can0 101#0059060000 R
(1756294376.641269) can0 210#830C0543AE678040 R
(1756294376.646166) can0 100#0100000000 R
(1756294376.646904) can0 101#0059060000 R
(1756294376.654748) can0 100#0100000000 R
(1756294376.655398) can0 101#005A060000 R
(1756294376.661760) can0 204#0000 R
(1756294376.662015) can0 203#481D R
(1756294376.663332) can0 100#0100000000 R
(1756294376.664005) can0 101#0059060000 R
(1756294376.671826) can0 100#0100000000 R
(1756294376.672641) can0 101#0059060000 R
(1756294376.680526) can0 100#0100000000 R
(1756294376.681198) can0 101#0057060000 R
(1756294376.689130) can0 100#0100000000 R
(1756294376.689629) can0 101#0057060000 R
(1756294376.697384) can0 100#0100000000 R
(1756294376.698110) can0 101#0059060000 R
(1756294376.705812) can0 100#0100000000 R
(1756294376.706557) can0 101#005B060000 R
(1756294376.707346) can0 200#00500E910E8C0E R
(1756294376.708362) can0 200#01810E00000000 R
(1756294376.709351) can0 201#342F000000000000 R
(1756294376.710316) can0 202#2C3A000036030000 R
(1756294376.714509) can0 100#0100000000 R
(1756294376.715252) can0 101#0059060000 R
(1756294376.722812) can0 100#0100000000 R
(1756294376.723538) can0 101#005B060000 R
(1756294376.731419) can0 100#0100000000 R
(1756294376.732190) can0 101#0059060000 R
(1756294376.740295) can0 100#0100000000 R
(1756294376.740587) can0 101#005C060000 R
(1756294376.748579) can0 100#0100000000 R
(1756294376.749190) can0 101#005A060000 R
(1756294376.756976) can0 100#0100000000 R
(1756294376.757824) can0 101#005B060000 R
(1756294376.765596) can0 100#0100000000 R
(1756294376.766258) can0 101#0059060000 R
(1756294376.773995) can0 100#0100000000 R
(1756294376.774735) can0 101#0059060000 R
(1756294376.782925) can0 100#0100000000 R
(1756294376.783283) can0 101#0059060000 R
(1756294376.791135) can0 100#0100000000 R
(1756294376.791850) can0 101#0058060000 R
(1756294376.799793) can0 100#0100000000 R
(1756294376.800479) can0 101#0058060000 R
(1756294376.808131) can0 100#0100000000 R
(1756294376.808843) can0 101#0058060000 R
(1756294376.816660) can0 100#0100000000 R
(1756294376.817491) can0 101#005B060000 R
(1756294376.825160) can0 100#0100000000 R
(1756294376.825871) can0 101#0059060000 R
(1756294376.831657) can0 211#8DF00743E3318340 R
(1756294376.833723) can0 100#0100000000 R
(1756294376.834452) can0 101#0059060000 R
(1756294376.841510) can0 210#84F10843E3298440 R
(1756294376.842184) can0 100#0100000000 R
(1756294376.842961) can0 101#005B060000 R
(1756294376.851025) can0 100#0100000000 R
(1756294376.851398) can0 101#0059060000 R
(1756294376.859646) can0 100#0100000000 R
(1756294376.860005) can0 101#0059060000 R
(1756294376.861756) can0 204#0000 R
(1756294376.862210) can0 203#201D R
(1756294376.868148) can0 100#0100000000 R
(1756294376.868410) can0 101#0059060000 R
(1756294376.876548) can0 100#0100000000 R
(1756294376.877062) can0 101#0059060000 R
(1756294376.884701) can0 100#0100000000 R
(1756294376.885586) can0 101#0059060000 R
(1756294376.893297) can0 100#0100000000 R
(1756294376.894038) can0 101#0059060000 R
(1756294376.902227) can0 100#0100000000 R
(1756294376.902672) can0 101#0059060000 R
(1756294376.908688) can0 200#00470E9A0E7C0E R
(1756294376.909457) can0 200#01880E00000000 R
(1756294376.910411) can0 201#782F000000000000 R
(1756294376.911089) can0 100#0100000000 R
(1756294376.911946) can0 101#0059060000 R
(1756294376.912911) can0 202#233A0000C6040000 R
(1756294376.918962) can0 100#0100000000 R
(1756294376.919649) can0 101#005A060000 R
(1756294376.927490) can0 100#0100000000 R
(1756294376.928098) can0 101#005A060000 R
(1756294376.935977) can0 100#0100000000 R
(1756294376.936550) can0 101#0059060000 R
(1756294376.944346) can0 100#0100000000 R
(1756294376.945144) can0 101#0059060000 R
(1756294376.953140) can0 100#0100000000 R
(1756294376.953633) can0 101#0059060000 R
(1756294376.961657) can0 100#0100000000 R
(1756294376.962204) can0 101#0059060000 R
(1756294376.970063) can0 100#0100000000 R
(1756294376.970803) can0 101#0059060000 R
(1756294376.978882) can0 100#0100000000 R
(1756294376.979141) can0 101#0056060000 R
(1756294376.987081) can0 100#0100000000 R
(1756294376.987803) can0 101#005A060000 R
(1756294376.995870) can0 100#0100000000 R
(1756294376.996257) can0 101#0059060000 R
(1756294377.004203) can0 100#0100000000 R
(1756294377.004749) can0 101#0059060000 R
(1756294377.012487) can0 100#0100000000 R
(1756294377.013343) can0 101#005A060000 R
(1756294377.021130) can0 100#0100000000 R
(1756294377.021864) can0 101#005A060000 R
(1756294377.029558) can0 100#0100000000 R
(1756294377.030231) can0 101#005A060000 R
(1756294377.031726) can0 211#9A070643025A8140 R
(1756294377.038195) can0 100#0100000000 R
(1756294377.039021) can0 101#005A060000 R
(1756294377.041599) can0 210#B572054350CA8040 R
(1756294377.046616) can0 100#0100000000 R
(1756294377.047406) can0 101#0059060000 R
(1756294377.055327) can0 100#0100000000 R
(1756294377.056040) can0 101#0058060000 R
(1756294377.062549) can0 204#0000 R
(1756294377.062988) can0 203#D71C R
(1756294377.063897) can0 100#0100000000 R
(1756294377.064559) can0 101#0059060000 R
(1756294377.072485) can0 100#0100000000 R
(1756294377.073062) can0 101#0059060000 R
(1756294377.080823) can0 100#0100000000 R
(1756294377.081610) can0 101#0059060000 R
(1756294377.089586) can0 100#0100000000 R
(1756294377.090147) can0 101#0059060000 R
(1756294377.097862) can0 100#0100000000 R
(1756294377.098733) can0 101#0059060000 R
(1756294377.106551) can0 100#0100000000 R
(1756294377.106955) can0 101#0059060000 R
(1756294377.110573) can0 200#00470E9A0E8C0E R
(1756294377.111582) can0 200#018A0E00000000 R
(1756294377.112516) can0 201#6D2F000000000000 R
(1756294377.113516) can0 202#353A000017050000 R
(1756294377.114772) can0 100#0100000000 R
(1756294377.115587) can0 101#0056060000 R
(1756294377.123923) can0 100#0100000000 R
(1756294377.124153) can0 101#0059060000 R
(1756294377.131854) can0 100#0100000000 R
(1756294377.132479) can0 101#0059060000 R
(1756294377.140335) can0 100#0100000000 R
(1756294377.141063) can0 101#0059060000 R
(1756294377.148821) can0 100#0100000000 R
(1756294377.149516) can0 101#0059060000 R
(1756294377.157437) can0 100#0100000000 R
(1756294377.158159) can0 101#0059060000 R
(1756294377.166109) can0 100#0100000000 R
(1756294377.166543) can0 101#0059060000 R
(1756294377.174557) can0 100#0100000000 R
(1756294377.175254) can0 101#0059060000 R
(1756294377.183407) can0 100#0100000000 R
(1756294377.183731) can0 101#0059060000 R
(1756294377.191739) can0 100#0100000000 R
(1756294377.192238) can0 101#0059060000 R
(1756294377.200351) can0 100#0100000000 R
(1756294377.200683) can0 101#005A060000 R
(1756294377.208575) can0 100#0100000000 R
(1756294377.209374) can0 101#005A060000 R
(1756294377.217036) can0 100#0100000000 R
(1756294377.218166) can0 101#005B060000 R
(1756294377.225670) can0 100#0100000000 R
(1756294377.226283) can0 101#0059060000 R
(1756294377.232517) can0 211#8AFF034332C87E40 R
(1756294377.233996) can0 100#0100000000 R
(1756294377.234915) can0 101#0059060000 R
(1756294377.241801) can0 210#645A0543D7B28040 R
(1756294377.242644) can0 100#0100000000 R
(1756294377.243412) can0 101#0059060000 R
(1756294377.251517) can0 100#0100000000 R
(1756294377.251794) can0 101#0057060000 R
(1756294377.259665) can0 100#0100000000 R
(1756294377.260427) can0 101#0058060000 R
(1756294377.262052) can0 204#0000 R
(1756294377.262928) can0 203#C01C R
(1756294377.268320) can0 100#0100000000 R
(1756294377.268892) can0 101#0058060000 R
(1756294377.276729) can0 100#0100000000 R
(1756294377.277455) can0 101#0059060000 R
(1756294377.285174) can0 100#0100000000 R
(1756294377.285820) can0 101#0058060000 R
(1756294377.294161) can0 100#0100000000 R
(1756294377.294454) can0 101#0059060000 R
(1756294377.302202) can0 100#0100000000 R
(1756294377.302871) can0 101#0059060000 R
(1756294377.310890) can0 100#0100000000 R
(1756294377.311444) can0 101#0059060000 R
(1756294377.312439) can0 200#00470E910E8D0E R
(1756294377.313255) can0 200#01890E00000000 R
(1756294377.314614) can0 201#342F000000000000 R
(1756294377.315260) can0 202#2C3A00009E040000 R
(1756294377.319223) can0 100#0100000000 R
(1756294377.320097) can0 101#005A060000 R
(1756294377.327863) can0 100#0100000000 R
(1756294377.328512) can0 101#0057060000 R
(1756294377.336550) can0 100#0100000000 R
(1756294377.337043) can0 101#0057060000 R
(1756294377.344832) can0 100#0100000000 R
(1756294377.345516) can0 101#0059060000 R
(1756294377.353387) can0 100#0100000000 R
(1756294377.354189) can0 101#0059060000 R
(1756294377.362137) can0 100#0100000000 R
(1756294377.362674) can0 101#0059060000 R
(1756294377.370377) can0 100#0100000000 R
(1756294377.371103) can0 101#005A060000 R
(1756294377.379360) can0 100#0100000000 R
(1756294377.379609) can0 101#0059060000 R
(1756294377.387811) can0 100#0100000000 R
(1756294377.388153) can0 101#005C060000 R
(1756294377.396060) can0 100#0100000000 R
(1756294377.396807) can0 101#0059060000 R
(1756294377.404878) can0 100#0100000000 R
(1756294377.405253) can0 101#0059060000 R
(1756294377.413033) can0 100#0100000000 R
(1756294377.414203) can0 101#005A060000 R
(1756294377.421657) can0 100#0100000000 R
(1756294377.422250) can0 101#0058060000 R
(1756294377.430346) can0 100#0100000000 R
(1756294377.430798) can0 101#0059060000 R
(1756294377.432465) can0 211#6CC0074371038340 R
(1756294377.438916) can0 100#0100000000 R
(1756294377.439236) can0 101#0057060000 R
(1756294377.442004) can0 210#2CB5074395F88240 R
(1756294377.447087) can0 100#0100000000 R
(1756294377.447834) can0 101#0059060000 R
(1756294377.455832) can0 100#0100000000 R
(1756294377.456253) can0 101#005A060000 R
(1756294377.462492) can0 204#0000 R
(1756294377.462713) can0 203#061D R
(1756294377.464367) can0 100#0100000000 R
(1756294377.464970) can0 101#005A060000 R
(1756294377.472699) can0 100#0100000000 R
(1756294377.473348) can0 101#0059060000 R
(1756294377.481118) can0 100#0100000000 R
(1756294377.481901) can0 101#0059060000 R
(1756294377.489774) can0 100#0100000000 R
(1756294377.490381) can0 101#0059060000 R
(1756294377.498457) can0 100#0100000000 R
(1756294377.498975) can0 101#0059060000 R
(1756294377.506680) can0 100#0100000000 R
(1756294377.507360) can0 101#0058060000 R
(1756294377.514333) can0 200#00500E910E840E R
(1756294377.514896) can0 200#01890E00000000 R
(1756294377.515906) can0 100#0100000000 R
(1756294377.516493) can0 101#0059060000 R
(1756294377.517734) can0 201#182F000000000000 R
(1756294377.518741) can0 202#2C3A00005E030000 R
(1756294377.523736) can0 100#0100000000 R
(1756294377.524951) can0 101#0059060000 R
(1756294377.532371) can0 100#0100000000 R
(1756294377.533381) can0 101#0059060000 R
(1756294377.541197) can0 100#0100000000 R
(1756294377.541466) can0 101#005B060000 R
(1756294377.549298) can0 100#0100000000 R
(1756294377.550022) can0 101#005A060000 R
(1756294377.557856) can0 100#0100000000 R
(1756294377.558432) can0 101#0058060000 R
(1756294377.566326) can0 100#0100000000 R
(1756294377.567023) can0 101#005A060000 R
(1756294377.574780) can0 100#0100000000 R
(1756294377.575522) can0 101#0059060000 R
(1756294377.583316) can0 100#0100000000 R
(1756294377.584037) can0 101#0059060000 R
(1756294377.591864) can0 100#0100000000 R
(1756294377.592513) can0 101#0059060000 R
(1756294377.600443) can0 100#0100000000 R
(1756294377.601089) can0 101#0059060000 R
(1756294377.608923) can0 100#0100000000 R
(1756294377.609609) can0 101#0059060000 R
(1756294377.617368) can0 100#0100000000 R
(1756294377.618134) can0 101#005A060000 R
(1756294377.625930) can0 100#0100000000 R
(1756294377.626611) can0 101#0058060000 R
(1756294377.632307) can0 211#8A2E0643957F8140 R
(1756294377.634536) can0 100#0100000000 R
(1756294377.635232) can0 101#0059060000 R
(1756294377.642029) can0 210#7E52074359998240 R
(1756294377.642969) can0 100#0100000000 R
(1756294377.643652) can0 101#0059060000 R
(1756294377.651585) can0 100#0100000000 R
(1756294377.652322) can0 101#0059060000 R
(1756294377.660051) can0 100#0100000000 R
(1756294377.660777) can0 101#0059060000 R
(1756294377.662449) can0 204#0000 R
(1756294377.662856) can0 203#481D R
(1756294377.668607) can0 100#0100000000 R
(1756294377.669321) can0 101#0059060000 R
(1756294377.677009) can0 100#0100000000 R
(1756294377.677966) can0 101#0059060000 R
(1756294377.685758) can0 100#0100000000 R
(1756294377.686416) can0 101#0059060000 R
(1756294377.694564) can0 100#0100000000 R
(1756294377.694907) can0 101#0059060000 R
(1756294377.702892) can0 100#0100000000 R
(1756294377.703429) can0 101#0059060000 R
(1756294377.711327) can0 100#0100000000 R
(1756294377.712013) can0 101#0059060000 R
(1756294377.715902) can0 200#00500E910E840E R
(1756294377.716638) can0 200#01890E00000000 R
(1756294377.717701) can0 201#2E2F000000000000 R
(1756294377.718823) can0 202#2C3A000036030000 R
(1756294377.719749) can0 100#0100000000 R
(1756294377.720373) can0 101#0059060000 R
(1756294377.728269) can0 100#0100000000 R
(1756294377.729051) can0 101#0059060000 R
(1756294377.736729) can0 100#0100000000 R
(1756294377.737529) can0 101#005A060000 R
(1756294377.745146) can0 100#0100000000 R
(1756294377.745927) can0 101#005B060000 R
(1756294377.753843) can0 100#0100000000 R
(1756294377.754585) can0 101#0059060000 R
(1756294377.762571) can0 100#0100000000 R
(1756294377.763099) can0 101#0059060000 R
(1756294377.770794) can0 100#0100000000 R
(1756294377.771746) can0 101#0059060000 R
(1756294377.779701) can0 100#0100000000 R
(1756294377.780070) can0 101#005C060000 R
(1756294377.788141) can0 100#0100000000 R
(1756294377.788538) can0 101#0059060000 R
(1756294377.796517) can0 100#0100000000 R
(1756294377.797032) can0 101#005B060000 R
(1756294377.805037) can0 100#0100000000 R
(1756294377.806057) can0 101#0059060000 R
(1756294377.813345) can0 100#0100000000 R
(1756294377.814099) can0 101#005C060000 R
(1756294377.822141) can0 100#0100000000 R
(1756294377.822803) can0 101#005C060000 R
(1756294377.830869) can0 100#0100000000 R
(1756294377.831229) can0 101#005C060000 R
(1756294377.832796) can0 211#A31506438D678140 R
(1756294377.839076) can0 100#0100000000 R
(1756294377.839651) can0 101#0059060000 R
(1756294377.842186) can0 210#D2490643EA998140 R
(1756294377.847376) can0 100#0100000000 R
(1756294377.848156) can0 101#0059060000 R
(1756294377.856094) can0 100#0100000000 R
(1756294377.856819) can0 101#005A060000 R
(1756294377.863334) can0 204#0000 R
(1756294377.864200) can0 203#201D R
(1756294377.864492) can0 100#0100000000 R
(1756294377.865396) can0 101#005A060000 R
(1756294377.873161) can0 100#0100000000 R
(1756294377.874096) can0 101#005A060000 R
(1756294377.881860) can0 100#0100000000 R
(1756294377.882359) can0 101#0058060000 R
(1756294377.890596) can0 100#0100000000 R
(1756294377.890765) can0 101#005A060000 R
(1756294377.898672) can0 100#0100000000 R
(1756294377.899365) can0 101#005A060000 R
(1756294377.907172) can0 100#0100000000 R
(1756294377.907903) can0 101#0059060000 R
(1756294377.915695) can0 100#0100000000 R
(1756294377.916504) can0 101#005B060000 R
(1756294377.918134) can0 200#00500E910E8C0E R
(1756294377.918990) can0 200#01810E00000000 R
(1756294377.919906) can0 201#7E2F000000000000 R
(1756294377.921116) can0 202#2C3A00005E030000 R
(1756294377.924068) can0 100#0100000000 R
(1756294377.924853) can0 101#005A060000 R
(1756294377.932751) can0 100#0100000000 R
(1756294377.933544) can0 101#005A060000 R
(1756294377.941304) can0 100#0100000000 R
(1756294377.942080) can0 101#005C060000 R
(1756294377.950124) can0 100#0100000000 R
(1756294377.950566) can0 101#005C060000 R
(1756294377.958337) can0 100#0100000000 R
(1756294377.959080) can0 101#0059060000 R
(1756294377.966627) can0 100#0100000000 R
(1756294377.967406) can0 101#005C060000 R
(1756294377.975328) can0 100#0100000000 R
(1756294377.976098) can0 101#005A060000 R
(1756294377.983972) can0 100#0100000000 R
(1756294377.984579) can0 101#005A060000 R
(1756294377.992344) can0 100#0100000000 R
(1756294377.993097) can0 101#0059060000 R
(1756294378.000875) can0 100#0100000000 R
(1756294378.001889) can0 101#0059060000 R
(1756294378.009342) can0 100#0100000000 R
(1756294378.010134) can0 101#0059060000 R
(1756294378.018080) can0 100#0100000000 R
(1756294378.018625) can0 101#005C060000 R
(1756294378.026543) can0 100#0100000000 R
(1756294378.027086) can0 101#005A060000 R
(1756294378.032941) can0 211#32970843B8D28340 R
(1756294378.035105) can0 100#0100000000 R
(1756294378.035619) can0 101#0059060000 R
(1756294378.042516) can0 210#B326084326668340 R
(1756294378.043665) can0 100#0100000000 R
(1756294378.044640) can0 101#0059060000 R
(1756294378.051916) can0 100#0100000000 R
(1756294378.052584) can0 101#005A060000 R
(1756294378.061023) can0 100#0100000000 R
(1756294378.061293) can0 101#005A060000 R
(1756294378.062892) can0 204#0000 R
(1756294378.063366) can0 203#971C R
(1756294378.069135) can0 100#0100000000 R
(1756294378.069979) can0 101#005A060000 R
(1756294378.077844) can0 100#0100000000 R
(1756294378.078392) can0 101#005A060000 R
(1756294378.086430) can0 100#0100000000 R
(1756294378.086743) can0 101#005C060000 R
(1756294378.094961) can0 100#0100000000 R
(1756294378.095398) can0 101#005C060000 R
(1756294378.103156) can0 100#0100000000 R
(1756294378.103877) can0 101#005C060000 R
(1756294378.111897) can0 100#0100000000 R
(1756294378.112480) can0 101#0059060000 R
(1756294378.119379) can0 200#00500E880E7B0E R
(1756294378.119842) can0 200#019B0E00000000 R
(1756294378.120841) can0 100#0100000000 R
(1756294378.121435) can0 101#005B060000 R
(1756294378.122733) can0 201#782F000000000000 R
(1756294378.123348) can0 202#2C3A0000FE030000 R
(1756294378.128647) can0 100#0100000000 R
(1756294378.129319) can0 101#005A060000 R
(1756294378.137149) can0 100#0100000000 R
(1756294378.138138) can0 101#0059060000 R
(1756294378.145671) can0 100#0100000000 R
(1756294378.146348) can0 101#005A060000 R
(1756294378.154345) can0 100#0100000000 R
(1756294378.155036) can0 101#005A060000 R
(1756294378.162930) can0 100#0100000000 R
(1756294378.163488) can0 101#005A060000 R
(1756294378.171150) can0 100#0100000000 R
(1756294378.171931) can0 101#0059060000 R
(1756294378.179758) can0 100#0100000000 R
(1756294378.180621) can0 101#005A060000 R
(1756294378.188355) can0 100#0100000000 R
(1756294378.189074) can0 101#005B060000 R
(1756294378.196718) can0 100#0100000000 R
(1756294378.197584) can0 101#005A060000 R
(1756294378.205676) can0 100#0100000000 R
(1756294378.206060) can0 101#005A060000 R
(1756294378.214162) can0 100#0100000000 R
(1756294378.214623) can0 101#005A060000 R
(1756294378.222340) can0 100#0100000000 R
(1756294378.223088) can0 101#005C060000 R
(1756294378.230935) can0 100#0100000000 R
(1756294378.231523) can0 101#005B060000 R
(1756294378.232862) can0 211#29E1074309238340 R
(1756294378.239705) can0 100#0100000000 R
(1756294378.240005) can0 101#005A060000 R
(1756294378.242663) can0 210#A16B07439CB18240 R
(1756294378.248312) can0 100#0100000000 R
(1756294378.248619) can0 101#005B060000 R
(1756294378.256555) can0 100#0100000000 R
(1756294378.257141) can0 101#005A060000 R
(1756294378.262966) can0 204#0000 R
(1756294378.263550) can0 203#C01C R
(1756294378.265074) can0 100#0100000000 R
(1756294378.265941) can0 101#005B060000 R
(1756294378.273366) can0 100#0100000000 R
(1756294378.274143) can0 101#005C060000 R
(1756294378.282278) can0 100#0100000000 R
(1756294378.282724) can0 101#005C060000 R
(1756294378.290972) can0 100#0100000000 R
(1756294378.291250) can0 101#005C060000 R
(1756294378.299168) can0 100#0100000000 R
(1756294378.299756) can0 101#005C060000 R
(1756294378.307680) can0 100#0100000000 R
(1756294378.308267) can0 101#005B060000 R
(1756294378.316317) can0 100#0100000000 R
(1756294378.316821) can0 101#005C060000 R
(1756294378.320988) can0 200#00500E910E8C0E R
(1756294378.321862) can0 200#01810E00000000 R
(1756294378.323136) can0 201#182F000000000000 R
(1756294378.323732) can0 202#2C3A00005E030000 R
(1756294378.324693) can0 100#0100000000 R
(1756294378.325291) can0 101#005C060000 R
(1756294378.333413) can0 100#0100000000 R
(1756294378.333940) can0 101#005B060000 R
(1756294378.341711) can0 100#0100000000 R
(1756294378.342368) can0 101#005E060000 R
(1756294378.350226) can0 100#0100000000 R
(1756294378.350929) can0 101#005C060000 R
(1756294378.358909) can0 100#0100000000 R
(1756294378.359451) can0 101#005C060000 R
(1756294378.367199) can0 100#0100000000 R
(1756294378.367942) can0 101#005D060000 R
(1756294378.375650) can0 100#0100000000 R
(1756294378.376416) can0 101#005F060000 R
(1756294378.384333) can0 100#0100000000 R
(1756294378.384903) can0 101#0060060000 R
(1756294378.392652) can0 100#0100000000 R
(1756294378.393356) can0 101#0062060000 R
(1756294378.401291) can0 100#0100000000 R
(1756294378.402105) can0 101#0063060000 R
(1756294378.409755) can0 100#0100000000 R
(1756294378.410429) can0 101#0064060000 R
(1756294378.418228) can0 100#0100000000 R
(1756294378.419138) can0 101#0065060000 R
(1756294378.426770) can0 100#0100000000 R
(1756294378.427622) can0 101#0066060000 R
(1756294378.433155) can0 211#7C0109434B398440 R
(1756294378.435473) can0 100#0100000000 R
(1756294378.436169) can0 101#0067060000 R
(1756294378.442882) can0 210#7B440843E4828340 R
(1756294378.443831) can0 100#0100000000 R
(1756294378.444510) can0 101#0068060000 R
(1756294378.452470) can0 100#0100000000 R
(1756294378.453213) can0 101#0068060000 R
(1756294378.461080) can0 100#0100000000 R
(1756294378.461731) can0 101#0068060000 R
(1756294378.463200) can0 204#0000 R
(1756294378.463661) can0 203#061D R
(1756294378.469620) can0 100#0100000000 R
(1756294378.470298) can0 101#0068060000 R
(1756294378.477983) can0 100#0100000000 R
(1756294378.478704) can0 101#0068060000 R
(1756294378.486573) can0 100#0100000000 R
(1756294378.487256) can0 101#0067060000 R
(1756294378.495015) can0 100#0100000000 R
(1756294378.495705) can0 101#0068060000 R
(1756294378.503754) can0 100#0100000000 R
(1756294378.504261) can0 101#0068060000 R
(1756294378.511963) can0 100#0100000000 R
(1756294378.512623) can0 101#0068060000 R
(1756294378.520507) can0 100#0100000000 R
(1756294378.521304) can0 101#0068060000 R
(1756294378.522881) can0 200#00500E910E7C0E R
(1756294378.523748) can0 200#01880E00000000 R
(1756294378.524784) can0 201#342F000000000000 R
(1756294378.525729) can0 202#2C3A0000D6030000 R
(1756294378.528980) can0 100#0100000000 R
(1756294378.529781) can0 101#0067060000 R
(1756294378.537691) can0 100#0100000000 R
(1756294378.538261) can0 101#0068060000 R
(1756294378.546204) can0 100#0100000000 R
(1756294378.546819) can0 101#0068060000 R
(1756294378.554884) can0 100#0100000000 R
(1756294378.555463) can0 101#0068060000 R
(1756294378.563359) can0 100#0100000000 R
(1756294378.563824) can0 101#0068060000 R
(1756294378.571602) can0 100#0100000000 R
(1756294378.572460) can0 101#0067060000 R
(1756294378.580259) can0 100#0100000000 R
(1756294378.580900) can0 101#0068060000 R
(1756294378.588655) can0 100#0100000000 R
(1756294378.589448) can0 101#0068060000 R
(1756294378.597210) can0 100#0100000000 R
(1756294378.597909) can0 101#0068060000 R
(1756294378.605731) can0 100#0100000000 R
(1756294378.606488) can0 101#0067060000 R
(1756294378.614456) can0 100#0100000000 R
(1756294378.614984) can0 101#0067060000 R
(1756294378.622856) can0 100#0100000000 R
(1756294378.623549) can0 101#0067060000 R
(1756294378.631350) can0 100#0100000000 R
(1756294378.631937) can0 101#0068060000 R
(1756294378.633111) can0 211#C5C21943DE649440 R
(1756294378.639897) can0 100#0100000000 R
(1756294378.640533) can0 101#0067060000 R
(1756294378.642813) can0 210#10C51A43275E9540 R
(1756294378.648171) can0 100#0100000000 R
(1756294378.648920) can0 101#0068060000 R
(1756294378.656825) can0 100#0100000000 R
(1756294378.657665) can0 101#0066060000 R
(1756294378.664046) can0 204#0000 R
(1756294378.664546) can0 203#481D R
(1756294378.665342) can0 100#0100000000 R
(1756294378.666101) can0 101#0066060000 R
(1756294378.673813) can0 100#0100000000 R
(1756294378.674518) can0 101#0067060000 R
(1756294378.682378) can0 100#0100000000 R
(1756294378.683116) can0 101#0067060000 R
(1756294378.690840) can0 100#0100000000 R
(1756294378.691586) can0 101#0066060000 R
(1756294378.699335) can0 100#0100000000 R
(1756294378.700116) can0 101#0064060000 R
