(1755183506.960014) can0 101#00DC050000 T
(1755183506.960764) can0 100#0100000000 T
(1755183506.970153) can0 101#00DC050000 T
(1755183506.970750) can0 100#0100000000 T
(1755183506.980013) can0 101#00DC050000 T
(1755183506.980757) can0 100#0100000000 T
(1755183506.990004) can0 101#00DC050000 T
(1755183506.990753) can0 100#0100000000 T
(1755183507.000057) can0 101#00DC050000 T
(1755183507.000758) can0 100#0100000000 T
(1755183507.009932) can0 101#00DC050000 T
(1755183507.010687) can0 100#0100000000 T
(1755183507.020068) can0 101#00DC050000 T
(1755183507.020744) can0 100#0100000000 T
(1755183507.022376) can0 200#00980EDA0ED80E R
(1755183507.023273) can0 200#01CF0E00000000 R
(1755183507.024304) can0 201#622F000000000000 R
(1755183507.025244) can0 202#623B0000A5010000 R
(1755183507.029811) can0 101#00DC050000 T
(1755183507.030606) can0 100#0100000000 T
(1755183507.040065) can0 101#00DC050000 T
(1755183507.040807) can0 100#0100000000 T
(1755183507.049929) can0 101#00DC050000 T
(1755183507.050679) can0 100#0100000000 T
(1755183507.060066) can0 101#00DC050000 T
(1755183507.060759) can0 100#0100000000 T
(1755183507.070040) can0 101#00DC050000 T
(1755183507.070703) can0 100#0100000000 T
(1755183507.071800) can0 211#0000000000000000 R
(1755183507.080131) can0 210#0000000000000000 R
(1755183507.080937) can0 101#00DC050000 T
(1755183507.081724) can0 100#0100000000 T
(1755183507.089918) can0 101#00DC050000 T
(1755183507.090666) can0 100#0100000000 T
(1755183507.099939) can0 101#00DC050000 T
(1755183507.100661) can0 100#0100000000 T
(1755183507.101218) can0 204#0000 R
(1755183507.101733) can0 203#031D R
(1755183507.110045) can0 101#00DC050000 T
(1755183507.110733) can0 100#0100000000 T
(1755183507.119938) can0 101#00DC050000 T
(1755183507.120647) can0 100#0100000000 T
(1755183507.129950) can0 101#00DC050000 T
(1755183507.130657) can0 100#0100000000 T
(1755183507.139961) can0 101#00DC050000 T
(1755183507.140704) can0 100#0100000000 T
(1755183507.149999) can0 101#00DC050000 T
(1755183507.150801) can0 100#0100000000 T
(1755183507.159956) can0 101#00DC050000 T
(1755183507.160659) can0 100#0100000000 T
(1755183507.169835) can0 101#00DC050000 T
(1755183507.170596) can0 100#0100000000 T
(1755183507.179795) can0 101#00DC050000 T
(1755183507.180557) can0 100#0100000000 T
(1755183507.189807) can0 101#00DC050000 T
(1755183507.190602) can0 100#0100000000 T
(1755183507.199869) can0 101#00DC050000 T
(1755183507.200596) can0 100#0100000000 T
(1755183507.209844) can0 101#00DC050000 T
(1755183507.210605) can0 100#0100000000 T
(1755183507.220018) can0 101#00DC050000 T
(1755183507.220658) can0 100#0100000000 T
(1755183507.224138) can0 200#00980ED10ED80E R
(1755183507.225032) can0 200#01D80E00000000 R
(1755183507.226112) can0 201#292F000000000000 R
(1755183507.227104) can0 202#503B0000CD010000 R
(1755183507.229855) can0 101#00DC050000 T
(1755183507.230620) can0 100#0100000000 T
(1755183507.239947) can0 101#00DC050000 T
(1755183507.240734) can0 100#0100000000 T
(1755183507.249908) can0 101#00DC050000 T
(1755183507.250674) can0 100#0100000000 T
(1755183507.259880) can0 101#00DC050000 T
(1755183507.260595) can0 100#0100000000 T
(1755183507.269839) can0 101#00DC050000 T
(1755183507.270661) can0 100#0100000000 T
(1755183507.271780) can0 211#0000000000000000 R
(1755183507.279851) can0 101#00DC050000 T
(1755183507.280825) can0 210#0000000000000000 R
(1755183507.281561) can0 100#0100000000 T
(1755183507.289946) can0 101#00DC050000 T
(1755183507.290691) can0 100#0100000000 T
(1755183507.299998) can0 101#00DC050000 T
(1755183507.300747) can0 100#0100000000 T
(1755183507.301279) can0 204#0000 R
(1755183507.301809) can0 203#461D R
(1755183507.309940) can0 101#00DC050000 T
(1755183507.310718) can0 100#0100000000 T
(1755183507.319920) can0 101#00DC050000 T
(1755183507.320679) can0 100#0100000000 T
(1755183507.329998) can0 101#00DC050000 T
(1755183507.330695) can0 100#0100000000 T
(1755183507.339964) can0 101#00DC050000 T
(1755183507.340724) can0 100#0100000000 T
(1755183507.350026) can0 101#00DC050000 T
(1755183507.350725) can0 100#0100000000 T
(1755183507.359931) can0 101#00DC050000 T
(1755183507.360724) can0 100#0100000000 T
(1755183507.370003) can0 101#00DC050000 T
(1755183507.370689) can0 100#0100000000 T
(1755183507.379931) can0 101#00DC050000 T
(1755183507.380616) can0 100#0100000000 T
(1755183507.389931) can0 101#00DC050000 T
(1755183507.390754) can0 100#0100000000 T
(1755183507.399995) can0 101#00DC050000 T
(1755183507.400691) can0 100#0100000000 T
(1755183507.409883) can0 101#00DC050000 T
(1755183507.410690) can0 100#0100000000 T
(1755183507.419997) can0 101#00DC050000 T
(1755183507.420718) can0 100#0100000000 T
(1755183507.426156) can0 200#00980EDA0ED80E R
(1755183507.427081) can0 200#01CF0E00000000 R
(1755183507.428123) can0 201#6D2F000000000000 R
(1755183507.428924) can0 202#623B00007D010000 R
(1755183507.430006) can0 101#00DC050000 T
(1755183507.430694) can0 100#0100000000 T
(1755183507.439962) can0 101#00DC050000 T
(1755183507.440766) can0 100#0100000000 T
(1755183507.449937) can0 101#00DC050000 T
(1755183507.450732) can0 100#0100000000 T
(1755183507.460009) can0 101#00DC050000 T
(1755183507.460723) can0 100#0100000000 T
(1755183507.470095) can0 101#00DC050000 T
(1755183507.470911) can0 100#0100000000 T
(1755183507.471843) can0 211#0000000000000000 R
(1755183507.480009) can0 101#00DC050000 T
(1755183507.480967) can0 210#0000000000000000 R
(1755183507.481707) can0 100#0100000000 T
(1755183507.489853) can0 101#00DC050000 T
(1755183507.490737) can0 100#0100000000 T
(1755183507.499853) can0 101#00DC050000 T
(1755183507.500569) can0 100#0100000000 T
(1755183507.501121) can0 204#0000 R
(1755183507.501617) can0 203#1D1D R
(1755183507.509846) can0 101#00DC050000 T
(1755183507.510568) can0 100#0100000000 T
(1755183507.519916) can0 101#00DC050000 T
(1755183507.520587) can0 100#0100000000 T
(1755183507.529772) can0 101#00DC050000 T
(1755183507.530567) can0 100#0100000000 T
(1755183507.539844) can0 101#00DC050000 T
(1755183507.540587) can0 100#0100000000 T
(1755183507.549845) can0 101#00DC050000 T
(1755183507.550571) can0 100#0100000000 T
(1755183507.559885) can0 101#00DC050000 T
(1755183507.560583) can0 100#0100000000 T
(1755183507.569986) can0 101#00DC050000 T
(1755183507.570654) can0 100#0100000000 T
(1755183507.579837) can0 101#00DC050000 T
(1755183507.580520) can0 100#0100000000 T
(1755183507.589984) can0 101#00DC050000 T
(1755183507.590732) can0 100#0100000000 T
(1755183507.599838) can0 101#00DC050000 T
(1755183507.600591) can0 100#0100000000 T
(1755183507.609897) can0 101#00DC050000 T
(1755183507.610734) can0 100#0100000000 T
(1755183507.620119) can0 101#00DC050000 T
(1755183507.620830) can0 100#0100000000 T
(1755183507.627639) can0 200#00980EDA0ED80E R
(1755183507.628429) can0 200#01CF0E00000000 R
(1755183507.629422) can0 201#342F000000000000 R
(1755183507.630212) can0 101#00DC050000 T
(1755183507.631214) can0 202#593B0000A5010000 R
(1755183507.631916) can0 100#0100000000 T
(1755183507.639874) can0 101#00DC050000 T
(1755183507.640582) can0 100#0100000000 T
(1755183507.649852) can0 101#00DC050000 T
(1755183507.650600) can0 100#0100000000 T
(1755183507.660003) can0 101#00DC050000 T
(1755183507.660581) can0 100#0100000000 T
(1755183507.669850) can0 101#00DC050000 T
(1755183507.670591) can0 100#0100000000 T
(1755183507.671840) can0 211#0000000000000000 R
(1755183507.679844) can0 101#00DC050000 T
(1755183507.680756) can0 210#0000000000000000 R
(1755183507.681520) can0 100#0100000000 T
(1755183507.689844) can0 101#00DC050000 T
(1755183507.690560) can0 100#0100000000 T
(1755183507.699844) can0 101#00DC050000 T
(1755183507.700594) can0 100#0100000000 T
(1755183507.701085) can0 204#0000 R
(1755183507.701735) can0 203#951C R
(1755183507.709852) can0 101#00DC050000 T
(1755183507.710580) can0 100#0100000000 T
(1755183507.719844) can0 101#00DC050000 T
(1755183507.720541) can0 100#0100000000 T
(1755183507.729865) can0 101#00DC050000 T
(1755183507.730657) can0 100#0100000000 T
(1755183507.739918) can0 101#00DC050000 T
(1755183507.740723) can0 100#0100000000 T
(1755183507.749915) can0 101#00DC050000 T
(1755183507.750717) can0 100#0100000000 T
(1755183507.759998) can0 101#00DC050000 T
(1755183507.760707) can0 100#0100000000 T
(1755183507.769842) can0 101#00DC050000 T
(1755183507.770600) can0 100#0100000000 T
(1755183507.779988) can0 101#00DC050000 T
(1755183507.780678) can0 100#0100000000 T
(1755183507.789833) can0 101#00DC050000 T
(1755183507.790624) can0 100#0100000000 T
(1755183507.799863) can0 101#00DC050000 T
(1755183507.800584) can0 100#0100000000 T
(1755183507.809888) can0 101#00DC050000 T
(1755183507.810630) can0 100#0100000000 T
(1755183507.819988) can0 101#00DC050000 T
(1755183507.820680) can0 100#0100000000 T
(1755183507.829131) can0 200#00980EDA0ED80E R
(1755183507.829855) can0 101#00DC050000 T
(1755183507.830751) can0 200#01CF0E00000000 R
(1755183507.831546) can0 100#0100000000 T
(1755183507.832515) can0 201#782F000000000000 R
(1755183507.833449) can0 202#593B0000A5010000 R
(1755183507.839882) can0 101#00DC050000 T
(1755183507.840592) can0 100#0100000000 T
(1755183507.849999) can0 101#00DC050000 T
(1755183507.850745) can0 100#0100000000 T
(1755183507.859988) can0 101#00DC050000 T
(1755183507.860738) can0 100#0100000000 T
(1755183507.869839) can0 101#00DC050000 T
(1755183507.870621) can0 100#0100000000 T
(1755183507.871848) can0 211#0000000000000000 R
(1755183507.879848) can0 101#00DC050000 T
(1755183507.880871) can0 210#0000000000000000 R
(1755183507.881568) can0 100#0100000000 T
(1755183507.889839) can0 101#00DC050000 T
(1755183507.890705) can0 100#0100000000 T
(1755183507.899891) can0 101#00DC050000 T
(1755183507.900628) can0 100#0100000000 T
(1755183507.901115) can0 204#0000 R
(1755183507.901713) can0 203#BD1C R
(1755183507.909841) can0 101#00DC050000 T
(1755183507.910595) can0 100#0100000000 T
(1755183507.919887) can0 101#00DC050000 T
(1755183507.920613) can0 100#0100000000 T
(1755183507.929807) can0 101#00DC050000 T
(1755183507.930534) can0 100#0100000000 T
(1755183507.939836) can0 101#00DC050000 T
(1755183507.940687) can0 100#0100000000 T
(1755183507.949817) can0 101#00DC050000 T
(1755183507.950631) can0 100#0100000000 T
(1755183507.959931) can0 101#00DC050000 T
(1755183507.960712) can0 100#0100000000 T
(1755183507.969876) can0 101#00DC050000 T
(1755183507.970717) can0 100#0100000000 T
(1755183507.979878) can0 101#00DC050000 T
(1755183507.980542) can0 100#0100000000 T
(1755183507.989852) can0 101#00DC050000 T
(1755183507.990599) can0 100#0100000000 T
(1755183507.999875) can0 101#00DC050000 T
(1755183508.000544) can0 100#0100000000 T
(1755183508.009901) can0 101#00DC050000 T
(1755183508.010637) can0 100#0100000000 T
(1755183508.019842) can0 101#00DC050000 T
(1755183508.020636) can0 100#0100000000 T
(1755183508.029072) can0 200#00980EE30ECF0E R
(1755183508.029912) can0 200#01CF0E00000000 R
(1755183508.030720) can0 101#00DC050000 T
(1755183508.031670) can0 201#232F000000000000 R
(1755183508.032435) can0 100#0100000000 T
(1755183508.033411) can0 202#623B0000A5010000 R
(1755183508.039811) can0 101#00DC050000 T
(1755183508.040650) can0 100#0100000000 T
(1755183508.049856) can0 101#00DC050000 T
(1755183508.050702) can0 100#0100000000 T
(1755183508.059917) can0 101#00DC050000 T
(1755183508.060639) can0 100#0100000000 T
(1755183508.069832) can0 101#00DC050000 T
(1755183508.070602) can0 100#0100000000 T
(1755183508.071842) can0 211#0000000000000000 R
(1755183508.079749) can0 101#00DC050000 T
(1755183508.080812) can0 210#0000000000000000 R
(1755183508.081533) can0 100#0100000000 T
(1755183508.089902) can0 101#00DC050000 T
(1755183508.090673) can0 100#0100000000 T
(1755183508.099888) can0 101#00DC050000 T
(1755183508.100639) can0 100#0100000000 T
(1755183508.101120) can0 204#0000 R
(1755183508.101754) can0 203#031D R
(1755183508.109891) can0 101#00DC050000 T
(1755183508.110662) can0 100#0100000000 T
(1755183508.119840) can0 101#00DC050000 T
(1755183508.120592) can0 100#0100000000 T
(1755183508.129873) can0 101#00DC050000 T
(1755183508.130544) can0 100#0100000000 T
(1755183508.139897) can0 101#00DC050000 T
(1755183508.140638) can0 100#0100000000 T
(1755183508.149884) can0 101#00DC050000 T
(1755183508.150577) can0 100#0100000000 T
(1755183508.159846) can0 101#00DC050000 T
(1755183508.160572) can0 100#0100000000 T
(1755183508.169981) can0 101#00DC050000 T
(1755183508.170735) can0 100#0100000000 T
(1755183508.179981) can0 101#00DC050000 T
(1755183508.180730) can0 100#0100000000 T
(1755183508.189895) can0 101#00DC050000 T
(1755183508.190643) can0 100#0100000000 T
(1755183508.199891) can0 101#00DC050000 T
(1755183508.200649) can0 100#0100000000 T
(1755183508.209980) can0 101#00DC050000 T
(1755183508.210693) can0 100#0100000000 T
(1755183508.219981) can0 101#00DC050000 T
(1755183508.220729) can0 100#0100000000 T
(1755183508.229808) can0 101#00DC050000 T
(1755183508.230642) can0 100#0100000000 T
(1755183508.232177) can0 200#00980ED10EE10E R
(1755183508.233056) can0 200#01CF0E00000000 R
(1755183508.234035) can0 201#732F000000000000 R
(1755183508.234985) can0 202#503B0000A5010000 R
(1755183508.239997) can0 101#00DC050000 T
(1755183508.240728) can0 100#0100000000 T
(1755183508.249914) can0 101#00DC050000 T
(1755183508.250663) can0 100#0100000000 T
(1755183508.260018) can0 101#00DC050000 T
(1755183508.260729) can0 100#0100000000 T
(1755183508.269981) can0 101#00DC050000 T
(1755183508.270733) can0 100#0100000000 T
(1755183508.271767) can0 211#0000000000000000 R
(1755183508.280165) can0 210#0000000000000000 R
(1755183508.280978) can0 101#00DC050000 T
(1755183508.281685) can0 100#0100000000 T
(1755183508.289980) can0 101#00DC050000 T
(1755183508.290772) can0 100#0100000000 T
(1755183508.300040) can0 101#00DC050000 T
(1755183508.300570) can0 204#0000 R
(1755183508.301314) can0 100#0100000000 T
(1755183508.301840) can0 203#461D R
(1755183508.310040) can0 101#00DC050000 T
(1755183508.310830) can0 100#0100000000 T
(1755183508.320045) can0 101#00DC050000 T
(1755183508.320881) can0 100#0100000000 T
(1755183508.330091) can0 101#00DC050000 T
(1755183508.330835) can0 100#0100000000 T
(1755183508.340035) can0 101#00DC050000 T
(1755183508.340737) can0 100#0100000000 T
(1755183508.350061) can0 101#00DC050000 T
(1755183508.350896) can0 100#0100000000 T
(1755183508.360017) can0 101#00DC050000 T
(1755183508.360723) can0 100#0100000000 T
(1755183508.370054) can0 101#00DC050000 T
(1755183508.370772) can0 100#0100000000 T
(1755183508.380033) can0 101#00DC050000 T
(1755183508.380734) can0 100#0100000000 T
(1755183508.389903) can0 101#00DC050000 T
(1755183508.390764) can0 100#0100000000 T
(1755183508.400012) can0 101#00DC050000 T
(1755183508.400718) can0 100#0100000000 T
(1755183508.409978) can0 101#00DC050000 T
(1755183508.410683) can0 100#0100000000 T
(1755183508.419889) can0 101#00DC050000 T
(1755183508.420677) can0 100#0100000000 T
(1755183508.430064) can0 101#00DC050000 T
(1755183508.430799) can0 100#0100000000 T
(1755183508.434085) can0 200#00980EDA0ED80E R
(1755183508.434931) can0 200#01CF0E00000000 R
(1755183508.435978) can0 201#182F000000000000 R
(1755183508.436842) can0 202#593B0000A5010000 R
(1755183508.440041) can0 101#00DC050000 T
(1755183508.440734) can0 100#0100000000 T
(1755183508.450023) can0 101#00DC050000 T
(1755183508.450807) can0 100#0100000000 T
(1755183508.459986) can0 101#00DC050000 T
(1755183508.460636) can0 100#0100000000 T
(1755183508.469978) can0 101#00DC050000 T
(1755183508.470652) can0 100#0100000000 T
(1755183508.471780) can0 211#0000000000000000 R
(1755183508.479863) can0 101#00DC050000 T
(1755183508.480812) can0 210#0000000000000000 R
(1755183508.481564) can0 100#0100000000 T
(1755183508.489807) can0 101#00DC050000 T
(1755183508.490613) can0 100#0100000000 T
(1755183508.499989) can0 101#00DC050000 T
(1755183508.500676) can0 100#0100000000 T
(1755183508.501202) can0 204#0000 R
(1755183508.501792) can0 203#1D1D R
(1755183508.509841) can0 101#00DC050000 T
(1755183508.510572) can0 100#0100000000 T
(1755183508.519866) can0 101#00DC050000 T
(1755183508.520569) can0 100#0100000000 T
(1755183508.529813) can0 101#00DC050000 T
(1755183508.530532) can0 100#0100000000 T
(1755183508.539828) can0 101#00DC050000 T
(1755183508.540579) can0 100#0100000000 T
(1755183508.549887) can0 101#00DC050000 T
(1755183508.550666) can0 100#0100000000 T
(1755183508.559987) can0 101#00DC050000 T
(1755183508.560735) can0 100#0100000000 T
(1755183508.569966) can0 101#00DC050000 T
(1755183508.570713) can0 100#0100000000 T
(1755183508.579861) can0 101#00DC050000 T
(1755183508.580564) can0 100#0100000000 T
(1755183508.589800) can0 101#00DC050000 T
(1755183508.590570) can0 100#0100000000 T
(1755183508.599839) can0 101#00DC050000 T
(1755183508.600627) can0 100#0100000000 T
(1755183508.609872) can0 101#00DC050000 T
(1755183508.610662) can0 100#0100000000 T
(1755183508.619861) can0 101#00DC050000 T
(1755183508.620531) can0 100#0100000000 T
(1755183508.630029) can0 101#00DC050000 T
(1755183508.630779) can0 100#0100000000 T
(1755183508.636539) can0 200#00980EDA0ED80E R
(1755183508.637471) can0 200#01CF0E00000000 R
(1755183508.638401) can0 201#622F000000000000 R
(1755183508.639345) can0 202#593B0000A5010000 R
(1755183508.640160) can0 101#00DC050000 T
(1755183508.640973) can0 100#0100000000 T
(1755183508.649973) can0 101#00DC050000 T
(1755183508.650721) can0 100#0100000000 T
(1755183508.659859) can0 101#00DC050000 T
(1755183508.660633) can0 100#0100000000 T
(1755183508.669864) can0 101#00DC050000 T
(1755183508.670571) can0 100#0100000000 T
(1755183508.671860) can0 211#0000000000000000 R
(1755183508.679872) can0 101#00DC050000 T
(1755183508.680851) can0 210#0000000000000000 R
(1755183508.681559) can0 100#0100000000 T
(1755183508.689881) can0 101#00DC050000 T
(1755183508.690567) can0 100#0100000000 T
(1755183508.699981) can0 101#00DC050000 T
(1755183508.700747) can0 100#0100000000 T
(1755183508.701293) can0 204#0000 R
(1755183508.701792) can0 203#951C R
(1755183508.710060) can0 101#00DC050000 T
(1755183508.710796) can0 100#0100000000 T
(1755183508.719983) can0 101#00DC050000 T
(1755183508.720689) can0 100#0100000000 T
(1755183508.729918) can0 101#00DC050000 T
(1755183508.730783) can0 100#0100000000 T
(1755183508.739905) can0 101#00DC050000 T
(1755183508.740698) can0 100#0100000000 T
(1755183508.749896) can0 101#00DC050000 T
(1755183508.750718) can0 100#0100000000 T
(1755183508.759871) can0 101#00DC050000 T
(1755183508.760588) can0 100#0100000000 T
(1755183508.769860) can0 101#00DC050000 T
(1755183508.770565) can0 100#0100000000 T
(1755183508.779879) can0 101#00DC050000 T
(1755183508.780657) can0 100#0100000000 T
(1755183508.790001) can0 101#00DC050000 T
(1755183508.790781) can0 100#0100000000 T
(1755183508.799851) can0 101#00DC050000 T
(1755183508.800702) can0 100#0100000000 T
(1755183508.809882) can0 101#00DC050000 T
(1755183508.810622) can0 100#0100000000 T
(1755183508.819902) can0 101#00DC050000 T
(1755183508.820617) can0 100#0100000000 T
(1755183508.829867) can0 101#00DC050000 T
(1755183508.830600) can0 100#0100000000 T
(1755183508.838058) can0 200#00980EDA0ED80E R
(1755183508.839092) can0 200#01CF0E00000000 R
(1755183508.840059) can0 201#182F000000000000 R
(1755183508.840799) can0 101#00DC050000 T
(1755183508.841703) can0 202#593B0000A5010000 R
(1755183508.842462) can0 100#0100000000 T
(1755183508.849870) can0 101#00DC050000 T
(1755183508.850609) can0 100#0100000000 T
(1755183508.859854) can0 101#00DC050000 T
(1755183508.860559) can0 100#0100000000 T
(1755183508.869970) can0 101#00DC050000 T
(1755183508.870720) can0 100#0100000000 T
(1755183508.871835) can0 211#0000000000000000 R
(1755183508.879863) can0 101#00DC050000 T
(1755183508.880841) can0 210#0000000000000000 R
(1755183508.881632) can0 100#0100000000 T
(1755183508.889795) can0 101#00DC050000 T
(1755183508.890600) can0 100#0100000000 T
(1755183508.899981) can0 101#00DC050000 T
(1755183508.900654) can0 100#0100000000 T
(1755183508.901197) can0 204#0000 R
(1755183508.901691) can0 203#BD1C R
(1755183508.909870) can0 101#00DC050000 T
(1755183508.910606) can0 100#0100000000 T
(1755183508.919839) can0 101#00DC050000 T
(1755183508.920559) can0 100#0100000000 T
(1755183508.929872) can0 101#00DC050000 T
(1755183508.930626) can0 100#0100000000 T
(1755183508.939977) can0 101#00DC050000 T
(1755183508.940702) can0 100#0100000000 T
(1755183508.949966) can0 101#00DC050000 T
(1755183508.950737) can0 100#0100000000 T
(1755183508.960004) can0 101#00DC050000 T
(1755183508.960711) can0 100#0100000000 T
(1755183508.969969) can0 101#00DC050000 T
(1755183508.970718) can0 100#0100000000 T
(1755183508.980002) can0 101#00DC050000 T
(1755183508.980712) can0 100#0100000000 T
(1755183508.989883) can0 101#00DC050000 T
(1755183508.990675) can0 100#0100000000 T
(1755183508.999970) can0 101#00DC050000 T
(1755183509.000676) can0 100#0100000000 T
(1755183509.009869) can0 101#00DC050000 T
(1755183509.010598) can0 100#0100000000 T
(1755183509.019905) can0 101#00DC050000 T
(1755183509.020628) can0 100#0100000000 T
(1755183509.029972) can0 101#00DC050000 T
(1755183509.030690) can0 100#0100000000 T
(1755183509.039820) can0 200#00980EDA0ECF0E R
(1755183509.040614) can0 101#00DC050000 T
(1755183509.041498) can0 200#01D80E00000000 R
(1755183509.042298) can0 100#0100000000 T
(1755183509.043352) can0 201#2E2F000000000000 R
(1755183509.044250) can0 202#593B0000A5010000 R
(1755183509.049852) can0 101#00DC050000 T
(1755183509.050566) can0 100#0100000000 T
(1755183509.059908) can0 101#00DC050000 T
(1755183509.060635) can0 100#0100000000 T
(1755183509.069919) can0 101#00DC050000 T
(1755183509.070605) can0 100#0100000000 T
(1755183509.071734) can0 211#0000000000000000 R
(1755183509.079875) can0 101#00DC050000 T
(1755183509.080839) can0 210#0000000000000000 R
(1755183509.081583) can0 100#0100000000 T
(1755183509.089867) can0 101#00DC050000 T
(1755183509.090640) can0 100#0100000000 T
(1755183509.099989) can0 101#00DC050000 T
(1755183509.100658) can0 100#0100000000 T
(1755183509.101290) can0 204#0000 R
(1755183509.101784) can0 203#031D R
(1755183509.109897) can0 101#00DC050000 T
(1755183509.110679) can0 100#0100000000 T
(1755183509.119974) can0 101#00DC050000 T
(1755183509.120615) can0 100#0100000000 T
(1755183509.129861) can0 101#00DC050000 T
(1755183509.130600) can0 100#0100000000 T
(1755183509.139962) can0 101#00DC050000 T
(1755183509.140738) can0 100#0100000000 T
(1755183509.149855) can0 101#00DC050000 T
(1755183509.150651) can0 100#0100000000 T
(1755183509.159902) can0 101#00DC050000 T
(1755183509.160717) can0 100#0100000000 T
(1755183509.169886) can0 101#00DC050000 T
(1755183509.170719) can0 100#0100000000 T
(1755183509.179827) can0 101#00DC050000 T
(1755183509.180594) can0 100#0100000000 T
(1755183509.189897) can0 101#00DC050000 T
(1755183509.190680) can0 100#0100000000 T
(1755183509.199849) can0 101#00DC050000 T
(1755183509.200608) can0 100#0100000000 T
(1755183509.209865) can0 101#00DC050000 T
(1755183509.210596) can0 100#0100000000 T
(1755183509.219892) can0 101#00DC050000 T
(1755183509.220684) can0 100#0100000000 T
(1755183509.229885) can0 101#00DC050000 T
(1755183509.230658) can0 100#0100000000 T
(1755183509.239997) can0 101#00DC050000 T
(1755183509.240763) can0 100#0100000000 T
(1755183509.241559) can0 200#00980EE30ED70E R
(1755183509.242498) can0 200#01D00E00000000 R
(1755183509.243479) can0 201#842F000000000000 R
(1755183509.244408) can0 202#623B00007D010000 R
(1755183509.249782) can0 101#00DC050000 T
(1755183509.250620) can0 100#0100000000 T
(1755183509.260097) can0 101#00DC050000 T
(1755183509.260789) can0 100#0100000000 T
(1755183509.269859) can0 101#00DC050000 T
(1755183509.270613) can0 100#0100000000 T
(1755183509.271803) can0 211#0000000000000000 R
(1755183509.279850) can0 101#00DC050000 T
(1755183509.280753) can0 210#0000000000000000 R
(1755183509.281529) can0 100#0100000000 T
(1755183509.289976) can0 101#00DC050000 T
(1755183509.290663) can0 100#0100000000 T
(1755183509.299873) can0 101#00DC050000 T
(1755183509.300617) can0 100#0100000000 T
(1755183509.301133) can0 204#0000 R
(1755183509.301718) can0 203#461D R
(1755183509.309869) can0 101#00DC050000 T
(1755183509.310587) can0 100#0100000000 T
(1755183509.319885) can0 101#00DC050000 T
(1755183509.320705) can0 100#0100000000 T
(1755183509.329983) can0 101#00DC050000 T
(1755183509.330727) can0 100#0100000000 T
(1755183509.339867) can0 101#00DC050000 T
(1755183509.340704) can0 100#0100000000 T
(1755183509.349889) can0 101#00DC050000 T
(1755183509.350686) can0 100#0100000000 T
(1755183509.359801) can0 101#00DC050000 T
(1755183509.360558) can0 100#0100000000 T
(1755183509.369828) can0 101#00DC050000 T
(1755183509.370637) can0 100#0100000000 T
(1755183509.379891) can0 101#00DC050000 T
(1755183509.380633) can0 100#0100000000 T
(1755183509.389808) can0 101#00DC050000 T
(1755183509.390592) can0 100#0100000000 T
(1755183509.399848) can0 101#00DC050000 T
(1755183509.400628) can0 100#0100000000 T
(1755183509.409818) can0 101#00DC050000 T
(1755183509.410600) can0 100#0100000000 T
(1755183509.419880) can0 101#00DC050000 T
(1755183509.420690) can0 100#0100000000 T
(1755183509.429959) can0 101#00DC050000 T
(1755183509.430686) can0 100#0100000000 T
(1755183509.440027) can0 101#00DC050000 T
(1755183509.440672) can0 100#0100000000 T
(1755183509.442107) can0 200#00980EE30ED70E R
(1755183509.443041) can0 200#01D00E00000000 R
(1755183509.443961) can0 201#3A2F000000000000 R
(1755183509.444950) can0 202#623B0000A5010000 R
(1755183509.449802) can0 101#00DC050000 T
(1755183509.450561) can0 100#0100000000 T
(1755183509.459972) can0 101#00DC050000 T
(1755183509.460675) can0 100#0100000000 T
(1755183509.469843) can0 101#00DC050000 T
(1755183509.470590) can0 100#0100000000 T
(1755183509.471854) can0 211#0000000000000000 R
(1755183509.479856) can0 101#00DC050000 T
(1755183509.480787) can0 210#0000000000000000 R
(1755183509.481577) can0 100#0100000000 T
(1755183509.489956) can0 101#00DC050000 T
(1755183509.490632) can0 100#0100000000 T
(1755183509.499957) can0 101#00DC050000 T
(1755183509.500705) can0 100#0100000000 T
(1755183509.501178) can0 204#0000 R
(1755183509.501730) can0 203#1D1D R
(1755183509.509856) can0 101#00DC050000 T
(1755183509.510583) can0 100#0100000000 T
(1755183509.520034) can0 101#00DC050000 T
(1755183509.520758) can0 100#0100000000 T
(1755183509.529945) can0 101#00DC050000 T
(1755183509.530593) can0 100#0100000000 T
(1755183509.539991) can0 101#00DC050000 T
(1755183509.540701) can0 100#0100000000 T
(1755183509.550038) can0 101#00DC050000 T
(1755183509.550746) can0 100#0100000000 T
(1755183509.559888) can0 101#00DC050000 T
(1755183509.560633) can0 100#0100000000 T
(1755183509.569851) can0 101#00DC050000 T
(1755183509.570635) can0 100#0100000000 T
(1755183509.579814) can0 101#00DC050000 T
(1755183509.580548) can0 100#0100000000 T
(1755183509.589970) can0 101#00DC050000 T
(1755183509.590706) can0 100#0100000000 T
(1755183509.599859) can0 101#00DC050000 T
(1755183509.600532) can0 100#0100000000 T
(1755183509.609864) can0 101#00DC050000 T
(1755183509.610701) can0 100#0100000000 T
(1755183509.619880) can0 101#00DC050000 T
(1755183509.620621) can0 100#0100000000 T
(1755183509.629961) can0 101#00DC050000 T
(1755183509.630710) can0 100#0100000000 T
(1755183509.639837) can0 101#00DC050000 T
(1755183509.640587) can0 100#0100000000 T
(1755183509.644357) can0 200#00980EDA0ED80E R
(1755183509.645202) can0 200#01CF0E00000000 R
(1755183509.646223) can0 201#782F000000000000 R
(1755183509.647157) can0 202#593B00007D010000 R
(1755183509.649856) can0 101#00DC050000 T
(1755183509.650585) can0 100#0100000000 T
(1755183509.659856) can0 101#00DC050000 T
(1755183509.660585) can0 100#0100000000 T
(1755183509.669899) can0 101#00DC050000 T
(1755183509.670611) can0 100#0100000000 T
(1755183509.671854) can0 211#0000000000000000 R
(1755183509.679863) can0 101#00DC050000 T
(1755183509.680851) can0 210#0000000000000000 R
(1755183509.681550) can0 100#0100000000 T
(1755183509.689878) can0 101#00DC050000 T
(1755183509.690553) can0 100#0100000000 T
(1755183509.700069) can0 101#00DC050000 T
(1755183509.700757) can0 100#0100000000 T
(1755183509.701289) can0 204#0000 R
(1755183509.701804) can0 203#951C R
(1755183509.709855) can0 101#00DC050000 T
(1755183509.710592) can0 100#0100000000 T
(1755183509.719873) can0 101#00DC050000 T
(1755183509.720620) can0 100#0100000000 T
(1755183509.729821) can0 101#00DC050000 T
(1755183509.730586) can0 100#0100000000 T
(1755183509.739876) can0 101#00DC050000 T
(1755183509.740638) can0 100#0100000000 T
(1755183509.749801) can0 101#00DC050000 T
(1755183509.750596) can0 100#0100000000 T
(1755183509.759887) can0 101#00DC050000 T
(1755183509.760714) can0 100#0100000000 T
(1755183509.769943) can0 101#00DC050000 T
(1755183509.770670) can0 100#0100000000 T
(1755183509.780077) can0 101#00DC050000 T
(1755183509.780667) can0 100#0100000000 T
(1755183509.790055) can0 101#00DC050000 T
(1755183509.790808) can0 100#0100000000 T
(1755183509.799961) can0 101#00DC050000 T
(1755183509.800711) can0 100#0100000000 T
(1755183509.809881) can0 101#00DC050000 T
(1755183509.810642) can0 100#0100000000 T
(1755183509.820080) can0 101#00DC050000 T
(1755183509.820780) can0 100#0100000000 T
(1755183509.829957) can0 101#00DC050000 T
(1755183509.830635) can0 100#0100000000 T
(1755183509.840080) can0 101#00DC050000 T
(1755183509.840772) can0 100#0100000000 T
(1755183509.846700) can0 200#00980EE30ECF0E R
(1755183509.847591) can0 200#01D80E00000000 R
(1755183509.848528) can0 201#3A2F000000000000 R
(1755183509.849513) can0 202#623B0000A5010000 R
(1755183509.850298) can0 101#00DC050000 T
(1755183509.851041) can0 100#0100000000 T
(1755183509.859849) can0 101#00DC050000 T
(1755183509.860614) can0 100#0100000000 T
(1755183509.869881) can0 101#00DC050000 T
(1755183509.870643) can0 100#0100000000 T
(1755183509.871833) can0 211#0000000000000000 R
(1755183509.879787) can0 101#00DC050000 T
(1755183509.880845) can0 210#0000000000000000 R
(1755183509.881596) can0 100#0100000000 T
(1755183509.889949) can0 101#00DC050000 T
(1755183509.890679) can0 100#0100000000 T
(1755183509.899855) can0 101#00DC050000 T
(1755183509.900640) can0 100#0100000000 T
(1755183509.901128) can0 204#0000 R
(1755183509.901711) can0 203#BD1C R
(1755183509.909879) can0 101#00DC050000 T
(1755183509.910738) can0 100#0100000000 T
(1755183509.919860) can0 101#00DC050000 T
(1755183509.920581) can0 100#0100000000 T
(1755183509.929839) can0 101#00DC050000 T
(1755183509.930548) can0 100#0100000000 T
(1755183509.939948) can0 101#00DC050000 T
(1755183509.940708) can0 100#0100000000 T
(1755183509.949984) can0 101#00DC050000 T
(1755183509.950708) can0 100#0100000000 T
(1755183509.959947) can0 101#00DC050000 T
(1755183509.960626) can0 100#0100000000 T
(1755183509.970007) can0 101#00DC050000 T
(1755183509.970774) can0 100#0100000000 T
(1755183509.979896) can0 101#00DC050000 T
(1755183509.980712) can0 100#0100000000 T
(1755183509.989938) can0 101#00DC050000 T
(1755183509.990692) can0 100#0100000000 T
(1755183509.999849) can0 101#00DC050000 T
(1755183510.000579) can0 100#0100000000 T
(1755183510.009955) can0 101#00DC050000 T
(1755183510.010703) can0 100#0100000000 T
(1755183510.019868) can0 101#00DC050000 T
(1755183510.020599) can0 100#0100000000 T
(1755183510.029850) can0 101#00DC050000 T
(1755183510.030575) can0 100#0100000000 T
(1755183510.039825) can0 101#00DC050000 T
(1755183510.040726) can0 100#0100000000 T
(1755183510.048155) can0 200#00980EDA0ED80E R
(1755183510.049104) can0 200#01CF0E00000000 R
(1755183510.049960) can0 201#7E2F000000000000 R
(1755183510.050836) can0 101#00DC050000 T
(1755183510.051750) can0 202#593B0000A5010000 R
(1755183510.052457) can0 100#0100000000 T
(1755183510.059771) can0 101#00DC050000 T
(1755183510.060569) can0 100#0100000000 T
(1755183510.069794) can0 101#00DC050000 T
(1755183510.070548) can0 100#0100000000 T
(1755183510.071772) can0 211#0000000000000000 R
(1755183510.079958) can0 101#00DC050000 T
(1755183510.080792) can0 210#0000000000000000 R
(1755183510.081636) can0 100#0100000000 T
(1755183510.089817) can0 101#00DC050000 T
(1755183510.090625) can0 100#0100000000 T
(1755183510.100060) can0 101#00DC050000 T
(1755183510.100765) can0 100#0100000000 T
(1755183510.101271) can0 204#0000 R
(1755183510.101855) can0 203#031D R
(1755183510.109867) can0 101#00DC050000 T
(1755183510.110571) can0 100#0100000000 T
(1755183510.120022) can0 101#00DC050000 T
(1755183510.120783) can0 100#0100000000 T
(1755183510.129848) can0 101#00DC050000 T
(1755183510.130544) can0 100#0100000000 T
(1755183510.139943) can0 101#00DC050000 T
(1755183510.140695) can0 100#0100000000 T
(1755183510.149850) can0 101#00DC050000 T
(1755183510.150578) can0 100#0100000000 T
(1755183510.159872) can0 101#00DC050000 T
(1755183510.160723) can0 100#0100000000 T
(1755183510.169863) can0 101#00DC050000 T
(1755183510.170613) can0 100#0100000000 T
(1755183510.180069) can0 101#00DC050000 T
(1755183510.180776) can0 100#0100000000 T
(1755183510.189948) can0 101#00DC050000 T
(1755183510.190699) can0 100#0100000000 T
(1755183510.199863) can0 101#00DC050000 T
(1755183510.200596) can0 100#0100000000 T
(1755183510.210046) can0 101#00DC050000 T
(1755183510.210851) can0 100#0100000000 T
(1755183510.220054) can0 101#00DC050000 T
(1755183510.220808) can0 100#0100000000 T
(1755183510.229981) can0 101#00DC050000 T
(1755183510.230691) can0 100#0100000000 T
(1755183510.240002) can0 101#00DC050000 T
(1755183510.240699) can0 100#0100000000 T
(1755183510.249410) can0 200#00980EE30ED70E R
(1755183510.250177) can0 101#00DC050000 T
(1755183510.251061) can0 200#01D00E00000000 R
(1755183510.251863) can0 100#0100000000 T
(1755183510.252799) can0 201#232F000000000000 R
(1755183510.253760) can0 202#623B0000A5010000 R
(1755183510.259891) can0 101#00DC050000 T
(1755183510.260711) can0 100#0100000000 T
(1755183510.270057) can0 101#00DC050000 T
(1755183510.270715) can0 100#0100000000 T
(1755183510.271831) can0 211#0000000000000000 R
(1755183510.279850) can0 101#00DC050000 T
(1755183510.280798) can0 210#0000000000000000 R
(1755183510.281569) can0 100#0100000000 T
(1755183510.289820) can0 101#00DC050000 T
(1755183510.290573) can0 100#0100000000 T
(1755183510.299953) can0 101#00DC050000 T
(1755183510.300701) can0 100#0100000000 T
(1755183510.301198) can0 204#0000 R
(1755183510.301731) can0 203#461D R
(1755183510.309950) can0 101#00DC050000 T
(1755183510.310699) can0 100#0100000000 T
(1755183510.320026) can0 101#00DC050000 T
(1755183510.320767) can0 100#0100000000 T
(1755183510.329804) can0 101#00DC050000 T
(1755183510.330591) can0 100#0100000000 T
(1755183510.339886) can0 101#00DC050000 T
(1755183510.340562) can0 100#0100000000 T
(1755183510.349869) can0 101#00DC050000 T
(1755183510.350725) can0 100#0100000000 T
(1755183510.359868) can0 101#00DC050000 T
(1755183510.360643) can0 100#0100000000 T
(1755183510.369971) can0 101#00DC050000 T
(1755183510.370693) can0 100#0100000000 T
(1755183510.379842) can0 101#00DC050000 T
(1755183510.380538) can0 100#0100000000 T
(1755183510.390042) can0 101#00DC050000 T
(1755183510.390708) can0 100#0100000000 T
(1755183510.399842) can0 101#00DC050000 T
(1755183510.400586) can0 100#0100000000 T
(1755183510.409869) can0 101#00DC050000 T
(1755183510.410673) can0 100#0100000000 T
(1755183510.419845) can0 101#00DC050000 T
(1755183510.420571) can0 100#0100000000 T
(1755183510.429945) can0 101#00DC050000 T
(1755183510.430595) can0 100#0100000000 T
(1755183510.439962) can0 101#00DC050000 T
(1755183510.440720) can0 100#0100000000 T
(1755183510.449948) can0 101#00DC050000 T
(1755183510.450583) can0 100#0100000000 T
(1755183510.451503) can0 200#00980EDA0ED80E R
(1755183510.452341) can0 200#01CF0E00000000 R
(1755183510.453339) can0 201#622F000000000000 R
(1755183510.454289) can0 202#593B00007D010000 R
(1755183510.459947) can0 101#00DC050000 T
(1755183510.460699) can0 100#0100000000 T
(1755183510.470071) can0 101#00DC050000 T
(1755183510.470849) can0 100#0100000000 T
(1755183510.471948) can0 211#0000000000000000 R
(1755183510.480243) can0 210#0000000000000000 R
(1755183510.480945) can0 101#00DC050000 T
(1755183510.481717) can0 100#0100000000 T
(1755183510.489822) can0 101#00DC050000 T
(1755183510.490708) can0 100#0100000000 T
(1755183510.499948) can0 101#00DC050000 T
(1755183510.500726) can0 100#0100000000 T
(1755183510.501175) can0 204#0000 R
(1755183510.501761) can0 203#D41C R
(1755183510.509935) can0 101#00DC050000 T
(1755183510.510687) can0 100#0100000000 T
(1755183510.519867) can0 101#00DC050000 T
(1755183510.520570) can0 100#0100000000 T
(1755183510.529844) can0 101#00DC050000 T
(1755183510.530575) can0 100#0100000000 T
(1755183510.539748) can0 101#00DC050000 T
(1755183510.540569) can0 100#0100000000 T
(1755183510.549839) can0 101#00DC050000 T
(1755183510.550620) can0 100#0100000000 T
(1755183510.559939) can0 101#00DC050000 T
(1755183510.560684) can0 100#0100000000 T
(1755183510.569938) can0 101#00DC050000 T
(1755183510.570640) can0 100#0100000000 T
(1755183510.579872) can0 101#00DC050000 T
(1755183510.580587) can0 100#0100000000 T
(1755183510.589804) can0 101#00DC050000 T
(1755183510.590655) can0 100#0100000000 T
(1755183510.599942) can0 101#00DC050000 T
(1755183510.600635) can0 100#0100000000 T
(1755183510.609864) can0 101#00DC050000 T
(1755183510.610572) can0 100#0100000000 T
(1755183510.619944) can0 101#00DC050000 T
(1755183510.620702) can0 100#0100000000 T
(1755183510.629863) can0 101#00DC050000 T
(1755183510.630538) can0 100#0100000000 T
(1755183510.639939) can0 101#00DC050000 T
(1755183510.640698) can0 100#0100000000 T
(1755183510.649975) can0 101#00DC050000 T
(1755183510.650747) can0 100#0100000000 T
(1755183510.653213) can0 200#00980EDA0ED80E R
(1755183510.654097) can0 200#01CF0E00000000 R
(1755183510.655107) can0 201#782F000000000000 R
(1755183510.656003) can0 202#593B0000A5010000 R
(1755183510.659942) can0 101#00DC050000 T
(1755183510.660667) can0 100#0100000000 T
(1755183510.669954) can0 101#00DC050000 T
(1755183510.670681) can0 100#0100000000 T
(1755183510.671825) can0 211#0000000000000000 R
(1755183510.679948) can0 101#00DC050000 T
(1755183510.680757) can0 210#0000000000000000 R
(1755183510.681573) can0 100#0100000000 T
(1755183510.689849) can0 101#00DC050000 T
(1755183510.690554) can0 100#0100000000 T
(1755183510.699779) can0 101#00DC050000 T
(1755183510.700565) can0 100#0100000000 T
(1755183510.701104) can0 204#0000 R
(1755183510.701690) can0 203#951C R
(1755183510.710018) can0 101#00DC050000 T
(1755183510.710733) can0 100#0100000000 T
(1755183510.719944) can0 101#00DC050000 T
(1755183510.720655) can0 100#0100000000 T
(1755183510.729931) can0 101#00DC050000 T
(1755183510.730557) can0 100#0100000000 T
(1755183510.739871) can0 101#00DC050000 T
(1755183510.740575) can0 100#0100000000 T
(1755183510.749938) can0 101#00DC050000 T
(1755183510.750725) can0 100#0100000000 T
(1755183510.759991) can0 101#00DC050000 T
(1755183510.760786) can0 100#0100000000 T
(1755183510.770012) can0 101#00DC050000 T
(1755183510.770852) can0 100#0100000000 T
(1755183510.779991) can0 101#00DC050000 T
(1755183510.780689) can0 100#0100000000 T
(1755183510.789966) can0 101#00DC050000 T
(1755183510.790756) can0 100#0100000000 T
(1755183510.799936) can0 101#00DC050000 T
(1755183510.800729) can0 100#0100000000 T
(1755183510.809929) can0 101#00DC050000 T
(1755183510.810683) can0 100#0100000000 T
(1755183510.819844) can0 101#00DC050000 T
(1755183510.820571) can0 100#0100000000 T
(1755183510.829787) can0 101#00DC050000 T
(1755183510.830569) can0 100#0100000000 T
(1755183510.839971) can0 101#00DC050000 T
(1755183510.840760) can0 100#0100000000 T
(1755183510.849930) can0 101#00DC050000 T
(1755183510.850601) can0 100#0100000000 T
(1755183510.856538) can0 200#00980EDA0ED80E R
(1755183510.857417) can0 200#01CF0E00000000 R
(1755183510.858403) can0 201#782F000000000000 R
(1755183510.859305) can0 202#593B0000A5010000 R
(1755183510.860133) can0 101#00DC050000 T
(1755183510.860923) can0 100#0100000000 T
(1755183510.869936) can0 101#00DC050000 T
(1755183510.870558) can0 100#0100000000 T
(1755183510.871769) can0 211#0000000000000000 R
(1755183510.879870) can0 101#00DC050000 T
(1755183510.880794) can0 210#0000000000000000 R
(1755183510.881565) can0 100#0100000000 T
(1755183510.890048) can0 101#00DC050000 T
(1755183510.890758) can0 100#0100000000 T
(1755183510.899871) can0 101#00DC050000 T
(1755183510.900607) can0 100#0100000000 T
(1755183510.901151) can0 204#0000 R
(1755183510.901694) can0 203#BD1C R
(1755183510.909858) can0 101#00DC050000 T
(1755183510.910572) can0 100#0100000000 T
(1755183510.919942) can0 101#00DC050000 T
(1755183510.920662) can0 100#0100000000 T
(1755183510.929793) can0 101#00DC050000 T
(1755183510.930571) can0 100#0100000000 T
(1755183510.939831) can0 101#00DC050000 T
(1755183510.940648) can0 100#0100000000 T
(1755183510.949853) can0 101#00DC050000 T
(1755183510.950673) can0 100#0100000000 T
(1755183510.959937) can0 101#00DC050000 T
(1755183510.960645) can0 100#0100000000 T
(1755183510.969852) can0 101#00DC050000 T
(1755183510.970630) can0 100#0100000000 T
(1755183510.979854) can0 101#00DC050000 T
(1755183510.980528) can0 100#0100000000 T
(1755183510.989954) can0 101#00DC050000 T
(1755183510.990723) can0 100#0100000000 T
(1755183510.999942) can0 101#00DC050000 T
(1755183511.000659) can0 100#0100000000 T
(1755183511.009931) can0 101#00DC050000 T
(1755183511.010686) can0 100#0100000000 T
(1755183511.019873) can0 101#00DC050000 T
(1755183511.020559) can0 100#0100000000 T
(1755183511.029854) can0 101#00DC050000 T
(1755183511.030526) can0 100#0100000000 T
(1755183511.039978) can0 101#00DC050000 T
(1755183511.040694) can0 100#0100000000 T
(1755183511.049858) can0 101#00DC050000 T
(1755183511.050623) can0 100#0100000000 T
(1755183511.058110) can0 200#00980EE30ECF0E R
(1755183511.059129) can0 200#01CF0E00000000 R
(1755183511.060052) can0 201#1D2F000000000000 R
(1755183511.060809) can0 101#00DC050000 T
(1755183511.061729) can0 202#623B0000A5010000 R
(1755183511.062443) can0 100#0100000000 T
(1755183511.069932) can0 101#00DC050000 T
(1755183511.070655) can0 100#0100000000 T
(1755183511.071773) can0 211#0000000000000000 R
(1755183511.079874) can0 101#00DC050000 T
(1755183511.080777) can0 210#0000000000000000 R
(1755183511.081561) can0 100#0100000000 T
(1755183511.090063) can0 101#00DC050000 T
(1755183511.090745) can0 100#0100000000 T
(1755183511.099856) can0 101#00DC050000 T
(1755183511.100623) can0 100#0100000000 T
(1755183511.101105) can0 204#0000 R
(1755183511.101715) can0 203#031D R
(1755183511.109932) can0 101#00DC050000 T
(1755183511.110681) can0 100#0100000000 T
(1755183511.120035) can0 101#00DC050000 T
(1755183511.120751) can0 100#0100000000 T
(1755183511.129793) can0 101#00DC050000 T
(1755183511.130566) can0 100#0100000000 T
(1755183511.139848) can0 101#00DC050000 T
(1755183511.140684) can0 100#0100000000 T
(1755183511.149858) can0 101#00DC050000 T
(1755183511.150620) can0 100#0100000000 T
(1755183511.159867) can0 101#00DC050000 T
(1755183511.160561) can0 100#0100000000 T
(1755183511.170010) can0 101#00DC050000 T
(1755183511.170748) can0 100#0100000000 T
(1755183511.180039) can0 101#00DC050000 T
(1755183511.180669) can0 100#0100000000 T
(1755183511.189951) can0 101#00DC050000 T
(1755183511.190721) can0 100#0100000000 T
(1755183511.199932) can0 101#00DC050000 T
(1755183511.200668) can0 100#0100000000 T
(1755183511.209912) can0 101#00DC050000 T
(1755183511.210603) can0 100#0100000000 T
(1755183511.219855) can0 101#00DC050000 T
(1755183511.220716) can0 100#0100000000 T
(1755183511.229960) can0 101#00DC050000 T
(1755183511.230711) can0 100#0100000000 T
(1755183511.239847) can0 101#00DC050000 T
(1755183511.240676) can0 100#0100000000 T
(1755183511.249854) can0 101#00DC050000 T
(1755183511.250605) can0 100#0100000000 T
(1755183511.259976) can0 101#00DC050000 T
(1755183511.260723) can0 100#0100000000 T
(1755183511.261554) can0 200#00980EEC0ECE0E R
(1755183511.262478) can0 200#01D00E00000000 R
(1755183511.263450) can0 201#232F000000000000 R
(1755183511.264393) can0 202#623B0000A5010000 R
(1755183511.269960) can0 101#00DC050000 T
(1755183511.270751) can0 100#0100000000 T
(1755183511.271798) can0 211#0000000000000000 R
(1755183511.279938) can0 101#00DC050000 T
(1755183511.280959) can0 210#0000000000000000 R
(1755183511.281664) can0 100#0100000000 T
(1755183511.289922) can0 101#00DC050000 T
(1755183511.290735) can0 100#0100000000 T
(1755183511.299973) can0 101#00DC050000 T
(1755183511.300676) can0 100#0100000000 T
(1755183511.301248) can0 204#0000 R
(1755183511.301757) can0 203#461D R
(1755183511.309923) can0 101#00DC050000 T
(1755183511.310666) can0 100#0100000000 T
(1755183511.319956) can0 101#00DC050000 T
(1755183511.320706) can0 100#0100000000 T
(1755183511.329955) can0 101#00DC050000 T
(1755183511.330667) can0 100#0100000000 T
(1755183511.339972) can0 101#00DC050000 T
(1755183511.340724) can0 100#0100000000 T
(1755183511.349847) can0 101#00DC050000 T
(1755183511.350641) can0 100#0100000000 T
(1755183511.359970) can0 101#00DC050000 T
(1755183511.360682) can0 100#0100000000 T
(1755183511.369916) can0 101#00DC050000 T
(1755183511.370681) can0 100#0100000000 T
(1755183511.379955) can0 101#00DC050000 T
(1755183511.380634) can0 100#0100000000 T
(1755183511.389968) can0 101#00DC050000 T
(1755183511.390663) can0 100#0100000000 T
(1755183511.399923) can0 101#00DC050000 T
(1755183511.400670) can0 100#0100000000 T
(1755183511.409965) can0 101#00DC050000 T
(1755183511.410664) can0 100#0100000000 T
(1755183511.419970) can0 101#00DC050000 T
(1755183511.420673) can0 100#0100000000 T
(1755183511.429999) can0 101#00DC050000 T
(1755183511.430753) can0 100#0100000000 T
(1755183511.439926) can0 101#00DC050000 T
(1755183511.440672) can0 100#0100000000 T
(1755183511.450037) can0 101#00DC050000 T
(1755183511.450833) can0 100#0100000000 T
(1755183511.459974) can0 101#00DC050000 T
(1755183511.460739) can0 100#0100000000 T
(1755183511.464348) can0 200#00980EE30ED70E R
(1755183511.465251) can0 200#01D00E00000000 R
(1755183511.466255) can0 201#842F000000000000 R
(1755183511.467223) can0 202#623B00007D010000 R
(1755183511.469848) can0 101#00DC050000 T
(1755183511.470641) can0 100#0100000000 T
(1755183511.471737) can0 211#0000000000000000 R
(1755183511.480165) can0 210#0000000000000000 R
(1755183511.480957) can0 101#00DC050000 T
(1755183511.481664) can0 100#0100000000 T
(1755183511.490014) can0 101#00DC050000 T
(1755183511.490746) can0 100#0100000000 T
(1755183511.499968) can0 101#00DC050000 T
(1755183511.500689) can0 100#0100000000 T
(1755183511.501249) can0 204#0000 R
(1755183511.501769) can0 203#D41C R
(1755183511.509952) can0 101#00DC050000 T
(1755183511.510659) can0 100#0100000000 T
(1755183511.519967) can0 101#00DC050000 T
(1755183511.520667) can0 100#0100000000 T
(1755183511.529958) can0 101#00DC050000 T
(1755183511.530711) can0 100#0100000000 T
(1755183511.539968) can0 101#00DC050000 T
(1755183511.540671) can0 100#0100000000 T
(1755183511.549968) can0 101#00DC050000 T
(1755183511.550659) can0 100#0100000000 T
(1755183511.559979) can0 101#00DC050000 T
(1755183511.560671) can0 100#0100000000 T
(1755183511.569917) can0 101#00DC050000 T
(1755183511.570764) can0 100#0100000000 T
(1755183511.579972) can0 101#00DC050000 T
(1755183511.580690) can0 100#0100000000 T
(1755183511.590047) can0 101#00DC050000 T
(1755183511.590832) can0 100#0100000000 T
(1755183511.600046) can0 101#00DC050000 T
(1755183511.600832) can0 100#0100000000 T
(1755183511.610770) can0 101#00DC050000 T
(1755183511.611523) can0 100#0100000000 T
(1755183511.620042) can0 101#00DC050000 T
(1755183511.620841) can0 100#0100000000 T
(1755183511.630036) can0 101#00DC050000 T
(1755183511.630832) can0 100#0100000000 T
(1755183511.640039) can0 101#00DC050000 T
(1755183511.640850) can0 100#0100000000 T
(1755183511.650037) can0 101#00DC050000 T
(1755183511.650851) can0 100#0100000000 T
(1755183511.660852) can0 101#00DC050000 T
(1755183511.661556) can0 100#0100000000 T
(1755183511.666847) can0 200#00980EDA0ED80E R
(1755183511.667724) can0 200#01CF0E00000000 R
(1755183511.668669) can0 201#622F000000000000 R
(1755183511.669657) can0 202#593B0000A5010000 R
(1755183511.670429) can0 101#00DC050000 T
(1755183511.671157) can0 100#0100000000 T
(1755183511.672166) can0 211#0000000000000000 R
(1755183511.680126) can0 210#0000000000000000 R
(1755183511.680918) can0 101#00DC050000 T
(1755183511.681713) can0 100#0100000000 T
(1755183511.690079) can0 101#00DC050000 T
(1755183511.690830) can0 100#0100000000 T
(1755183511.700060) can0 101#00DC050000 T
(1755183511.700593) can0 204#0000 R
(1755183511.701341) can0 100#0100000000 T
(1755183511.701915) can0 203#951C R
(1755183511.710035) can0 101#00DC050000 T
(1755183511.710848) can0 100#0100000000 T
(1755183511.720848) can0 101#00DC050000 T
(1755183511.721554) can0 100#0100000000 T
(1755183511.730034) can0 101#00DC050000 T
(1755183511.730847) can0 100#0100000000 T
(1755183511.740039) can0 101#00DC050000 T
(1755183511.740839) can0 100#0100000000 T
(1755183511.750044) can0 101#00DC050000 T
(1755183511.750838) can0 100#0100000000 T
(1755183511.760123) can0 101#00DC050000 T
(1755183511.760911) can0 100#0100000000 T
(1755183511.770076) can0 101#00DC050000 T
(1755183511.770912) can0 100#0100000000 T
(1755183511.779977) can0 101#00DC050000 T
(1755183511.780758) can0 100#0100000000 T
(1755183511.789951) can0 101#00DC050000 T
(1755183511.790747) can0 100#0100000000 T
(1755183511.800056) can0 101#00DC050000 T
(1755183511.800911) can0 100#0100000000 T
(1755183511.810031) can0 101#00DC050000 T
(1755183511.810829) can0 100#0100000000 T
(1755183511.820091) can0 101#00DC050000 T
(1755183511.820910) can0 100#0100000000 T
(1755183511.829954) can0 101#00DC050000 T
(1755183511.830691) can0 100#0100000000 T
(1755183511.840031) can0 101#00DC050000 T
(1755183511.840681) can0 100#0100000000 T
(1755183511.850024) can0 101#00DC050000 T
(1755183511.850739) can0 100#0100000000 T
(1755183511.860041) can0 101#00DC050000 T
(1755183511.860656) can0 100#0100000000 T
(1755183511.868438) can0 200#00980ED10ED00E R
(1755183511.869341) can0 200#01D70E00000000 R
(1755183511.870137) can0 101#00DC050000 T
(1755183511.871084) can0 201#292F000000000000 R
(1755183511.871909) can0 100#0100000000 T
(1755183511.872836) can0 202#503B0000A5010000 R
(1755183511.873833) can0 211#0000000000000000 R
(1755183511.879841) can0 101#00DC050000 T
(1755183511.880841) can0 210#0000000000000000 R
(1755183511.881549) can0 100#0100000000 T
(1755183511.889937) can0 101#00DC050000 T
(1755183511.890641) can0 100#0100000000 T
(1755183511.899832) can0 101#00DC050000 T
(1755183511.900582) can0 100#0100000000 T
(1755183511.901171) can0 204#0000 R
(1755183511.901703) can0 203#BD1C R
(1755183511.909840) can0 101#00DC050000 T
(1755183511.910583) can0 100#0100000000 T
(1755183511.919961) can0 101#00DC050000 T
(1755183511.920674) can0 100#0100000000 T
(1755183511.929847) can0 101#00DC050000 T
(1755183511.930582) can0 100#0100000000 T
(1755183511.939841) can0 101#00DC050000 T
(1755183511.940651) can0 100#0100000000 T
(1755183511.949842) can0 101#00DC050000 T
(1755183511.950581) can0 100#0100000000 T
(1755183511.959848) can0 101#00DC050000 T
(1755183511.960560) can0 100#0100000000 T
(1755183511.969761) can0 101#00DC050000 T
(1755183511.970559) can0 100#0100000000 T
(1755183511.979981) can0 101#00DC050000 T
(1755183511.980663) can0 100#0100000000 T
(1755183511.989904) can0 101#00DC050000 T
(1755183511.990654) can0 100#0100000000 T
(1755183511.999959) can0 101#00DC050000 T
(1755183512.000616) can0 100#0100000000 T
(1755183512.009960) can0 101#00DC050000 T
(1755183512.010652) can0 100#0100000000 T
(1755183512.019988) can0 101#00DC050000 T
(1755183512.020831) can0 100#0100000000 T
(1755183512.029934) can0 101#00DC050000 T
(1755183512.030652) can0 100#0100000000 T
(1755183512.039956) can0 101#00DC050000 T
(1755183512.040672) can0 100#0100000000 T
(1755183512.049944) can0 101#00DC050000 T
(1755183512.050636) can0 100#0100000000 T
(1755183512.059952) can0 101#00DC050000 T
(1755183512.060624) can0 100#0100000000 T
(1755183512.069829) can0 101#00DC050000 T
(1755183512.070579) can0 100#0100000000 T
(1755183512.071501) can0 200#00980EE30ED70E R
(1755183512.072384) can0 200#01D00E00000000 R
(1755183512.073366) can0 201#3A2F000000000000 R
(1755183512.074333) can0 202#623B0000A5010000 R
(1755183512.075320) can0 211#0000000000000000 R
(1755183512.079957) can0 101#00DC050000 T
(1755183512.080844) can0 210#0000000000000000 R
(1755183512.081583) can0 100#0100000000 T
(1755183512.089833) can0 101#00DC050000 T
(1755183512.090566) can0 100#0100000000 T
(1755183512.099854) can0 101#00DC050000 T
(1755183512.100548) can0 100#0100000000 T
(1755183512.101104) can0 204#0000 R
(1755183512.101634) can0 203#031D R
(1755183512.109901) can0 101#00DC050000 T
(1755183512.110652) can0 100#0100000000 T
(1755183512.119840) can0 101#00DC050000 T
(1755183512.120547) can0 100#0100000000 T
(1755183512.129847) can0 101#00DC050000 T
(1755183512.130543) can0 100#0100000000 T
(1755183512.139827) can0 101#00DC050000 T
(1755183512.140578) can0 100#0100000000 T
(1755183512.149827) can0 101#00DC050000 T
(1755183512.150577) can0 100#0100000000 T
(1755183512.159957) can0 101#00DC050000 T
(1755183512.160645) can0 100#0100000000 T
(1755183512.169828) can0 101#00DC050000 T
(1755183512.170607) can0 100#0100000000 T
(1755183512.179954) can0 101#00DC050000 T
(1755183512.180667) can0 100#0100000000 T
(1755183512.189939) can0 101#00DC050000 T
(1755183512.190655) can0 100#0100000000 T
(1755183512.199846) can0 101#00DC050000 T
(1755183512.200546) can0 100#0100000000 T
(1755183512.209836) can0 101#00DC050000 T
(1755183512.210580) can0 100#0100000000 T
(1755183512.219835) can0 101#00DC050000 T
(1755183512.220546) can0 100#0100000000 T
(1755183512.229826) can0 101#00DC050000 T
(1755183512.230606) can0 100#0100000000 T
(1755183512.239825) can0 101#00DC050000 T
(1755183512.240579) can0 100#0100000000 T
(1755183512.249912) can0 101#00DC050000 T
(1755183512.250653) can0 100#0100000000 T
(1755183512.259954) can0 101#00DC050000 T
(1755183512.260658) can0 100#0100000000 T
(1755183512.269910) can0 101#00DC050000 T
(1755183512.270700) can0 100#0100000000 T
(1755183512.271752) can0 211#0000000000000000 R
(1755183512.273109) can0 200#00980EDA0ED80E R
(1755183512.274010) can0 200#01CF0E00000000 R
(1755183512.274980) can0 201#622F000000000000 R
(1755183512.275957) can0 202#593B0000A5010000 R
(1755183512.279951) can0 101#00DC050000 T
(1755183512.280900) can0 210#0000000000000000 R
(1755183512.281605) can0 100#0100000000 T
(1755183512.289834) can0 101#00DC050000 T
(1755183512.290627) can0 100#0100000000 T
(1755183512.299823) can0 101#00DC050000 T
(1755183512.300627) can0 100#0100000000 T
(1755183512.301319) can0 204#0000 R
(1755183512.301844) can0 203#461D R
(1755183512.309848) can0 101#00DC050000 T
(1755183512.310540) can0 100#0100000000 T
(1755183512.319948) can0 101#00DC050000 T
(1755183512.320664) can0 100#0100000000 T
(1755183512.329845) can0 101#00DC050000 T
(1755183512.330540) can0 100#0100000000 T
(1755183512.339850) can0 101#00DC050000 T
(1755183512.340597) can0 100#0100000000 T
(1755183512.349835) can0 101#00DC050000 T
(1755183512.350573) can0 100#0100000000 T
(1755183512.359935) can0 101#00DC050000 T
(1755183512.360699) can0 100#0100000000 T
(1755183512.369927) can0 101#00DC050000 T
(1755183512.370629) can0 100#0100000000 T
(1755183512.379823) can0 101#00DC050000 T
(1755183512.380573) can0 100#0100000000 T
(1755183512.389831) can0 101#00DC050000 T
(1755183512.390627) can0 100#0100000000 T
(1755183512.399843) can0 101#00DC050000 T
(1755183512.400549) can0 100#0100000000 T
(1755183512.409837) can0 101#00DC050000 T
(1755183512.410586) can0 100#0100000000 T
(1755183512.419842) can0 101#00DC050000 T
(1755183512.420550) can0 100#0100000000 T
(1755183512.429821) can0 101#00DC050000 T
(1755183512.430586) can0 100#0100000000 T
(1755183512.439830) can0 101#00DC050000 T
(1755183512.440645) can0 100#0100000000 T
(1755183512.449835) can0 101#00DC050000 T
(1755183512.450575) can0 100#0100000000 T
(1755183512.459937) can0 101#00DC050000 T
(1755183512.460825) can0 100#0100000000 T
(1755183512.469929) can0 101#00DC050000 T
(1755183512.470676) can0 100#0100000000 T
(1755183512.471855) can0 211#0000000000000000 R
(1755183512.475065) can0 200#00980EDA0ED80E R
(1755183512.475954) can0 200#01CF0E00000000 R
(1755183512.476926) can0 201#2E2F000000000000 R
(1755183512.477911) can0 202#593B0000CD010000 R
(1755183512.479936) can0 101#00DC050000 T
(1755183512.480927) can0 210#0000000000000000 R
(1755183512.481677) can0 100#0100000000 T
(1755183512.489900) can0 101#00DC050000 T
(1755183512.490661) can0 100#0100000000 T
(1755183512.500042) can0 101#00DC050000 T
(1755183512.500582) can0 204#0000 R
(1755183512.501329) can0 100#0100000000 T
(1755183512.501915) can0 203#D41C R
(1755183512.510101) can0 101#00DC050000 T
(1755183512.510894) can0 100#0100000000 T
(1755183512.520043) can0 101#00DC050000 T
(1755183512.520840) can0 100#0100000000 T
(1755183512.530016) can0 101#00DC050000 T
(1755183512.530891) can0 100#0100000000 T
(1755183512.539990) can0 101#00DC050000 T
(1755183512.540875) can0 100#0100000000 T
(1755183512.549987) can0 101#00DC050000 T
(1755183512.550775) can0 100#0100000000 T
(1755183512.559989) can0 101#00DC050000 T
(1755183512.560728) can0 100#0100000000 T
(1755183512.569906) can0 101#00DC050000 T
(1755183512.570657) can0 100#0100000000 T
(1755183512.579931) can0 101#00DC050000 T
(1755183512.580641) can0 100#0100000000 T
(1755183512.589835) can0 101#00DC050000 T
(1755183512.590574) can0 100#0100000000 T
(1755183512.599843) can0 101#00DC050000 T
(1755183512.600625) can0 100#0100000000 T
(1755183512.609924) can0 101#00DC050000 T
(1755183512.610712) can0 100#0100000000 T
(1755183512.619930) can0 101#00DC050000 T
(1755183512.620643) can0 100#0100000000 T
(1755183512.629933) can0 101#00DC050000 T
(1755183512.630623) can0 100#0100000000 T
(1755183512.639899) can0 101#00DC050000 T
(1755183512.640647) can0 100#0100000000 T
(1755183512.649941) can0 101#00DC050000 T
(1755183512.650658) can0 100#0100000000 T
(1755183512.659952) can0 101#00DC050000 T
(1755183512.660700) can0 100#0100000000 T
(1755183512.669941) can0 101#00DC050000 T
(1755183512.670739) can0 100#0100000000 T
(1755183512.671844) can0 211#0000000000000000 R
(1755183512.677490) can0 200#00980EE30EE00E R
(1755183512.678366) can0 200#01C70E00000000 R
(1755183512.679334) can0 201#842F000000000000 R
(1755183512.680149) can0 101#00DC050000 T
(1755183512.680970) can0 202#623B0000A5010000 R
(1755183512.681829) can0 100#0100000000 T
(1755183512.682749) can0 210#0000000000000000 R
(1755183512.689928) can0 101#00DC050000 T
(1755183512.690593) can0 100#0100000000 T
(1755183512.699826) can0 101#00DC050000 T
(1755183512.700636) can0 100#0100000000 T
(1755183512.701120) can0 204#0000 R
(1755183512.701649) can0 203#951C R
(1755183512.709951) can0 101#00DC050000 T
(1755183512.710639) can0 100#0100000000 T
(1755183512.719828) can0 101#00DC050000 T
(1755183512.720566) can0 100#0100000000 T
(1755183512.729931) can0 101#00DC050000 T
(1755183512.730639) can0 100#0100000000 T
(1755183512.739928) can0 101#00DC050000 T
(1755183512.740640) can0 100#0100000000 T
(1755183512.749937) can0 101#00DC050000 T
(1755183512.750634) can0 100#0100000000 T
(1755183512.759896) can0 101#00DC050000 T
(1755183512.760657) can0 100#0100000000 T
(1755183512.769825) can0 101#00DC050000 T
(1755183512.770578) can0 100#0100000000 T
(1755183512.779927) can0 101#00DC050000 T
(1755183512.780652) can0 100#0100000000 T
(1755183512.789927) can0 101#00DC050000 T
(1755183512.790646) can0 100#0100000000 T
(1755183512.799941) can0 101#00DC050000 T
(1755183512.800657) can0 100#0100000000 T
(1755183512.809815) can0 101#00DC050000 T
(1755183512.810566) can0 100#0100000000 T
(1755183512.819954) can0 101#00DC050000 T
(1755183512.820689) can0 100#0100000000 T
(1755183512.829824) can0 101#00DC050000 T
(1755183512.830617) can0 100#0100000000 T
(1755183512.839834) can0 101#00DC050000 T
(1755183512.840543) can0 100#0100000000 T
(1755183512.849813) can0 101#00DC050000 T
(1755183512.850564) can0 100#0100000000 T
(1755183512.859944) can0 101#00DC050000 T
(1755183512.860696) can0 100#0100000000 T
(1755183512.869896) can0 101#00DC050000 T
(1755183512.870635) can0 100#0100000000 T
(1755183512.871730) can0 211#0000000000000000 R
(1755183512.879949) can0 101#00DC050000 T
(1755183512.880742) can0 200#00980EEC0EC60E R
(1755183512.881542) can0 100#0100000000 T
(1755183512.882442) can0 200#01C60E00000000 R
(1755183512.883408) can0 201#842F000000000000 R
(1755183512.884381) can0 202#623B0000A5010000 R
(1755183512.885396) can0 210#0000000000000000 R
(1755183512.889816) can0 101#00DC050000 T
(1755183512.890566) can0 100#0100000000 T
(1755183512.899925) can0 101#00DC050000 T
(1755183512.900633) can0 100#0100000000 T
(1755183512.901204) can0 204#0000 R
(1755183512.901675) can0 203#BD1C R
(1755183512.909928) can0 101#00DC050000 T
(1755183512.910719) can0 100#0100000000 T
(1755183512.920019) can0 101#00DC050000 T
(1755183512.920642) can0 100#0100000000 T
(1755183512.929960) can0 101#00DC050000 T
(1755183512.930633) can0 100#0100000000 T
(1755183512.939940) can0 101#00DC050000 T
(1755183512.940631) can0 100#0100000000 T
(1755183512.949886) can0 101#00DC050000 T
(1755183512.950655) can0 100#0100000000 T
(1755183512.959816) can0 101#00DC050000 T
(1755183512.960566) can0 100#0100000000 T
(1755183512.969815) can0 101#00DC050000 T
(1755183512.970608) can0 100#0100000000 T
(1755183512.979923) can0 101#00DC050000 T
(1755183512.980630) can0 100#0100000000 T
(1755183512.989814) can0 101#00DC050000 T
(1755183512.990547) can0 100#0100000000 T
(1755183512.999954) can0 101#00DC050000 T
(1755183513.000642) can0 100#0100000000 T
(1755183513.009884) can0 101#00DC050000 T
(1755183513.010637) can0 100#0100000000 T
(1755183513.019938) can0 101#00DC050000 T
(1755183513.020657) can0 100#0100000000 T
(1755183513.029824) can0 101#00DC050000 T
(1755183513.030560) can0 100#0100000000 T
(1755183513.039824) can0 101#00DC050000 T
(1755183513.040560) can0 100#0100000000 T
(1755183513.049836) can0 101#00DC050000 T
(1755183513.050565) can0 100#0100000000 T
(1755183513.059925) can0 101#00DC050000 T
(1755183513.060693) can0 100#0100000000 T
(1755183513.069942) can0 101#00DC050000 T
(1755183513.070629) can0 100#0100000000 T
(1755183513.071819) can0 211#0000000000000000 R
(1755183513.079813) can0 101#00DC050000 T
(1755183513.080811) can0 210#0000000000000000 R
(1755183513.081559) can0 100#0100000000 T
(1755183513.082405) can0 200#00980EEC0EC60E R
(1755183513.083326) can0 200#01CF0E00000000 R
(1755183513.084287) can0 201#232F000000000000 R
(1755183513.085245) can0 202#623B0000A5010000 R
(1755183513.089887) can0 101#00DC050000 T
(1755183513.090635) can0 100#0100000000 T
(1755183513.099922) can0 101#00DC050000 T
(1755183513.100647) can0 100#0100000000 T
(1755183513.101200) can0 204#0000 R
(1755183513.101728) can0 203#031D R
(1755183513.109886) can0 101#00DC050000 T
(1755183513.110635) can0 100#0100000000 T
(1755183513.119823) can0 101#00DC050000 T
(1755183513.120558) can0 100#0100000000 T
(1755183513.129921) can0 101#00DC050000 T
(1755183513.130643) can0 100#0100000000 T
(1755183513.139904) can0 101#00DC050000 T
(1755183513.140650) can0 100#0100000000 T
(1755183513.149881) can0 101#00DC050000 T
(1755183513.150631) can0 100#0100000000 T
(1755183513.159838) can0 101#00DC050000 T
(1755183513.160570) can0 100#0100000000 T
(1755183513.169930) can0 101#00DC050000 T
(1755183513.170652) can0 100#0100000000 T
(1755183513.179911) can0 101#00DC050000 T
(1755183513.180572) can0 100#0100000000 T
(1755183513.189808) can0 101#00DC050000 T
(1755183513.190557) can0 100#0100000000 T
(1755183513.199934) can0 101#00DC050000 T
(1755183513.200625) can0 100#0100000000 T
(1755183513.209919) can0 101#00DC050000 T
(1755183513.210625) can0 100#0100000000 T
(1755183513.219820) can0 101#00DC050000 T
(1755183513.220557) can0 100#0100000000 T
(1755183513.229919) can0 101#00DC050000 T
(1755183513.230643) can0 100#0100000000 T
(1755183513.239899) can0 101#00DC050000 T
(1755183513.240632) can0 100#0100000000 T
(1755183513.249918) can0 101#00DC050000 T
(1755183513.250629) can0 100#0100000000 T
(1755183513.259950) can0 101#00DC050000 T
(1755183513.260651) can0 100#0100000000 T
(1755183513.269909) can0 101#00DC050000 T
(1755183513.270611) can0 100#0100000000 T
(1755183513.271815) can0 211#0000000000000000 R
(1755183513.279922) can0 101#00DC050000 T
(1755183513.280883) can0 210#0000000000000000 R
(1755183513.281647) can0 100#0100000000 T
(1755183513.285401) can0 200#00980EEC0ECE0E R
(1755183513.286327) can0 200#01C70E00000000 R
(1755183513.287252) can0 201#292F000000000000 R
(1755183513.288247) can0 202#6B3B0000A5010000 R
(1755183513.289894) can0 101#00DC050000 T
(1755183513.290644) can0 100#0100000000 T
(1755183513.299815) can0 101#00DC050000 T
(1755183513.300567) can0 100#0100000000 T
(1755183513.301110) can0 204#0000 R
(1755183513.301639) can0 203#1D1D R
(1755183513.309910) can0 101#00DC050000 T
(1755183513.310719) can0 100#0100000000 T
(1755183513.319936) can0 101#00DC050000 T
(1755183513.320685) can0 100#0100000000 T
(1755183513.329914) can0 101#00DC050000 T
(1755183513.330710) can0 100#0100000000 T
(1755183513.340016) can0 101#00DC050000 T
(1755183513.340808) can0 100#0100000000 T
(1755183513.350012) can0 101#00DC050000 T
(1755183513.350712) can0 100#0100000000 T
(1755183513.359939) can0 101#00DC050000 T
(1755183513.360688) can0 100#0100000000 T
(1755183513.369932) can0 101#00DC050000 T
(1755183513.370680) can0 100#0100000000 T
(1755183513.379945) can0 101#00DC050000 T
(1755183513.380652) can0 100#0100000000 T
(1755183513.389823) can0 101#00DC050000 T
(1755183513.390601) can0 100#0100000000 T
(1755183513.399932) can0 101#00DC050000 T
(1755183513.400666) can0 100#0100000000 T
(1755183513.409804) can0 101#00DC050000 T
(1755183513.410557) can0 100#0100000000 T
(1755183513.419931) can0 101#00DC050000 T
(1755183513.420653) can0 100#0100000000 T
(1755183513.429827) can0 101#00DC050000 T
(1755183513.430561) can0 100#0100000000 T
(1755183513.439831) can0 101#00DC050000 T
(1755183513.440599) can0 100#0100000000 T
(1755183513.449870) can0 101#00DC050000 T
(1755183513.450706) can0 100#0100000000 T
(1755183513.460008) can0 101#00DC050000 T
(1755183513.460788) can0 100#0100000000 T
(1755183513.469952) can0 101#00DC050000 T
(1755183513.470722) can0 100#0100000000 T
(1755183513.471897) can0 211#0000000000000000 R
(1755183513.479830) can0 101#00DC050000 T
(1755183513.480832) can0 210#0000000000000000 R
(1755183513.481562) can0 100#0100000000 T
(1755183513.487176) can0 200#00980ED10ED00E R
(1755183513.488008) can0 200#01D70E00000000 R
(1755183513.489083) can0 201#6D2F000000000000 R
(1755183513.490008) can0 202#503B0000A5010000 R
(1755183513.490726) can0 101#00DC050000 T
(1755183513.491478) can0 100#0100000000 T
(1755183513.499825) can0 101#00DC050000 T
(1755183513.500563) can0 100#0100000000 T
(1755183513.501105) can0 204#0000 R
(1755183513.501634) can0 203#D41C R
(1755183513.509825) can0 101#00DC050000 T
(1755183513.510684) can0 100#0100000000 T
(1755183513.519927) can0 101#00DC050000 T
(1755183513.520644) can0 100#0100000000 T
(1755183513.529913) can0 101#00DC050000 T
(1755183513.530619) can0 100#0100000000 T
(1755183513.539940) can0 101#00DC050000 T
(1755183513.540630) can0 100#0100000000 T
(1755183513.549808) can0 101#00DC050000 T
(1755183513.550558) can0 100#0100000000 T
(1755183513.559927) can0 101#00DC050000 T
(1755183513.560618) can0 100#0100000000 T
(1755183513.569872) can0 101#00DC050000 T
(1755183513.570634) can0 100#0100000000 T
(1755183513.579815) can0 101#00DC050000 T
(1755183513.580554) can0 100#0100000000 T
(1755183513.589799) can0 101#00DC050000 T
(1755183513.590630) can0 100#0100000000 T
(1755183513.599799) can0 101#00DC050000 T
(1755183513.600549) can0 100#0100000000 T
(1755183513.609802) can0 101#00DC050000 T
(1755183513.610539) can0 100#0100000000 T
(1755183513.619926) can0 101#00DC050000 T
(1755183513.620633) can0 100#0100000000 T
(1755183513.629814) can0 101#00DC050000 T
(1755183513.630549) can0 100#0100000000 T
(1755183513.639899) can0 101#00DC050000 T
(1755183513.640628) can0 100#0100000000 T
(1755183513.649802) can0 101#00DC050000 T
(1755183513.650552) can0 100#0100000000 T
(1755183513.659926) can0 101#00DC050000 T
(1755183513.660629) can0 100#0100000000 T
(1755183513.669802) can0 101#00DC050000 T
(1755183513.670595) can0 100#0100000000 T
(1755183513.671749) can0 211#0000000000000000 R
(1755183513.679813) can0 101#00DC050000 T
(1755183513.680807) can0 210#0000000000000000 R
(1755183513.681513) can0 100#0100000000 T
(1755183513.689644) can0 200#00980EDA0ED80E R
(1755183513.690480) can0 101#00DC050000 T
(1755183513.691330) can0 200#01CF0E00000000 R
(1755183513.692111) can0 100#0100000000 T
(1755183513.693038) can0 201#672F000000000000 R
(1755183513.694001) can0 202#593B00007D010000 R
(1755183513.699923) can0 101#00DC050000 T
(1755183513.700616) can0 100#0100000000 T
(1755183513.701141) can0 204#0000 R
(1755183513.701651) can0 203#951C R
(1755183513.709874) can0 101#00DC050000 T
(1755183513.710620) can0 100#0100000000 T
(1755183513.719894) can0 101#00DC050000 T
(1755183513.720624) can0 100#0100000000 T
(1755183513.729909) can0 101#00DC050000 T
(1755183513.730620) can0 100#0100000000 T
(1755183513.739925) can0 101#00DC050000 T
(1755183513.740615) can0 100#0100000000 T
(1755183513.749817) can0 101#00DC050000 T
(1755183513.750550) can0 100#0100000000 T
(1755183513.759924) can0 101#00DC050000 T
(1755183513.760625) can0 100#0100000000 T
(1755183513.769908) can0 101#00DC050000 T
(1755183513.770573) can0 100#0100000000 T
(1755183513.779945) can0 101#00DC050000 T
(1755183513.780675) can0 100#0100000000 T
(1755183513.789899) can0 101#00DC050000 T
(1755183513.790617) can0 100#0100000000 T
(1755183513.799936) can0 101#00DC050000 T
(1755183513.800578) can0 100#0100000000 T
(1755183513.809868) can0 101#00DC050000 T
(1755183513.810719) can0 100#0100000000 T
(1755183513.819923) can0 101#00DC050000 T
(1755183513.820641) can0 100#0100000000 T
(1755183513.829887) can0 101#00DC050000 T
(1755183513.830752) can0 100#0100000000 T
(1755183513.840004) can0 101#00DC050000 T
(1755183513.840630) can0 100#0100000000 T
(1755183513.849981) can0 101#00DC050000 T
(1755183513.850557) can0 100#0100000000 T
(1755183513.859925) can0 101#00DC050000 T
(1755183513.860690) can0 100#0100000000 T
(1755183513.869867) can0 101#00DC050000 T
(1755183513.870617) can0 100#0100000000 T
(1755183513.871807) can0 211#0000000000000000 R
(1755183513.879817) can0 101#00DC050000 T
(1755183513.880794) can0 210#0000000000000000 R
(1755183513.881546) can0 100#0100000000 T
(1755183513.889906) can0 101#00DC050000 T
(1755183513.890655) can0 100#0100000000 T
(1755183513.892078) can0 200#00980EDA0ECF0E R
(1755183513.892996) can0 200#01CF0E00000000 R
(1755183513.894022) can0 201#182F000000000000 R
(1755183513.894905) can0 202#593B0000A5010000 R
(1755183513.899905) can0 101#00DC050000 T
(1755183513.900612) can0 100#0100000000 T
(1755183513.901184) can0 204#0000 R
(1755183513.901713) can0 203#BD1C R
(1755183513.909880) can0 101#00DC050000 T
(1755183513.910635) can0 100#0100000000 T
(1755183513.919820) can0 101#00DC050000 T
(1755183513.920555) can0 100#0100000000 T
(1755183513.929879) can0 101#00DC050000 T
(1755183513.930620) can0 100#0100000000 T
(1755183513.939918) can0 101#00DC050000 T
(1755183513.940626) can0 100#0100000000 T
(1755183513.949912) can0 101#00DC050000 T
(1755183513.950693) can0 100#0100000000 T
(1755183513.959905) can0 101#00DC050000 T
(1755183513.960627) can0 100#0100000000 T
(1755183513.969887) can0 101#00DC050000 T
(1755183513.970572) can0 100#0100000000 T
(1755183513.979919) can0 101#00DC050000 T
(1755183513.980615) can0 100#0100000000 T
(1755183513.989918) can0 101#00DC050000 T
(1755183513.990629) can0 100#0100000000 T
(1755183513.999886) can0 101#00DC050000 T
(1755183514.000635) can0 100#0100000000 T
(1755183514.009804) can0 101#00DC050000 T
(1755183514.010541) can0 100#0100000000 T
(1755183514.019995) can0 101#00DC050000 T
(1755183514.020705) can0 100#0100000000 T
(1755183514.029810) can0 101#00DC050000 T
(1755183514.030640) can0 100#0100000000 T
(1755183514.039870) can0 101#00DC050000 T
(1755183514.040588) can0 100#0100000000 T
(1755183514.049893) can0 101#00DC050000 T
(1755183514.050635) can0 100#0100000000 T
(1755183514.059904) can0 101#00DC050000 T
(1755183514.060627) can0 100#0100000000 T
(1755183514.069902) can0 101#00DC050000 T
(1755183514.070641) can0 100#0100000000 T
(1755183514.071799) can0 211#0000000000000000 R
(1755183514.079793) can0 101#00DC050000 T
(1755183514.080781) can0 210#0000000000000000 R
(1755183514.081527) can0 100#0100000000 T
(1755183514.089902) can0 101#00DC050000 T
(1755183514.090620) can0 100#0100000000 T
(1755183514.094424) can0 200#00980ED10ED80E R
(1755183514.095366) can0 200#01D80E00000000 R
(1755183514.096337) can0 201#292F000000000000 R
(1755183514.097281) can0 202#503B0000A5010000 R
(1755183514.099901) can0 101#00DC050000 T
(1755183514.100621) can0 100#0100000000 T
(1755183514.101164) can0 204#0000 R
(1755183514.101707) can0 203#461D R
(1755183514.109901) can0 101#00DC050000 T
(1755183514.110564) can0 100#0100000000 T
(1755183514.119878) can0 101#00DC050000 T
(1755183514.120572) can0 100#0100000000 T
(1755183514.129920) can0 101#00DC050000 T
(1755183514.130608) can0 100#0100000000 T
(1755183514.139928) can0 101#00DC050000 T
(1755183514.140634) can0 100#0100000000 T
(1755183514.149915) can0 101#00DC050000 T
(1755183514.150622) can0 100#0100000000 T
(1755183514.159879) can0 101#00DC050000 T
(1755183514.160615) can0 100#0100000000 T
(1755183514.169788) can0 101#00DC050000 T
(1755183514.170538) can0 100#0100000000 T
(1755183514.179929) can0 101#00DC050000 T
(1755183514.180576) can0 100#0100000000 T
(1755183514.189912) can0 101#00DC050000 T
(1755183514.190619) can0 100#0100000000 T
(1755183514.199913) can0 101#00DC050000 T
(1755183514.200619) can0 100#0100000000 T
(1755183514.209862) can0 101#00DC050000 T
(1755183514.210567) can0 100#0100000000 T
(1755183514.219915) can0 101#00DC050000 T
(1755183514.220632) can0 100#0100000000 T
(1755183514.229795) can0 101#00DC050000 T
(1755183514.230546) can0 100#0100000000 T
(1755183514.239926) can0 101#00DC050000 T
(1755183514.240613) can0 100#0100000000 T
(1755183514.249859) can0 101#00DC050000 T
(1755183514.250621) can0 100#0100000000 T
(1755183514.259917) can0 101#00DC050000 T
(1755183514.260669) can0 100#0100000000 T
(1755183514.269988) can0 101#00DC050000 T
(1755183514.270791) can0 100#0100000000 T
(1755183514.271797) can0 211#0000000000000000 R
(1755183514.279926) can0 101#00DC050000 T
(1755183514.280887) can0 210#0000000000000000 R
(1755183514.281615) can0 100#0100000000 T
(1755183514.289936) can0 101#00DC050000 T
(1755183514.290655) can0 100#0100000000 T
(1755183514.296082) can0 200#00980EEC0EC60E R
(1755183514.296979) can0 200#01CF0E00000000 R
(1755183514.297909) can0 201#232F000000000000 R
(1755183514.298892) can0 202#623B0000A5010000 R
(1755183514.300016) can0 101#00DC050000 T
(1755183514.300508) can0 204#0000 R
(1755183514.301304) can0 100#0100000000 T
(1755183514.301871) can0 203#1D1D R
(1755183514.309879) can0 101#00DC050000 T
(1755183514.310573) can0 100#0100000000 T
(1755183514.319870) can0 101#00DC050000 T
(1755183514.320613) can0 100#0100000000 T
(1755183514.329855) can0 101#00DC050000 T
(1755183514.330599) can0 100#0100000000 T
(1755183514.339977) can0 101#00DC050000 T
(1755183514.340619) can0 100#0100000000 T
(1755183514.349969) can0 101#00DC050000 T
(1755183514.350714) can0 100#0100000000 T
(1755183514.359912) can0 101#00DC050000 T
(1755183514.360604) can0 100#0100000000 T
(1755183514.369981) can0 101#00DC050000 T
(1755183514.370691) can0 100#0100000000 T
(1755183514.379989) can0 101#00DC050000 T
(1755183514.380739) can0 100#0100000000 T
(1755183514.389941) can0 101#00DC050000 T
(1755183514.390686) can0 100#0100000000 T
(1755183514.399986) can0 101#00DC050000 T
(1755183514.400699) can0 100#0100000000 T
(1755183514.409963) can0 101#00DC050000 T
(1755183514.410680) can0 100#0100000000 T
(1755183514.419868) can0 101#00DC050000 T
(1755183514.420664) can0 100#0100000000 T
(1755183514.429971) can0 101#00DC050000 T
(1755183514.430683) can0 100#0100000000 T
(1755183514.439971) can0 101#00DC050000 T
(1755183514.440731) can0 100#0100000000 T
(1755183514.449963) can0 101#00DC050000 T
(1755183514.450640) can0 100#0100000000 T
(1755183514.459958) can0 101#00DC050000 T
(1755183514.460603) can0 100#0100000000 T
(1755183514.469976) can0 101#00DC050000 T
(1755183514.470725) can0 100#0100000000 T
(1755183514.471792) can0 211#0000000000000000 R
(1755183514.479908) can0 101#00DC050000 T
(1755183514.480921) can0 210#0000000000000000 R
(1755183514.481637) can0 100#0100000000 T
(1755183514.489932) can0 101#00DC050000 T
(1755183514.490691) can0 100#0100000000 T
(1755183514.497042) can0 200#00980EEC0EC60E R
(1755183514.497943) can0 200#01CF0E00000000 R
(1755183514.498875) can0 201#3A2F000000000000 R
(1755183514.499941) can0 202#623B0000A5010000 R
(1755183514.500733) can0 101#00DC050000 T
(1755183514.501164) can0 204#0000 R
(1755183514.502059) can0 100#0100000000 T
(1755183514.502424) can0 203#D41C R
(1755183514.509823) can0 101#00DC050000 T
(1755183514.510568) can0 100#0100000000 T
(1755183514.519969) can0 101#00DC050000 T
(1755183514.520692) can0 100#0100000000 T
(1755183514.529867) can0 101#00DC050000 T
(1755183514.530632) can0 100#0100000000 T
(1755183514.539882) can0 101#00DC050000 T
(1755183514.540662) can0 100#0100000000 T
(1755183514.549862) can0 101#00DC050000 T
(1755183514.550657) can0 100#0100000000 T
(1755183514.559893) can0 101#00DC050000 T
(1755183514.560642) can0 100#0100000000 T
(1755183514.569861) can0 101#00DC050000 T
(1755183514.570673) can0 100#0100000000 T
(1755183514.579986) can0 101#00DC050000 T
(1755183514.580674) can0 100#0100000000 T
(1755183514.589865) can0 101#00DC050000 T
(1755183514.590567) can0 100#0100000000 T
(1755183514.599939) can0 101#00DC050000 T
(1755183514.600627) can0 100#0100000000 T
(1755183514.609968) can0 101#00DC050000 T
(1755183514.610676) can0 100#0100000000 T
(1755183514.619974) can0 101#00DC050000 T
(1755183514.620726) can0 100#0100000000 T
(1755183514.629969) can0 101#00DC050000 T
(1755183514.630592) can0 100#0100000000 T
(1755183514.639931) can0 101#00DC050000 T
(1755183514.640729) can0 100#0100000000 T
(1755183514.649897) can0 101#00DC050000 T
(1755183514.650708) can0 100#0100000000 T
(1755183514.659927) can0 101#00DC050000 T
(1755183514.660704) can0 100#0100000000 T
(1755183514.669960) can0 101#00DC050000 T
(1755183514.670759) can0 100#0100000000 T
(1755183514.671790) can0 211#0000000000000000 R
(1755183514.679966) can0 101#00DC050000 T
(1755183514.680873) can0 210#0000000000000000 R
(1755183514.681638) can0 100#0100000000 T
(1755183514.689858) can0 101#00DC050000 T
(1755183514.690689) can0 100#0100000000 T
(1755183514.698056) can0 200#00980EE30ECF0E R
(1755183514.698949) can0 200#01CF0E00000000 R
(1755183514.699925) can0 201#1D2F000000000000 R
(1755183514.700676) can0 101#00DC050000 T
(1755183514.701641) can0 202#623B0000A5010000 R
(1755183514.702372) can0 100#0100000000 T
(1755183514.702947) can0 204#0000 R
(1755183514.703582) can0 203#951C R
(1755183514.709909) can0 101#00DC050000 T
(1755183514.710721) can0 100#0100000000 T
(1755183514.719942) can0 101#00DC050000 T
(1755183514.720679) can0 100#0100000000 T
(1755183514.729869) can0 101#00DC050000 T
(1755183514.730606) can0 100#0100000000 T
(1755183514.739980) can0 101#00DC050000 T
(1755183514.740623) can0 100#0100000000 T
(1755183514.749935) can0 101#00DC050000 T
(1755183514.750679) can0 100#0100000000 T
(1755183514.759965) can0 101#00DC050000 T
(1755183514.760721) can0 100#0100000000 T
(1755183514.769965) can0 101#00DC050000 T
(1755183514.770715) can0 100#0100000000 T
(1755183514.779948) can0 101#00DC050000 T
(1755183514.780619) can0 100#0100000000 T
(1755183514.789935) can0 101#00DC050000 T
(1755183514.790618) can0 100#0100000000 T
(1755183514.799964) can0 101#00DC050000 T
(1755183514.800713) can0 100#0100000000 T
(1755183514.809939) can0 101#00DC050000 T
(1755183514.810723) can0 100#0100000000 T
(1755183514.819987) can0 101#00DC050000 T
(1755183514.820681) can0 100#0100000000 T
(1755183514.829924) can0 101#00DC050000 T
(1755183514.830734) can0 100#0100000000 T
(1755183514.839984) can0 101#00DC050000 T
(1755183514.840717) can0 100#0100000000 T
(1755183514.849894) can0 101#00DC050000 T
(1755183514.850677) can0 100#0100000000 T
(1755183514.859982) can0 101#00DC050000 T
(1755183514.860656) can0 100#0100000000 T
(1755183514.869856) can0 101#00DC050000 T
(1755183514.870604) can0 100#0100000000 T
(1755183514.871859) can0 211#0000000000000000 R
(1755183514.879989) can0 101#00DC050000 T
(1755183514.880927) can0 210#0000000000000000 R
(1755183514.881634) can0 100#0100000000 T
(1755183514.889929) can0 101#00DC050000 T
(1755183514.890679) can0 100#0100000000 T
(1755183514.899152) can0 200#00980ED10ED80E R
(1755183514.900026) can0 200#01D80E00000000 R
(1755183514.900776) can0 101#00DC050000 T
(1755183514.901750) can0 201#622F000000000000 R
(1755183514.902499) can0 100#0100000000 T
(1755183514.903445) can0 202#503B00007D010000 R
(1755183514.903985) can0 204#0000 R
(1755183514.904489) can0 203#BD1C R
(1755183514.909851) can0 101#00DC050000 T
(1755183514.910601) can0 100#0100000000 T
(1755183514.919975) can0 101#00DC050000 T
(1755183514.920717) can0 100#0100000000 T
(1755183514.929860) can0 101#00DC050000 T
(1755183514.930685) can0 100#0100000000 T
(1755183514.939982) can0 101#00DC050000 T
(1755183514.940679) can0 100#0100000000 T
(1755183514.949952) can0 101#00DC050000 T
(1755183514.950537) can0 100#0100000000 T
(1755183514.959975) can0 101#00DC050000 T
(1755183514.960651) can0 100#0100000000 T
(1755183514.969963) can0 101#00DC050000 T
(1755183514.970714) can0 100#0100000000 T
(1755183514.979967) can0 101#00DC050000 T
(1755183514.980654) can0 100#0100000000 T
(1755183514.989967) can0 101#00DC050000 T
(1755183514.990713) can0 100#0100000000 T
(1755183514.999995) can0 101#00DC050000 T
(1755183515.000600) can0 100#0100000000 T
(1755183515.009933) can0 101#00DC050000 T
(1755183515.010675) can0 100#0100000000 T
(1755183515.019986) can0 101#00DC050000 T
(1755183515.020687) can0 100#0100000000 T
(1755183515.029960) can0 101#00DC050000 T
(1755183515.030713) can0 100#0100000000 T
(1755183515.039992) can0 101#00DC050000 T
(1755183515.040727) can0 100#0100000000 T
(1755183515.049924) can0 101#00DC050000 T
(1755183515.050718) can0 100#0100000000 T
(1755183515.059975) can0 101#00DC050000 T
(1755183515.060700) can0 100#0100000000 T
(1755183515.069904) can0 101#00DC050000 T
(1755183515.070714) can0 100#0100000000 T
(1755183515.071858) can0 211#0000000000000000 R
(1755183515.079974) can0 101#00DC050000 T
(1755183515.080952) can0 210#0000000000000000 R
(1755183515.081658) can0 100#0100000000 T
(1755183515.090008) can0 101#00DC050000 T
(1755183515.090747) can0 100#0100000000 T
(1755183515.099973) can0 101#00DC050000 T
(1755183515.100681) can0 100#0100000000 T
(1755183515.101128) can0 204#0000 R
(1755183515.102046) can0 200#00980EE30EC60E R
(1755183515.102951) can0 200#01CF0E00000000 R
(1755183515.103966) can0 201#182F000000000000 R
(1755183515.104923) can0 202#593B0000A5010000 R
(1755183515.105418) can0 203#461D R
(1755183515.109960) can0 101#00DC050000 T
(1755183515.110715) can0 100#0100000000 T
(1755183515.119932) can0 101#00DC050000 T
(1755183515.120727) can0 100#0100000000 T
(1755183515.129896) can0 101#00DC050000 T
(1755183515.130589) can0 100#0100000000 T
(1755183515.139963) can0 101#00DC050000 T
(1755183515.140707) can0 100#0100000000 T
(1755183515.149922) can0 101#00DC050000 T
(1755183515.150724) can0 100#0100000000 T
(1755183515.159922) can0 101#00DC050000 T
(1755183515.160724) can0 100#0100000000 T
(1755183515.169954) can0 101#00DC050000 T
(1755183515.170597) can0 100#0100000000 T
(1755183515.179959) can0 101#00DC050000 T
(1755183515.180664) can0 100#0100000000 T
(1755183515.189922) can0 101#00DC050000 T
(1755183515.190716) can0 100#0100000000 T
(1755183515.199921) can0 101#00DC050000 T
(1755183515.200720) can0 100#0100000000 T
(1755183515.209888) can0 101#00DC050000 T
(1755183515.210705) can0 100#0100000000 T
(1755183515.219935) can0 101#00DC050000 T
(1755183515.220719) can0 100#0100000000 T
(1755183515.229893) can0 101#00DC050000 T
(1755183515.230664) can0 100#0100000000 T
(1755183515.239925) can0 101#00DC050000 T
(1755183515.240719) can0 100#0100000000 T
(1755183515.249955) can0 101#00DC050000 T
(1755183515.250712) can0 100#0100000000 T
(1755183515.260038) can0 101#00DC050000 T
(1755183515.260731) can0 100#0100000000 T
(1755183515.269916) can0 101#00DC050000 T
(1755183515.270720) can0 100#0100000000 T
(1755183515.271856) can0 211#0000000000000000 R
(1755183515.279907) can0 101#00DC050000 T
(1755183515.280881) can0 210#0000000000000000 R
(1755183515.281705) can0 100#0100000000 T
(1755183515.289846) can0 101#00DC050000 T
(1755183515.290553) can0 100#0100000000 T
(1755183515.299971) can0 101#00DC050000 T
(1755183515.300717) can0 100#0100000000 T
(1755183515.301214) can0 204#0000 R
(1755183515.301751) can0 203#1D1D R
(1755183515.303358) can0 200#008F0EF50EE80E R
(1755183515.304273) can0 200#01BE0E00000000 R
(1755183515.305257) can0 201#8A2F000000000000 R
(1755183515.306220) can0 202#6B3B0000A5010000 R
(1755183515.309933) can0 101#00DC050000 T
(1755183515.310634) can0 100#0100000000 T
(1755183515.319973) can0 101#00DC050000 T
(1755183515.320781) can0 100#0100000000 T
(1755183515.329898) can0 101#00DC050000 T
(1755183515.330683) can0 100#0100000000 T
(1755183515.339987) can0 101#00DC050000 T
(1755183515.340772) can0 100#0100000000 T
(1755183515.349974) can0 101#00DC050000 T
(1755183515.350838) can0 100#0100000000 T
(1755183515.359979) can0 101#00DC050000 T
(1755183515.360692) can0 100#0100000000 T
(1755183515.370035) can0 101#00DC050000 T
(1755183515.370831) can0 100#0100000000 T
(1755183515.380017) can0 101#00DC050000 T
(1755183515.380768) can0 100#0100000000 T
(1755183515.390125) can0 101#00DC050000 T
(1755183515.390916) can0 100#0100000000 T
(1755183515.400004) can0 101#00DC050000 T
(1755183515.400796) can0 100#0100000000 T
(1755183515.409970) can0 101#00DC050000 T
(1755183515.410769) can0 100#0100000000 T
(1755183515.420039) can0 101#00DC050000 T
(1755183515.420831) can0 100#0100000000 T
(1755183515.430008) can0 101#00DC050000 T
(1755183515.430830) can0 100#0100000000 T
(1755183515.440096) can0 101#00DC050000 T
(1755183515.440952) can0 100#0100000000 T
(1755183515.450066) can0 101#00DC050000 T
(1755183515.450918) can0 100#0100000000 T
(1755183515.459983) can0 101#00DC050000 T
(1755183515.460795) can0 100#0100000000 T
(1755183515.470062) can0 101#00DC050000 T
(1755183515.470840) can0 100#0100000000 T
(1755183515.471847) can0 211#0000000000000000 R
(1755183515.480155) can0 210#0000000000000000 R
(1755183515.480926) can0 101#00DC050000 T
(1755183515.481786) can0 100#0100000000 T
(1755183515.489975) can0 101#00DC050000 T
(1755183515.490831) can0 100#0100000000 T
(1755183515.500104) can0 101#00DC050000 T
(1755183515.500587) can0 204#0000 R
(1755183515.501335) can0 100#0100000000 T
(1755183515.501957) can0 203#D41C R
(1755183515.505688) can0 200#00980ED10ED80E R
(1755183515.506526) can0 200#01D80E00000000 R
(1755183515.507479) can0 201#5C2F000000000000 R
(1755183515.508447) can0 202#503B0000A5010000 R
(1755183515.509923) can0 101#00DC050000 T
(1755183515.510768) can0 100#0100000000 T
(1755183515.520128) can0 101#00DC050000 T
(1755183515.520855) can0 100#0100000000 T
(1755183515.530015) can0 101#00DC050000 T
(1755183515.530859) can0 100#0100000000 T
(1755183515.540037) can0 101#00DC050000 T
(1755183515.540960) can0 100#0100000000 T
(1755183515.550053) can0 101#00DC050000 T
(1755183515.550912) can0 100#0100000000 T
(1755183515.560118) can0 101#00DC050000 T
(1755183515.560876) can0 100#0100000000 T
(1755183515.570115) can0 101#00DC050000 T
(1755183515.570912) can0 100#0100000000 T
(1755183515.580036) can0 101#00DC050000 T
(1755183515.580853) can0 100#0100000000 T
(1755183515.590027) can0 101#00DC050000 T
(1755183515.590841) can0 100#0100000000 T
(1755183515.600046) can0 101#00DC050000 T
(1755183515.600837) can0 100#0100000000 T
(1755183515.610031) can0 101#00DC050000 T
(1755183515.610781) can0 100#0100000000 T
(1755183515.620139) can0 101#00DC050000 T
(1755183515.620949) can0 100#0100000000 T
(1755183515.630056) can0 101#00DC050000 T
(1755183515.630841) can0 100#0100000000 T
(1755183515.640092) can0 101#00DC050000 T
(1755183515.640891) can0 100#0100000000 T
(1755183515.650018) can0 101#00DC050000 T
(1755183515.650910) can0 100#0100000000 T
(1755183515.660017) can0 101#00DC050000 T
(1755183515.660887) can0 100#0100000000 T
(1755183515.670011) can0 101#00DC050000 T
(1755183515.670848) can0 100#0100000000 T
(1755183515.671903) can0 211#0000000000000000 R
(1755183515.680145) can0 210#0000000000000000 R
(1755183515.680918) can0 101#00DC050000 T
(1755183515.681686) can0 100#0100000000 T
(1755183515.689986) can0 101#00DC050000 T
(1755183515.690676) can0 100#0100000000 T
(1755183515.700019) can0 101#00DC050000 T
(1755183515.700774) can0 100#0100000000 T
(1755183515.701262) can0 204#0000 R
(1755183515.701877) can0 203#951C R
(1755183515.707031) can0 200#00980ED10EC80E R
(1755183515.708007) can0 200#01DF0E00000000 R
(1755183515.708925) can0 201#732F000000000000 R
(1755183515.709890) can0 202#503B0000A5010000 R
(1755183515.710625) can0 101#00DC050000 T
(1755183515.711427) can0 100#0100000000 T
(1755183515.720014) can0 101#00DC050000 T
(1755183515.720847) can0 100#0100000000 T
(1755183515.730033) can0 101#00DC050000 T
(1755183515.730786) can0 100#0100000000 T
(1755183515.739931) can0 101#00DC050000 T
(1755183515.740767) can0 100#0100000000 T
(1755183515.749996) can0 101#00DC050000 T
(1755183515.750833) can0 100#0100000000 T
(1755183515.760091) can0 101#00DC050000 T
(1755183515.760764) can0 100#0100000000 T
(1755183515.770037) can0 101#00DC050000 T
(1755183515.770769) can0 100#0100000000 T
(1755183515.779946) can0 101#00DC050000 T
(1755183515.780764) can0 100#0100000000 T
(1755183515.790084) can0 101#00DC050000 T
(1755183515.790856) can0 100#0100000000 T
(1755183515.800046) can0 101#00DC050000 T
(1755183515.800834) can0 100#0100000000 T
(1755183515.810036) can0 101#00DC050000 T
(1755183515.810844) can0 100#0100000000 T
(1755183515.819959) can0 101#00DC050000 T
(1755183515.820752) can0 100#0100000000 T
(1755183515.829955) can0 101#00DC050000 T
(1755183515.830774) can0 100#0100000000 T
(1755183515.839996) can0 101#00DC050000 T
(1755183515.840840) can0 100#0100000000 T
(1755183515.849961) can0 101#00DC050000 T
(1755183515.850749) can0 100#0100000000 T
(1755183515.859975) can0 101#00DC050000 T
(1755183515.860747) can0 100#0100000000 T
(1755183515.870041) can0 101#00DC050000 T
(1755183515.870838) can0 100#0100000000 T
(1755183515.871840) can0 211#0000000000000000 R
(1755183515.880153) can0 210#0000000000000000 R
(1755183515.880925) can0 101#00DC050000 T
(1755183515.881765) can0 100#0100000000 T
(1755183515.889992) can0 101#00DC050000 T
(1755183515.890839) can0 100#0100000000 T
(1755183515.900010) can0 101#00DC050000 T
(1755183515.900501) can0 204#0000 R
(1755183515.901277) can0 100#0100000000 T
(1755183515.901846) can0 203#031D R
(1755183515.908418) can0 200#00980EEC0EC60E R
(1755183515.909328) can0 200#01CF0E00000000 R
(1755183515.910075) can0 101#00DC050000 T
(1755183515.911056) can0 201#232F000000000000 R
(1755183515.911888) can0 100#0100000000 T
(1755183515.912835) can0 202#623B0000A5010000 R
(1755183515.919991) can0 101#00DC050000 T
(1755183515.920823) can0 100#0100000000 T
(1755183515.929941) can0 101#00DC050000 T
(1755183515.930765) can0 100#0100000000 T
(1755183515.940051) can0 101#00DC050000 T
(1755183515.940829) can0 100#0100000000 T
(1755183515.949949) can0 101#00DC050000 T
(1755183515.950746) can0 100#0100000000 T
(1755183515.960011) can0 101#00DC050000 T
(1755183515.960760) can0 100#0100000000 T
(1755183515.969958) can0 101#00DC050000 T
(1755183515.970755) can0 100#0100000000 T
(1755183515.979995) can0 101#00DC050000 T
(1755183515.980828) can0 100#0100000000 T
(1755183515.990073) can0 101#00DC050000 T
(1755183515.990867) can0 100#0100000000 T
(1755183515.999995) can0 101#00DC050000 T
(1755183516.000833) can0 100#0100000000 T
(1755183516.010007) can0 101#00DC050000 T
(1755183516.010867) can0 100#0100000000 T
(1755183516.019975) can0 101#00DC050000 T
(1755183516.020745) can0 100#0100000000 T
(1755183516.029858) can0 101#00DC050000 T
(1755183516.030654) can0 100#0100000000 T
(1755183516.039880) can0 101#00DC050000 T
(1755183516.040628) can0 100#0100000000 T
(1755183516.049865) can0 101#00DC050000 T
(1755183516.050619) can0 100#0100000000 T
(1755183516.059883) can0 101#00DC050000 T
(1755183516.060634) can0 100#0100000000 T
(1755183516.069910) can0 101#00DC050000 T
(1755183516.070746) can0 100#0100000000 T
(1755183516.071759) can0 211#0000000000000000 R
(1755183516.080183) can0 210#0000000000000000 R
(1755183516.080910) can0 101#00DC050000 T
(1755183516.081745) can0 100#0100000000 T
(1755183516.090134) can0 101#00DC050000 T
(1755183516.090905) can0 100#0100000000 T
(1755183516.100008) can0 101#00DC050000 T
(1755183516.100495) can0 204#0000 R
(1755183516.101307) can0 100#0100000000 T
(1755183516.101858) can0 203#461D R
(1755183516.109910) can0 101#00DC050000 T
(1755183516.110756) can0 200#00A10ED10EC70E R
(1755183516.111540) can0 100#0100000000 T
(1755183516.112447) can0 200#01E00E00000000 R
(1755183516.113434) can0 201#782F000000000000 R
(1755183516.114377) can0 202#593B00007D010000 R
(1755183516.119906) can0 101#00DC050000 T
(1755183516.120761) can0 100#0100000000 T
(1755183516.129910) can0 101#00DC050000 T
(1755183516.130745) can0 100#0100000000 T
(1755183516.139951) can0 101#00DC050000 T
(1755183516.140744) can0 100#0100000000 T
(1755183516.149905) can0 101#00DC050000 T
(1755183516.150761) can0 100#0100000000 T
(1755183516.159949) can0 101#00DC050000 T
(1755183516.160761) can0 100#0100000000 T
(1755183516.169947) can0 101#00DC050000 T
(1755183516.170761) can0 100#0100000000 T
(1755183516.179973) can0 101#00DC050000 T
(1755183516.180744) can0 100#0100000000 T
(1755183516.190007) can0 101#00DC050000 T
(1755183516.190864) can0 100#0100000000 T
(1755183516.200007) can0 101#00DC050000 T
(1755183516.200757) can0 100#0100000000 T
(1755183516.209937) can0 101#00DC050000 T
(1755183516.210682) can0 100#0100000000 T
(1755183516.220002) can0 101#00DC050000 T
(1755183516.220752) can0 100#0100000000 T
(1755183516.229946) can0 101#00DC050000 T
(1755183516.230760) can0 100#0100000000 T
(1755183516.239904) can0 101#00DC050000 T
(1755183516.240742) can0 100#0100000000 T
(1755183516.249993) can0 101#00DC050000 T
(1755183516.250741) can0 100#0100000000 T
(1755183516.259927) can0 101#00DC050000 T
(1755183516.260743) can0 100#0100000000 T
(1755183516.269949) can0 101#00DC050000 T
(1755183516.270751) can0 100#0100000000 T
(1755183516.271881) can0 211#0000000000000000 R
(1755183516.280142) can0 210#0000000000000000 R
(1755183516.280906) can0 101#00DC050000 T
(1755183516.281658) can0 100#0100000000 T
(1755183516.289905) can0 101#00DC050000 T
(1755183516.290750) can0 100#0100000000 T
(1755183516.299914) can0 101#00DC050000 T
(1755183516.300444) can0 204#0000 R
(1755183516.301216) can0 100#0100000000 T
(1755183516.301750) can0 203#1D1D R
(1755183516.309910) can0 101#00DC050000 T
(1755183516.310751) can0 100#0100000000 T
(1755183516.312388) can0 200#00980EDA0ED80E R
(1755183516.313330) can0 200#01CF0E00000000 R
(1755183516.314288) can0 201#622F000000000000 R
(1755183516.315205) can0 202#593B0000A5010000 R
(1755183516.319881) can0 101#00DC050000 T
(1755183516.320628) can0 100#0100000000 T
(1755183516.329953) can0 101#00DC050000 T
(1755183516.330740) can0 100#0100000000 T
(1755183516.340046) can0 101#00DC050000 T
(1755183516.340861) can0 100#0100000000 T
(1755183516.349954) can0 101#00DC050000 T
(1755183516.350740) can0 100#0100000000 T
(1755183516.359957) can0 101#00DC050000 T
(1755183516.360749) can0 100#0100000000 T
(1755183516.369947) can0 101#00DC050000 T
(1755183516.370749) can0 100#0100000000 T
(1755183516.379913) can0 101#00DC050000 T
(1755183516.380748) can0 100#0100000000 T
(1755183516.389953) can0 101#00DC050000 T
(1755183516.390749) can0 100#0100000000 T
(1755183516.399901) can0 101#00DC050000 T
(1755183516.400739) can0 100#0100000000 T
(1755183516.409987) can0 101#00DC050000 T
(1755183516.410825) can0 100#0100000000 T
(1755183516.419947) can0 101#00DC050000 T
(1755183516.420739) can0 100#0100000000 T
(1755183516.429951) can0 101#00DC050000 T
(1755183516.430739) can0 100#0100000000 T
(1755183516.439922) can0 101#00DC050000 T
(1755183516.440757) can0 100#0100000000 T
(1755183516.449985) can0 101#00DC050000 T
(1755183516.450821) can0 100#0100000000 T
(1755183516.459954) can0 101#00DC050000 T
(1755183516.460748) can0 100#0100000000 T
(1755183516.469942) can0 101#00DC050000 T
(1755183516.470738) can0 100#0100000000 T
(1755183516.471859) can0 211#0000000000000000 R
(1755183516.479904) can0 101#00DC050000 T
(1755183516.480891) can0 210#0000000000000000 R
(1755183516.481677) can0 100#0100000000 T
(1755183516.489932) can0 101#00DC050000 T
(1755183516.490746) can0 100#0100000000 T
(1755183516.499950) can0 101#00DC050000 T
(1755183516.500475) can0 204#0000 R
(1755183516.501282) can0 100#0100000000 T
(1755183516.501858) can0 203#D41C R
(1755183516.509945) can0 101#00DC050000 T
(1755183516.510746) can0 100#0100000000 T
(1755183516.515377) can0 200#008F0ED10ED90E R
(1755183516.516304) can0 200#01E00E00000000 R
(1755183516.517283) can0 201#232F000000000000 R
(1755183516.518250) can0 202#473B0000A5010000 R
(1755183516.519942) can0 101#00DC050000 T
(1755183516.520821) can0 100#0100000000 T
(1755183516.530017) can0 101#00DC050000 T
(1755183516.530735) can0 100#0100000000 T
(1755183516.539930) can0 101#00DC050000 T
(1755183516.540810) can0 100#0100000000 T
(1755183516.550019) can0 101#00DC050000 T
(1755183516.550827) can0 100#0100000000 T
(1755183516.560058) can0 101#00DC050000 T
(1755183516.560835) can0 100#0100000000 T
(1755183516.570016) can0 101#00DC050000 T
(1755183516.570757) can0 100#0100000000 T
(1755183516.579928) can0 101#00DC050000 T
(1755183516.580734) can0 100#0100000000 T
(1755183516.590016) can0 101#00DC050000 T
(1755183516.590818) can0 100#0100000000 T
(1755183516.600020) can0 101#00DC050000 T
(1755183516.600810) can0 100#0100000000 T
(1755183516.610417) can0 101#00DC050000 T
(1755183516.611171) can0 100#0100000000 T
(1755183516.620036) can0 101#00DC050000 T
(1755183516.620821) can0 100#0100000000 T
(1755183516.629912) can0 101#00DC050000 T
(1755183516.630746) can0 100#0100000000 T
(1755183516.639959) can0 101#00DC050000 T
(1755183516.640741) can0 100#0100000000 T
(1755183516.649943) can0 101#00DC050000 T
(1755183516.650753) can0 100#0100000000 T
(1755183516.659942) can0 101#00DC050000 T
(1755183516.660747) can0 100#0100000000 T
(1755183516.670109) can0 101#00DC050000 T
(1755183516.670902) can0 100#0100000000 T
(1755183516.671874) can0 211#0000000000000000 R
(1755183516.680129) can0 210#0000000000000000 R
(1755183516.680899) can0 101#00DC050000 T
(1755183516.681735) can0 100#0100000000 T
(1755183516.690112) can0 101#00DC050000 T
(1755183516.690898) can0 100#0100000000 T
(1755183516.699949) can0 101#00DC050000 T
(1755183516.700744) can0 100#0100000000 T
(1755183516.701272) can0 204#0000 R
(1755183516.701845) can0 203#951C R
(1755183516.709985) can0 101#00DC050000 T
(1755183516.710751) can0 100#0100000000 T
(1755183516.717914) can0 200#00980ED10ED80E R
(1755183516.718825) can0 200#01D80E00000000 R
(1755183516.719870) can0 201#782F000000000000 R
(1755183516.720569) can0 101#00DC050000 T
(1755183516.721508) can0 202#503B0000A5010000 R
(1755183516.722303) can0 100#0100000000 T
(1755183516.730072) can0 101#00DC050000 T
(1755183516.730904) can0 100#0100000000 T
(1755183516.740050) can0 101#00DC050000 T
(1755183516.740859) can0 100#0100000000 T
(1755183516.750032) can0 101#00DC050000 T
(1755183516.750820) can0 100#0100000000 T
(1755183516.760001) can0 101#00DC050000 T
(1755183516.760830) can0 100#0100000000 T
(1755183516.770098) can0 101#00DC050000 T
(1755183516.770818) can0 100#0100000000 T
(1755183516.779993) can0 101#00DC050000 T
